1542605565.675486,can1 00000001 [0] 
1542605565.691153,can1 00000002 [0] 
1542605565.694115,can1 00000003 [0] 
1542605565.700843,can1 00000004 [0] 
1542605565.707364,can1 00000005 [0] 
1542605565.709941,can1 00000006 [0] 
1542605565.716724,can1 00000007 [0] 
1542605565.723254,can1 00000008 [0] 
1542605565.725902,can1 00000009 [0] 
1542605565.732822,can1 0000000A [0] 
1542605565.738379,can1 0000000B [0] 
1542605565.740984,can1 0000000C [0] 
1542605565.743621,can1 0000000D [0] 
1542605565.745949,can1 0000000E [0] 
1542605565.748274,can1 0000000F [0] 
1542605565.750488,can1 00000010 [0] 
1542605565.752728,can1 00000011 [0] 
1542605565.754982,can1 00000012 [0] 
1542605565.757393,can1 00000013 [0] 
1542605565.759702,can1 00000014 [0] 
1542605565.761986,can1 00000015 [0] 
1542605565.764242,can1 00000016 [0] 
1542605565.766398,can1 00000017 [0] 
1542605565.76857,can1 00000018 [0] 
1542605565.77081,can1 00000019 [0] 
1542605565.773189,can1 0000001A [0] 
1542605565.775362,can1 0000001B [0] 
1542605565.777688,can1 0000001C [0] 
1542605565.780532,can1 0000001D [0] 
1542605565.783142,can1 0000001E [0] 
1542605565.78552,can1 0000001F [0] 
1542605565.78777,can1 00000020 [0] 
1542605565.790069,can1 00000021 [0] 
1542605565.792467,can1 00000022 [0] 
1542605565.7947,can1 00000023 [0] 
1542605565.796887,can1 00000024 [0] 
1542605565.79917,can1 00000025 [0] 
1542605565.801383,can1 00000026 [0] 
1542605565.803634,can1 00000027 [0] 
1542605565.805908,can1 00000028 [0] 
1542605565.80829,can1 00000029 [0] 
1542605565.810454,can1 0000002A [0] 
1542605565.812687,can1 0000002B [0] 
1542605565.814841,can1 0000002C [0] 
1542605565.817395,can1 0000002D [0] 
1542605565.819895,can1 0000002E [0] 
1542605565.822115,can1 0000002F [0] 
1542605565.824444,can1 00000030 [0] 
1542605565.826621,can1 00000031 [0] 
1542605565.828834,can1 00000032 [0] 
1542605565.831082,can1 00000033 [0] 
1542605565.833188,can1 00000034 [0] 
1542605565.835549,can1 00000035 [0] 
1542605565.837715,can1 00000036 [0] 
1542605565.839972,can1 00000037 [0] 
1542605565.842141,can1 00000038 [0] 
1542605565.844359,can1 00000039 [0] 
1542605565.846518,can1 0000003A [0] 
1542605565.848686,can1 0000003B [0] 
1542605565.850869,can1 0000003C [0] 
1542605565.853137,can1 0000003D [0] 
1542605565.855329,can1 0000003E [0] 
1542605565.857576,can1 0000003F [0] 
1542605565.859782,can1 00000040 [0] 
1542605565.862063,can1 00000041 [0] 
1542605565.864288,can1 00000042 [0] 
1542605565.866472,can1 00000043 [0] 
1542605565.868777,can1 00000044 [0] 
1542605565.870941,can1 00000045 [0] 
1542605565.873139,can1 00000046 [0] 
1542605565.875306,can1 00000047 [0] 
1542605565.877569,can1 00000048 [0] 
1542605565.879747,can1 00000049 [0] 
1542605565.882804,can1 0000004A [0] 
1542605565.885173,can1 0000004B [0] 
1542605565.887399,can1 0000004C [0] 
1542605565.889674,can1 0000004D [0] 
1542605565.892049,can1 0000004E [0] 
1542605565.894283,can1 0000004F [0] 
1542605565.896484,can1 00000050 [0] 
1542605565.898691,can1 00000051 [0] 
1542605565.900839,can1 00000052 [0] 
1542605565.903083,can1 00000053 [0] 
1542605565.905283,can1 00000054 [0] 
1542605565.907508,can1 00000055 [0] 
1542605565.909793,can1 00000056 [0] 
1542605565.912035,can1 00000057 [0] 
1542605565.914194,can1 00000058 [0] 
1542605565.916726,can1 00000059 [0] 
1542605565.919001,can1 0000005A [0] 
1542605565.921423,can1 0000005B [0] 
1542605565.923654,can1 0000005C [0] 
1542605565.92581,can1 0000005D [0] 
1542605565.92809,can1 0000005E [0] 
1542605565.930293,can1 0000005F [0] 
1542605565.93245,can1 00000060 [0] 
1542605565.934616,can1 00000061 [0] 
1542605565.941342,can1 00000062 [0] 
1542605565.944148,can1 00000063 [0] 
1542605565.946576,can1 00000064 [0] 
1542605565.950431,can1 00000065 [0] 
1542605565.953155,can1 00000066 [0] 
1542605565.955641,can1 00000067 [0] 
1542605565.957982,can1 00000068 [0] 
1542605565.960384,can1 00000069 [0] 
1542605565.962571,can1 0000006A [0] 
1542605565.964811,can1 0000006B [0] 
1542605565.967348,can1 0000006C [0] 
1542605565.969697,can1 0000006D [0] 
1542605565.971958,can1 0000006E [0] 
1542605565.97432,can1 0000006F [0] 
1542605565.976488,can1 00000070 [0] 
1542605565.978741,can1 00000071 [0] 
1542605565.981634,can1 00000072 [0] 
1542605565.984141,can1 00000073 [0] 
1542605565.986482,can1 00000074 [0] 
1542605565.988783,can1 00000075 [0] 
1542605565.991014,can1 00000076 [0] 
1542605565.993283,can1 00000077 [0] 
1542605565.995545,can1 00000078 [0] 
1542605565.997314,can1 00000079 [0] 
1542605565.99965,can1 0000007A [0] 
1542605566.001625,can1 0000007B [0] 
1542605566.003727,can1 0000007C [0] 
1542605566.005862,can1 0000007D [0] 
1542605566.007914,can1 0000007E [0] 
1542605566.010008,can1 0000007F [0] 
1542605566.012078,can1 00000080 [0] 
1542605566.014309,can1 00000081 [0] 
1542605566.016412,can1 00000082 [0] 
1542605566.018619,can1 00000083 [0] 
1542605566.020964,can1 00000084 [0] 
1542605566.023221,can1 00000085 [0] 
1542605566.025259,can1 00000086 [0] 
1542605566.027501,can1 00000087 [0] 
1542605566.029546,can1 00000088 [0] 
1542605566.031602,can1 00000089 [0] 
1542605566.033607,can1 0000008A [0] 
1542605566.035627,can1 0000008B [0] 
1542605566.037705,can1 0000008C [0] 
1542605566.039909,can1 0000008D [0] 
1542605566.042111,can1 0000008E [0] 
1542605566.044448,can1 0000008F [0] 
1542605566.046754,can1 00000090 [0] 
1542605566.0489,can1 00000091 [0] 
1542605566.051141,can1 00000092 [0] 
1542605566.053326,can1 00000093 [0] 
1542605566.055524,can1 00000094 [0] 
1542605566.057724,can1 00000095 [0] 
1542605566.060094,can1 00000096 [0] 
1542605566.062214,can1 00000097 [0] 
1542605566.06442,can1 00000098 [0] 
1542605566.066405,can1 00000099 [0] 
1542605566.068445,can1 0000009A [0] 
1542605566.070504,can1 0000009B [0] 
1542605566.072569,can1 0000009C [0] 
1542605566.074703,can1 0000009D [0] 
1542605566.082108,can1 0000009E [0] 
1542605566.084881,can1 0000009F [0] 
1542605566.091569,can1 000000A0 [0] 
1542605566.098069,can1 000000A1 [0] 
1542605566.100518,can1 000000A2 [0] 
1542605566.107145,can1 000000A3 [0] 
1542605566.11366,can1 000000A4 [0] 
1542605566.116084,can1 000000A5 [0] 
1542605566.125153,can1 000000A6 [0] 
1542605566.125819,can1 000000A7 [0] 
1542605566.126467,can1 000000A8 [0] 
1542605566.12702,can1 000000A9 [0] 
1542605566.127572,can1 000000AA [0] 
1542605566.128092,can1 000000AB [0] 
1542605566.13284,can1 000000AC [0] 
1542605566.133536,can1 000000AD [0] 
1542605566.134098,can1 000000AE [0] 
1542605566.134805,can1 000000AF [0] 
1542605566.135355,can1 000000B0 [0] 
1542605566.135899,can1 000000B1 [0] 
1542605566.140641,can1 000000B2 [0] 
1542605566.141298,can1 000000B3 [0] 
1542605566.141886,can1 000000B4 [0] 
1542605566.142491,can1 000000B5 [0] 
1542605566.143024,can1 000000B6 [0] 
1542605566.143564,can1 000000B7 [0] 
1542605566.148212,can1 000000B8 [0] 
1542605566.148953,can1 000000B9 [0] 
1542605566.149571,can1 000000BA [0] 
1542605566.150223,can1 000000BB [0] 
1542605566.150743,can1 000000BC [0] 
1542605566.151266,can1 000000BD [0] 
1542605566.155839,can1 000000BE [0] 
1542605566.15659,can1 000000BF [0] 
1542605566.157223,can1 000000C0 [0] 
1542605566.157863,can1 000000C1 [0] 
1542605566.158392,can1 000000C2 [0] 
1542605566.158922,can1 000000C3 [0] 
1542605566.159463,can1 000000C4 [0] 
1542605566.164238,can1 000000C5 [0] 
1542605566.16487,can1 000000C6 [0] 
1542605566.16547,can1 000000C7 [0] 
1542605566.166044,can1 000000C8 [0] 
1542605566.16658,can1 000000C9 [0] 
1542605566.167126,can1 000000CA [0] 
1542605566.171943,can1 000000CB [0] 
1542605566.172672,can1 000000CC [0] 
1542605566.173319,can1 000000CD [0] 
1542605566.173915,can1 000000CE [0] 
1542605566.174448,can1 000000CF [0] 
1542605566.174974,can1 000000D0 [0] 
1542605566.178967,can1 000000D1 [0] 
1542605566.179762,can1 000000D2 [0] 
1542605566.18036,can1 000000D3 [0] 
1542605566.180894,can1 000000D4 [0] 
1542605566.181507,can1 000000D5 [0] 
1542605566.182375,can1 000000D6 [0] 
1542605566.182991,can1 000000D7 [0] 
1542605566.183576,can1 000000D8 [0] 
1542605566.184088,can1 000000D9 [0] 
1542605566.19023,can1 000000DA [0] 
1542605566.191189,can1 000000DB [0] 
1542605566.191837,can1 000000DC [0] 
1542605566.19241,can1 000000DD [0] 
1542605566.193188,can1 000000DE [0] 
1542605566.193753,can1 000000DF [0] 
1542605566.19431,can1 000000E0 [0] 
1542605566.194881,can1 000000E1 [0] 
1542605566.195408,can1 000000E2 [0] 
1542605566.19597,can1 000000E3 [0] 
1542605566.19648,can1 000000E4 [0] 
1542605566.197083,can1 000000E5 [0] 
1542605566.197596,can1 000000E6 [0] 
1542605566.198095,can1 000000E7 [0] 
1542605566.198674,can1 000000E8 [0] 
1542605566.199181,can1 000000E9 [0] 
1542605566.19968,can1 000000EA [0] 
1542605566.200177,can1 000000EB [0] 
1542605566.200762,can1 000000EC [0] 
1542605566.201277,can1 000000ED [0] 
1542605566.201785,can1 000000EE [0] 
1542605566.202313,can1 000000EF [0] 
1542605566.202856,can1 000000F0 [0] 
1542605566.20337,can1 000000F1 [0] 
1542605566.203887,can1 000000F2 [0] 
1542605566.204383,can1 000000F3 [0] 
1542605566.204965,can1 000000F4 [0] 
1542605566.205458,can1 000000F5 [0] 
1542605566.205991,can1 000000F6 [0] 
1542605566.206537,can1 000000F7 [0] 
1542605566.207089,can1 000000F8 [0] 
1542605566.207588,can1 000000F9 [0] 
1542605566.208069,can1 000000FA [0] 
1542605566.208628,can1 000000FB [0] 
1542605566.209158,can1 000000FC [0] 
1542605566.209674,can1 000000FD [0] 
1542605566.210178,can1 000000FE [0] 
1542605566.210795,can1 000000FF [0] 
1542605566.211309,can1 00000100 [0] 
1542605566.21181,can1 00000101 [0] 
1542605566.212385,can1 00000102 [0] 
1542605566.212908,can1 00000103 [0] 
1542605566.213456,can1 00000104 [0] 
1542605566.213959,can1 00000105 [0] 
1542605566.214504,can1 00000106 [0] 
1542605566.215017,can1 00000107 [0] 
1542605566.215549,can1 00000108 [0] 
1542605566.216051,can1 00000109 [0] 
1542605566.216611,can1 0000010A [0] 
1542605566.217152,can1 0000010B [0] 
1542605566.217655,can1 0000010C [0] 
1542605566.218201,can1 0000010D [0] 
1542605566.218744,can1 0000010E [0] 
1542605566.219252,can1 0000010F [0] 
1542605566.219741,can1 00000110 [0] 
1542605566.220321,can1 00000111 [0] 
1542605566.22082,can1 00000112 [0] 
1542605566.221324,can1 00000113 [0] 
1542605566.221859,can1 00000114 [0] 
1542605566.222422,can1 00000115 [0] 
1542605566.222928,can1 00000116 [0] 
1542605566.223427,can1 00000117 [0] 
1542605566.224018,can1 00000118 [0] 
1542605566.224659,can1 00000119 [0] 
1542605566.225111,can1 0000011A [0] 
1542605566.225532,can1 0000011B [0] 
1542605566.226015,can1 0000011C [0] 
1542605566.226469,can1 0000011D [0] 
1542605566.227028,can1 0000011E [0] 
1542605566.227655,can1 0000011F [0] 
1542605566.228227,can1 00000120 [0] 
1542605566.228734,can1 00000121 [0] 
1542605566.229227,can1 00000122 [0] 
1542605566.229715,can1 00000123 [0] 
1542605566.230285,can1 00000124 [0] 
1542605566.230785,can1 00000125 [0] 
1542605566.231271,can1 00000126 [0] 
1542605566.231752,can1 00000127 [0] 
1542605566.232332,can1 00000128 [0] 
1542605566.232829,can1 00000129 [0] 
1542605566.23334,can1 0000012A [0] 
1542605566.233911,can1 0000012B [0] 
1542605566.234437,can1 0000012C [0] 
1542605566.234931,can1 0000012D [0] 
1542605566.235454,can1 0000012E [0] 
1542605566.235994,can1 0000012F [0] 
1542605566.236509,can1 00000130 [0] 
1542605566.237026,can1 00000131 [0] 
1542605566.237514,can1 00000132 [0] 
1542605566.238069,can1 00000133 [0] 
1542605566.238578,can1 00000134 [0] 
1542605566.239096,can1 00000135 [0] 
1542605566.239641,can1 00000136 [0] 
1542605566.240148,can1 00000137 [0] 
1542605566.240667,can1 00000138 [0] 
1542605566.241149,can1 00000139 [0] 
1542605566.241678,can1 0000013A [0] 
1542605566.242198,can1 0000013B [0] 
1542605566.242729,can1 0000013C [0] 
1542605566.243224,can1 0000013D [0] 
1542605566.243764,can1 0000013E [0] 
1542605566.244291,can1 0000013F [0] 
1542605566.244784,can1 00000140 [0] 
1542605566.245263,can1 00000141 [0] 
1542605566.245818,can1 00000142 [0] 
1542605566.246361,can1 00000143 [0] 
1542605566.246857,can1 00000144 [0] 
1542605566.247368,can1 00000145 [0] 
1542605566.247958,can1 00000146 [0] 
1542605566.248468,can1 00000147 [0] 
1542605566.24895,can1 00000148 [0] 
1542605566.249517,can1 00000149 [0] 
1542605566.250039,can1 0000014A [0] 
1542605566.250534,can1 0000014B [0] 
1542605566.25103,can1 0000014C [0] 
1542605566.251602,can1 0000014D [0] 
1542605566.252102,can1 0000014E [0] 
1542605566.252601,can1 0000014F [0] 
1542605566.253116,can1 00000150 [0] 
1542605566.253685,can1 00000151 [0] 
1542605566.254203,can1 00000152 [0] 
1542605566.254739,can1 00000153 [0] 
1542605566.255279,can1 00000154 [0] 
1542605566.255824,can1 00000155 [0] 
1542605566.256327,can1 00000156 [0] 
1542605566.256809,can1 00000157 [0] 
1542605566.257348,can1 00000158 [0] 
1542605566.257896,can1 00000159 [0] 
1542605566.258388,can1 0000015A [0] 
1542605566.258896,can1 0000015B [0] 
1542605566.259478,can1 0000015C [0] 
1542605566.259976,can1 0000015D [0] 
1542605566.260483,can1 0000015E [0] 
1542605566.260978,can1 0000015F [0] 
1542605566.261553,can1 00000160 [0] 
1542605566.26205,can1 00000161 [0] 
1542605566.262554,can1 00000162 [0] 
1542605566.263084,can1 00000163 [0] 
1542605566.263628,can1 00000164 [0] 
1542605566.264138,can1 00000165 [0] 
1542605566.264645,can1 00000166 [0] 
1542605566.265203,can1 00000167 [0] 
1542605566.265717,can1 00000168 [0] 
1542605566.266236,can1 00000169 [0] 
1542605566.266729,can1 0000016A [0] 
1542605566.267276,can1 0000016B [0] 
1542605566.267812,can1 00000171 [0] 
1542605566.268326,can1 00000177 [0] 
1542605566.268827,can1 0000017D [0] 
1542605566.269393,can1 00000183 [0] 
1542605566.269922,can1 00000189 [0] 
1542605566.270431,can1 0000018E [0] 
1542605566.270974,can1 00000194 [0] 
1542605566.27152,can1 00000199 [0] 
1542605566.272028,can1 0000019F [0] 
1542605566.272531,can1 000001A4 [0] 
1542605566.273118,can1 000001AA [0] 
1542605566.273639,can1 000001AF [0] 
1542605566.274145,can1 000001B5 [0] 
1542605566.274677,can1 000001BB [0] 
1542605566.275243,can1 000001C0 [0] 
1542605566.27576,can1 000001C5 [0] 
1542605566.276254,can1 000001CB [0] 
1542605566.276816,can1 000001D0 [0] 
1542605566.27732,can1 000001D6 [0] 
1542605566.277823,can1 000001DB [0] 
1542605566.278361,can1 000001E1 [0] 
1542605566.278912,can1 000001E7 [0] 
1542605566.279442,can1 000001EC [0] 
1542605566.279945,can1 000001F2 [0] 
1542605566.281059,can1 000001F7 [0] 
1542605566.281655,can1 000001FD [0] 
1542605566.282502,can1 00000202 [0] 
1542605566.283158,can1 00000208 [0] 
1542605566.283723,can1 0000020D [0] 
1542605566.284289,can1 00000213 [0] 
1542605566.284849,can1 0000021A [0] 
1542605566.285381,can1 00000220 [0] 
1542605566.28591,can1 00000226 [0] 
1542605566.286402,can1 0000022C [0] 
1542605566.286964,can1 00000231 [0] 
1542605566.287513,can1 00000237 [0] 
1542605566.288,can1 0000023C [0] 
1542605566.28856,can1 00000242 [0] 
1542605566.289111,can1 00000248 [0] 
1542605566.289595,can1 0000024D [0] 
1542605566.290094,can1 00000253 [0] 
1542605566.290814,can1 00000258 [0] 
1542605566.291381,can1 0000025E [0] 
1542605566.291926,can1 00000263 [0] 
1542605566.292477,can1 00000269 [0] 
1542605566.29301,can1 0000026F [0] 
1542605566.293545,can1 00000275 [0] 
1542605566.294051,can1 0000027B [0] 
1542605566.294732,can1 00000281 [0] 
1542605566.29526,can1 00000286 [0] 
1542605566.295758,can1 0000028C [0] 
1542605566.296336,can1 00000291 [0] 
1542605566.296841,can1 00000297 [0] 
1542605566.297381,can1 0000029C [0] 
1542605566.297905,can1 000002A2 [0] 
1542605566.298457,can1 000002B4 [0] 
1542605566.299,can1 000002BA [0] 
1542605566.299538,can1 000002C0 [0] 
1542605566.300052,can1 000002CA [0] 
1542605566.300618,can1 000002D0 [0] 
1542605566.301149,can1 000002D6 [0] 
1542605566.301661,can1 000002DC [0] 
1542605566.302227,can1 000002E2 [0] 
1542605566.302738,can1 000002E7 [0] 
1542605566.303228,can1 000002EE [0] 
1542605566.303728,can1 000002F4 [0] 
1542605566.304287,can1 000002F9 [0] 
1542605566.304783,can1 000002FF [0] 
1542605566.305284,can1 00000305 [0] 
1542605566.305775,can1 0000030A [0] 
1542605566.306353,can1 00000310 [0] 
1542605566.307515,can1 00000317 [0] 
1542605566.308235,can1 0000031E [0] 
1542605566.308829,can1 00000323 [0] 
1542605566.309361,can1 00000329 [0] 
1542605566.309959,can1 0000032F [0] 
1542605566.310513,can1 00000334 [0] 
1542605566.311017,can1 00000335 [0] 
1542605566.311543,can1 0000033F [0] 
1542605566.312097,can1 00000344 [0] 
1542605566.31268,can1 00000349 [0] 
1542605566.313201,can1 0000034E [0] 
1542605566.313708,can1 00000354 [0] 
1542605566.314293,can1 00000359 [0] 
1542605566.314793,can1 0000035E [0] 
1542605566.315295,can1 00000363 [0] 
1542605566.315856,can1 00000369 [0] 
1542605566.316377,can1 0000036E [0] 
1542605566.316874,can1 00000374 [0] 
1542605566.317379,can1 00000379 [0] 
1542605566.317942,can1 0000037B [0] 
1542605566.318448,can1 00000385 [0] 
1542605566.318961,can1 0000038A [0] 
1542605566.319441,can1 0000038F [0] 
1542605566.32002,can1 00000394 [0] 
1542605566.320507,can1 00000399 [0] 
1542605566.321012,can1 0000039E [0] 
1542605566.321551,can1 000003A3 [0] 
1542605566.322112,can1 000003A9 [0] 
1542605566.322662,can1 000003AE [0] 
1542605566.323153,can1 000003B4 [0] 
1542605566.323703,can1 000003BA [0] 
1542605566.324221,can1 000003BF [0] 
1542605566.324752,can1 000003C5 [0] 
1542605566.325254,can1 000003CA [0] 
1542605566.325802,can1 000003D0 [0] 
1542605566.326348,can1 000003D5 [0] 
1542605566.326842,can1 000003D8 [0] 
1542605566.327361,can1 000003E1 [0] 
1542605566.32796,can1 000003E6 [0] 
1542605566.32847,can1 000003EB [0] 
1542605566.328963,can1 000003F0 [0] 
1542605566.329517,can1 000003F5 [0] 
1542605566.330029,can1 000003FA [0] 
1542605566.330515,can1 00000400 [0] 
1542605566.331019,can1 00000413 [0] 
1542605566.331576,can1 00000424 [0] 
1542605566.332095,can1 00000434 [0] 
1542605566.332596,can1 0000043B [0] 
1542605566.333118,can1 0000044B [0] 
1542605566.333668,can1 0000045B [0] 
1542605566.334186,can1 00000462 [0] 
1542605566.334708,can1 00000479 [0] 
1542605566.335189,can1 0000047B [0] 
1542605566.335746,can1 0000047D [0] 
1542605566.336286,can1 0000047E [0] 
1542605566.336778,can1 0000047F [0] 
1542605566.33732,can1 00000481 [0] 
1542605566.337866,can1 0000048C [0] 
1542605566.338363,can1 0000048E [0] 
1542605566.338874,can1 00000490 [0] 
1542605566.339411,can1 00000492 [0] 
1542605566.339957,can1 00000493 [0] 
1542605566.340472,can1 00000494 [0] 
1542605566.340954,can1 000004A0 [0] 
1542605566.341526,can1 000004A2 [0] 
1542605566.342018,can1 000004A3 [0] 
1542605566.342523,can1 000004A5 [0] 
1542605566.343038,can1 000004A6 [0] 
1542605566.343572,can1 000004A8 [0] 
1542605566.344078,can1 000004B3 [0] 
1542605566.344562,can1 000004B5 [0] 
1542605566.345141,can1 000004B6 [0] 
1542605566.345661,can1 000004B8 [0] 
1542605566.346169,can1 000004BA [0] 
1542605566.346696,can1 000004BB [0] 
1542605566.347229,can1 000004BC [0] 
1542605566.347744,can1 000004C8 [0] 
1542605566.348285,can1 000004C9 [0] 
1542605566.348773,can1 000004CB [0] 
1542605566.349323,can1 000004CD [0] 
1542605566.349862,can1 000004CE [0] 
1542605566.35035,can1 000004CF [0] 
1542605566.350855,can1 000004DB [0] 
1542605566.351382,can1 000004DD [0] 
1542605566.351923,can1 000004DE [0] 
1542605566.352408,can1 000004E0 [0] 
1542605566.352943,can1 000004E1 [0] 
1542605566.353494,can1 000004E2 [0] 
1542605566.353991,can1 000004EE [0] 
1542605566.354521,can1 000004F0 [0] 
1542605566.355105,can1 000004F2 [0] 
1542605566.355618,can1 000004F3 [0] 
1542605566.356108,can1 000004F5 [0] 
1542605566.356613,can1 000004F6 [0] 
1542605566.357185,can1 00000500 [0] 
1542605566.357671,can1 00000502 [0] 
1542605566.358185,can1 00000503 [0] 
1542605566.358698,can1 00000505 [0] 
1542605566.359238,can1 00000506 [0] 
1542605566.359768,can1 00000508 [0] 
1542605566.36026,can1 0000050A [0] 
1542605566.360835,can1 0000050B [0] 
1542605566.361354,can1 0000050D [0] 
1542605566.361888,can1 0000051B [0] 
1542605566.362403,can1 0000051E [0] 
1542605566.362981,can1 00000520 [0] 
1542605566.363506,can1 00000522 [0] 
1542605566.364041,can1 00000524 [0] 
1542605566.364545,can1 00000525 [0] 
1542605566.365121,can1 00000526 [0] 
1542605566.365604,can1 00000528 [0] 
1542605566.366105,can1 00000529 [0] 
1542605566.366704,can1 0000052A [0] 
1542605566.367232,can1 0000052C [0] 
1542605566.367759,can1 0000052D [0] 
1542605566.368325,can1 0000052E [0] 
1542605566.368858,can1 00000530 [0] 
1542605566.369416,can1 00000531 [0] 
1542605566.369904,can1 00000532 [0] 
1542605566.370378,can1 00000534 [0] 
1542605566.370946,can1 00000535 [0] 
1542605566.37144,can1 00000536 [0] 
1542605566.371959,can1 00000538 [0] 
1542605566.372495,can1 00000539 [0] 
1542605566.373009,can1 0000053A [0] 
1542605566.373534,can1 0000053C [0] 
1542605566.374024,can1 0000053D [0] 
1542605566.374569,can1 0000053E [0] 
1542605566.375116,can1 0000053F [0] 
1542605566.375601,can1 00000541 [0] 
1542605566.376098,can1 00000542 [0] 
1542605566.37671,can1 00000544 [0] 
1542605566.377228,can1 00000545 [0] 
1542605566.37773,can1 00000546 [0] 
1542605566.378219,can1 00000548 [0] 
1542605566.378797,can1 00000549 [0] 
1542605566.37931,can1 0000054A [0] 
1542605566.379792,can1 0000054C [0] 
1542605566.380365,can1 0000054D [0] 
1542605566.380885,can1 0000054E [0] 
1542605566.381384,can1 00000550 [0] 
1542605566.381908,can1 00000551 [0] 
1542605566.382785,can1 00000552 [0] 
1542605566.383358,can1 00000553 [0] 
1542605566.383918,can1 00000555 [0] 
1542605566.384495,can1 00000556 [0] 
1542605566.385001,can1 00000557 [0] 
1542605566.385529,can1 00000559 [0] 
1542605566.386042,can1 0000055A [0] 
1542605566.386624,can1 0000055B [0] 
1542605566.387164,can1 0000055D [0] 
1542605566.38767,can1 0000055E [0] 
1542605566.388225,can1 0000055F [0] 
1542605566.388742,can1 00000561 [0] 
1542605566.389251,can1 00000562 [0] 
1542605566.389734,can1 00000563 [0] 
1542605566.39032,can1 00000565 [0] 
1542605566.39083,can1 00000566 [0] 
1542605566.391328,can1 00000567 [0] 
1542605566.391819,can1 00000569 [0] 
1542605566.392387,can1 0000056A [0] 
1542605566.392896,can1 0000056B [0] 
1542605566.393422,can1 0000056D [0] 
1542605566.393956,can1 0000056E [0] 
1542605566.39447,can1 0000056F [0] 
1542605566.394979,can1 00000570 [0] 
1542605566.395466,can1 00000571 [0] 
1542605566.39603,can1 00000572 [0] 
1542605566.396548,can1 00000573 [0] 
1542605566.397092,can1 00000574 [0] 
1542605566.397594,can1 00000575 [0] 
1542605566.398147,can1 00000576 [0] 
1542605566.398672,can1 0000057A [0] 
1542605566.399169,can1 0000057B [0] 
1542605566.399672,can1 0000057C [0] 
1542605566.40026,can1 0000057E [0] 
1542605566.400759,can1 0000057F [0] 
1542605566.401235,can1 00000580 [0] 
1542605566.401786,can1 00000582 [0] 
1542605566.402327,can1 00000583 [0] 
1542605566.402826,can1 00000584 [0] 
1542605566.403337,can1 00000585 [0] 
1542605566.403909,can1 00000587 [0] 
1542605566.404407,can1 00000588 [0] 
1542605566.404906,can1 00000589 [0] 
1542605566.405445,can1 0000058B [0] 
1542605566.405994,can1 0000058C [0] 
1542605566.406508,can1 0000058D [0] 
1542605566.407009,can1 0000058F [0] 
1542605566.407525,can1 00000590 [0] 
1542605566.408062,can1 00000591 [0] 
1542605566.408567,can1 00000592 [0] 
1542605566.409094,can1 00000594 [0] 
1542605566.40963,can1 00000595 [0] 
1542605566.410129,can1 00000596 [0] 
1542605566.410634,can1 00000598 [0] 
1542605566.411146,can1 00000599 [0] 
1542605566.411693,can1 0000059A [0] 
1542605566.412192,can1 0000059C [0] 
1542605566.41272,can1 0000059D [0] 
1542605566.413225,can1 0000059E [0] 
1542605566.413762,can1 0000059F [0] 
1542605566.414337,can1 000005A1 [0] 
1542605566.41487,can1 000005A2 [0] 
1542605566.415362,can1 000005A3 [0] 
1542605566.415957,can1 000005A4 [0] 
1542605566.41647,can1 000005A6 [0] 
1542605566.416977,can1 000005A7 [0] 
1542605566.417555,can1 000005A8 [0] 
1542605566.418055,can1 000005AA [0] 
1542605566.418576,can1 000005AB [0] 
1542605566.419104,can1 000005AC [0] 
1542605566.419655,can1 000005AE [0] 
1542605566.420148,can1 000005AF [0] 
1542605566.420667,can1 000005B0 [0] 
1542605566.421151,can1 000005B2 [0] 
1542605566.421905,can1 000005B3 [0] 
1542605566.423062,can1 000005B4 [0] 
1542605566.423807,can1 000005B6 [0] 
1542605566.4244,can1 000005B7 [0] 
1542605566.424932,can1 000005B8 [0] 
1542605566.42555,can1 000005B9 [0] 
1542605566.426089,can1 000005BB [0] 
1542605566.426599,can1 000005BC [0] 
1542605566.42718,can1 000005BD [0] 
1542605566.427714,can1 000005BF [0] 
1542605566.42822,can1 000005C0 [0] 
1542605566.428749,can1 000005C1 [0] 
1542605566.429294,can1 000005C3 [0] 
1542605566.429848,can1 000005C4 [0] 
1542605566.430338,can1 000005C5 [0] 
1542605566.430842,can1 000005C6 [0] 
1542605566.431387,can1 000005C8 [0] 
1542605566.431937,can1 000005C9 [0] 
1542605566.43244,can1 000005CA [0] 
1542605566.43298,can1 000005CC [0] 
1542605566.433536,can1 000005CD [0] 
1542605566.434031,can1 000005CE [0] 
1542605566.434532,can1 000005D0 [0] 
1542605566.435103,can1 000005D1 [0] 
1542605566.435597,can1 000005D2 [0] 
1542605566.436115,can1 000005D4 [0] 
1542605566.436614,can1 000005D5 [0] 
1542605566.437203,can1 000005D6 [0] 
1542605566.437748,can1 000005D8 [0] 
1542605566.438257,can1 000005D9 [0] 
1542605566.438784,can1 000005DA [0] 
1542605566.439343,can1 000005DB [0] 
1542605566.439878,can1 000005DD [0] 
1542605566.440376,can1 000005DE [0] 
1542605566.441236,can1 000005DF [0] 
1542605566.441874,can1 000005E1 [0] 
1542605566.4424,can1 000005E2 [0] 
1542605566.442984,can1 000005E3 [0] 
1542605566.44354,can1 000005E5 [0] 
1542605566.444035,can1 000005E6 [0] 
1542605566.444549,can1 000005E7 [0] 
1542605566.445131,can1 000005E9 [0] 
1542605566.445637,can1 000005EA [0] 
1542605566.446165,can1 000005EB [0] 
1542605566.446739,can1 000005ED [0] 
1542605566.447272,can1 000005EE [0] 
1542605566.447779,can1 000005EF [0] 
1542605566.448302,can1 000005F1 [0] 
1542605566.448861,can1 000005F2 [0] 
1542605566.44937,can1 000005F3 [0] 
1542605566.45021,can1 000005F5 [0] 
1542605566.451283,can1 000005F6 [0] 
1542605566.45192,can1 000005F7 [0] 
1542605566.452449,can1 000005F8 [0] 
1542605566.453061,can1 000005FA [0] 
1542605566.453589,can1 000005FB [0] 
1542605566.454109,can1 000005FC [0] 
1542605566.454696,can1 000005FF [0] 
1542605566.45521,can1 00000601 [0] 
1542605566.455694,can1 00000603 [0] 
1542605566.456223,can1 00000605 [0] 
1542605566.456778,can1 00000606 [0] 
1542605566.457304,can1 00000607 [0] 
1542605566.457864,can1 00000609 [0] 
1542605566.458418,can1 0000060A [0] 
1542605566.458949,can1 0000060B [0] 
1542605566.459482,can1 0000060D [0] 
1542605566.459977,can1 0000060E [0] 
1542605566.460534,can1 0000060F [0] 
1542605566.461068,can1 00000611 [0] 
1542605566.461574,can1 00000612 [0] 
1542605566.462057,can1 00000613 [0] 
1542605566.462639,can1 00000615 [0] 
1542605566.463139,can1 00000616 [0] 
1542605566.463634,can1 00000618 [0] 
1542605566.464139,can1 00000619 [0] 
1542605566.464706,can1 0000061A [0] 
1542605566.465205,can1 0000061C [0] 
1542605566.465714,can1 0000061D [0] 
1542605566.466264,can1 0000061E [0] 
1542605566.46681,can1 00000620 [0] 
1542605566.467311,can1 00000621 [0] 
1542605566.467842,can1 00000623 [0] 
1542605566.468377,can1 00000624 [0] 
1542605566.468897,can1 00000625 [0] 
1542605566.469437,can1 00000627 [0] 
1542605566.469944,can1 00000628 [0] 
1542605566.4705,can1 00000629 [0] 
1542605566.471008,can1 0000062B [0] 
1542605566.471498,can1 0000062C [0] 
1542605566.472073,can1 0000062E [0] 
1542605566.472591,can1 0000062F [0] 
1542605566.473089,can1 00000630 [0] 
1542605566.473629,can1 00000631 [0] 
1542605566.474191,can1 00000633 [0] 
1542605566.474738,can1 00000634 [0] 
1542605566.475245,can1 00000635 [0] 
1542605566.475741,can1 00000637 [0] 
1542605566.476294,can1 00000638 [0] 
1542605566.476846,can1 00000639 [0] 
1542605566.477345,can1 0000063A [0] 
1542605566.47786,can1 0000063C [0] 
1542605566.478487,can1 0000063D [0] 
1542605566.479005,can1 0000063E [0] 
1542605566.479511,can1 00000641 [0] 
1542605566.480103,can1 00000643 [0] 
1542605566.480649,can1 00000645 [0] 
1542605566.481171,can1 00000646 [0] 
1542605566.481619,can1 00000647 [0] 
1542605566.482113,can1 00000649 [0] 
1542605566.482785,can1 0000064A [0] 
1542605566.483458,can1 0000064B [0] 
1542605566.48415,can1 0000064D [0] 
1542605566.484694,can1 0000064E [0] 
1542605566.48518,can1 0000064F [0] 
1542605566.485673,can1 00000651 [0] 
1542605566.48626,can1 00000652 [0] 
1542605566.48676,can1 00000654 [0] 
1542605566.487247,can1 00000655 [0] 
1542605566.487767,can1 00000656 [0] 
1542605566.488306,can1 00000658 [0] 
1542605566.488806,can1 00000659 [0] 
1542605566.489296,can1 0000065A [0] 
1542605566.489854,can1 0000065B [0] 
1542605566.490353,can1 0000065D [0] 
1542605566.490854,can1 0000065E [0] 
1542605566.491336,can1 0000065F [0] 
1542605566.491909,can1 00000661 [0] 
1542605566.492428,can1 00000662 [0] 
1542605566.492925,can1 00000663 [0] 
1542605566.493459,can1 00000664 [0] 
1542605566.494016,can1 00000666 [0] 
1542605566.494519,can1 00000667 [0] 
1542605566.495044,can1 00000669 [0] 
1542605566.495563,can1 0000066A [0] 
1542605566.496068,can1 0000066B [0] 
1542605566.496559,can1 0000066D [0] 
1542605566.49709,can1 0000066E [0] 
1542605566.497615,can1 0000066F [0] 
1542605566.498114,can1 00000670 [0] 
1542605566.498588,can1 00000672 [0] 
1542605566.499109,can1 00000673 [0] 
1542605566.499641,can1 00000674 [0] 
1542605566.500129,can1 00000676 [0] 
1542605566.50065,can1 00000677 [0] 
1542605566.501144,can1 00000678 [0] 
1542605566.501694,can1 0000067A [0] 
1542605566.502212,can1 0000067B [0] 
1542605566.502754,can1 0000067C [0] 
1542605566.503235,can1 0000067E [0] 
1542605566.503843,can1 0000067F [0] 
1542605566.504345,can1 00000680 [0] 
1542605566.504845,can1 00000681 [0] 
1542605566.505381,can1 00000683 [0] 
1542605566.505931,can1 00000684 [0] 
1542605566.506423,can1 00000685 [0] 
1542605566.506937,can1 00000687 [0] 
1542605566.507499,can1 00000688 [0] 
1542605566.507992,can1 00000689 [0] 
1542605566.508502,can1 0000068B [0] 
1542605566.509005,can1 0000068C [0] 
1542605566.509591,can1 0000068D [0] 
1542605566.510087,can1 0000068F [0] 
1542605566.510591,can1 00000690 [0] 
1542605566.511143,can1 00000691 [0] 
1542605566.511668,can1 00000692 [0] 
1542605566.512166,can1 00000694 [0] 
1542605566.512677,can1 00000695 [0] 
1542605566.51321,can1 00000696 [0] 
1542605566.513735,can1 00000698 [0] 
1542605566.514233,can1 00000699 [0] 
1542605566.514757,can1 0000069A [0] 
1542605566.515459,can1 0000069C [0] 
1542605566.516024,can1 0000069D [0] 
1542605566.516538,can1 0000069E [0] 
1542605566.517126,can1 0000069F [0] 
1542605566.517635,can1 000006A1 [0] 
1542605566.518151,can1 000006A2 [0] 
1542605566.518679,can1 000006A3 [0] 
1542605566.519209,can1 000006A5 [0] 
1542605566.519725,can1 000006A6 [0] 
1542605566.520274,can1 000006A7 [0] 
1542605566.520783,can1 000006A8 [0] 
1542605566.521362,can1 000006AA [0] 
1542605566.521893,can1 000006AB [0] 
1542605566.522375,can1 000006AD [0] 
1542605566.522915,can1 000006AE [0] 
1542605566.523427,can1 000006AF [0] 
1542605566.523949,can1 000006B0 [0] 
1542605566.524458,can1 000006B2 [0] 
1542605566.524986,can1 000006B3 [0] 
1542605566.525519,can1 000006B4 [0] 
1542605566.526024,can1 000006B6 [0] 
1542605566.526534,can1 000006B7 [0] 
1542605566.527112,can1 000006B8 [0] 
1542605566.527644,can1 000006BA [0] 
1542605566.528124,can1 000006BB [0] 
1542605566.528689,can1 000006BC [0] 
1542605566.529215,can1 000006BE [0] 
1542605566.529711,can1 000006BF [0] 
1542605566.530205,can1 000006C0 [0] 
1542605566.530777,can1 000006C1 [0] 
1542605566.531275,can1 000006C3 [0] 
1542605566.53181,can1 000006C4 [0] 
1542605566.532349,can1 000006C5 [0] 
1542605566.532918,can1 000006C7 [0] 
1542605566.533439,can1 000006C8 [0] 
1542605566.533962,can1 000006C9 [0] 
1542605566.534452,can1 000006CA [0] 
1542605566.53501,can1 000006CC [0] 
1542605566.53554,can1 000006CD [0] 
1542605566.536037,can1 000006CF [0] 
1542605566.536578,can1 000006D0 [0] 
1542605566.537119,can1 000006D1 [0] 
1542605566.537645,can1 000006D3 [0] 
1542605566.538134,can1 000006D4 [0] 
1542605566.53871,can1 000006D5 [0] 
1542605566.5392,can1 000006D6 [0] 
1542605566.540343,can1 000006D8 [0] 
1542605566.541081,can1 000006D9 [0] 
1542605566.54165,can1 000006DB [0] 
1542605566.542187,can1 000006DC [0] 
1542605566.542805,can1 000006DD [0] 
1542605566.543339,can1 000006DF [0] 
1542605566.543874,can1 000006E0 [0] 
1542605566.544429,can1 000006E1 [0] 
1542605566.544939,can1 000006E2 [0] 
1542605566.545483,can1 000006E4 [0] 
1542605566.545983,can1 000006E5 [0] 
1542605566.546547,can1 000006E6 [0] 
1542605566.54706,can1 000006E8 [0] 
1542605566.547581,can1 000006E9 [0] 
1542605566.548085,can1 000006EA [0] 
1542605566.548675,can1 000006EC [0] 
1542605566.549179,can1 000006ED [0] 
1542605566.549685,can1 000006EE [0] 
1542605566.550262,can1 000006F0 [0] 
1542605566.550774,can1 000006F1 [0] 
1542605566.551283,can1 000006F2 [0] 
1542605566.551775,can1 000006F3 [0] 
1542605566.552347,can1 000006F5 [0] 
1542605566.552848,can1 000006F6 [0] 
1542605566.553352,can1 000006F7 [0] 
1542605566.553875,can1 000006F9 [0] 
1542605566.554431,can1 000006FA [0] 
1542605566.554958,can1 000006FB [0] 
1542605566.555508,can1 000006FE [0] 
1542605566.556049,can1 000006FF [0] 
1542605566.556556,can1 00000700 [0] 
1542605566.557051,can1 00000702 [0] 
1542605566.557578,can1 00000703 [0] 
1542605566.558116,can1 00000704 [0] 
1542605566.558632,can1 00000706 [0] 
1542605566.559169,can1 00000707 [0] 
1542605566.559684,can1 00000708 [0] 
1542605566.560234,can1 0000070A [0] 
1542605566.560775,can1 0000070B [0] 
1542605566.561261,can1 0000070D [0] 
1542605566.561766,can1 0000070E [0] 
1542605566.562645,can1 0000070F [0] 
1542605566.56322,can1 00000710 [0] 
1542605566.563749,can1 00000712 [0] 
1542605566.564356,can1 00000713 [0] 
1542605566.564865,can1 00000714 [0] 
1542605566.565369,can1 00000716 [0] 
1542605566.56594,can1 00000717 [0] 
1542605566.566452,can1 00000718 [0] 
1542605566.566947,can1 00000719 [0] 
1542605566.567471,can1 0000071B [0] 
1542605566.568013,can1 0000071C [0] 
1542605566.568503,can1 0000071D [0] 
1542605566.569002,can1 0000071F [0] 
1542605566.569541,can1 00000720 [0] 
1542605566.570096,can1 00000721 [0] 
1542605566.570594,can1 00000722 [0] 
1542605566.571118,can1 00000724 [0] 
1542605566.571605,can1 00000725 [0] 
1542605566.572168,can1 00000726 [0] 
1542605566.572712,can1 00000728 [0] 
1542605566.573206,can1 00000729 [0] 
1542605566.573745,can1 0000072A [0] 
1542605566.574287,can1 0000072C [0] 
1542605566.574786,can1 0000072D [0] 
1542605566.575287,can1 0000072E [0] 
1542605566.575972,can1 0000072F [0] 
1542605566.581553,can1 00000731 [0] 
1542605566.58242,can1 00000732 [0] 
1542605566.583485,can1 00000734 [0] 
1542605566.584085,can1 00000735 [0] 
1542605566.58463,can1 00000736 [0] 
1542605566.585179,can1 00000738 [0] 
1542605566.585788,can1 00000739 [0] 
1542605566.586326,can1 0000073A [0] 
1542605566.586816,can1 0000073B [0] 
1542605566.591355,can1 0000073D [0] 
1542605566.59214,can1 0000073E [0] 
1542605566.592742,can1 0000073F [0] 
1542605566.593339,can1 00000741 [0] 
1542605566.593911,can1 00000742 [0] 
1542605566.594449,can1 00000743 [0] 
1542605566.594942,can1 00000745 [0] 
1542605566.599679,can1 00000746 [0] 
1542605566.600335,can1 00000747 [0] 
1542605566.600879,can1 00000748 [0] 
1542605566.601542,can1 0000074A [0] 
1542605566.602058,can1 0000074B [0] 
1542605566.602562,can1 0000074C [0] 
1542605566.607215,can1 0000074E [0] 
1542605566.607969,can1 0000074F [0] 
1542605566.608542,can1 00000751 [0] 
1542605566.609195,can1 00000752 [0] 
1542605566.609731,can1 00000753 [0] 
1542605566.610268,can1 00000755 [0] 
1542605566.614789,can1 00000756 [0] 
1542605566.615571,can1 00000757 [0] 
1542605566.616173,can1 00000758 [0] 
1542605566.616796,can1 0000075A [0] 
1542605566.617357,can1 0000075B [0] 
1542605566.617908,can1 0000075C [0] 
1542605566.618398,can1 0000075E [0] 
1542605566.623171,can1 0000075F [0] 
1542605566.623826,can1 00000762 [0] 
1542605566.624483,can1 00000764 [0] 
1542605566.62507,can1 00000765 [0] 
1542605566.625574,can1 00000767 [0] 
1542605566.626099,can1 00000768 [0] 
1542605566.630812,can1 0000076A [0] 
1542605566.631528,can1 0000076B [0] 
1542605566.632079,can1 0000076C [0] 
1542605566.632732,can1 0000076E [0] 
1542605566.633269,can1 0000076F [0] 
1542605566.633785,can1 00000770 [0] 
1542605566.638394,can1 00000772 [0] 
1542605566.639153,can1 00000773 [0] 
1542605566.639738,can1 00000775 [0] 
1542605566.640374,can1 00000776 [0] 
1542605566.640906,can1 00000777 [0] 
1542605566.64145,can1 00000778 [0] 
1542605566.644271,can1 0000077A [0] 
1542605566.645075,can1 0000077B [0] 
1542605566.645739,can1 0000077C [0] 
1542605566.64641,can1 0000077D [0] 
1542605566.646956,can1 0000077F [0] 
1542605566.647509,can1 00000780 [0] 
1542605566.648081,can1 00000782 [0] 
1542605566.64861,can1 00000783 [0] 
1542605566.649156,can1 00000784 [0] 
1542605566.64967,can1 00000785 [0] 
1542605566.650255,can1 00000787 [0] 
1542605566.650759,can1 00000788 [0] 
1542605566.651263,can1 0000078A [0] 
1542605566.651806,can1 0000078B [0] 
1542605566.652347,can1 0000078C [0] 
1542605566.652838,can1 0000078E [0] 
1542605566.653327,can1 00000790 [0] 
1542605566.653896,can1 00000791 [0] 
1542605566.654412,can1 00000792 [0] 
1542605566.654915,can1 00000794 [0] 
1542605566.655416,can1 00000795 [0] 
1542605566.65598,can1 00000797 [0] 
1542605566.656488,can1 00000798 [0] 
1542605566.656994,can1 00000799 [0] 
1542605566.657477,can1 0000079B [0] 
1542605566.658055,can1 0000079C [0] 
1542605566.658571,can1 0000079D [0] 
1542605566.659098,can1 0000079F [0] 
1542605566.659619,can1 000007A0 [0] 
1542605566.660146,can1 000007A1 [0] 
1542605566.660667,can1 000007A3 [0] 
1542605566.661159,can1 000007A4 [0] 
1542605566.661713,can1 000007A5 [0] 
1542605566.662233,can1 000007A8 [0] 
1542605566.662764,can1 000007AA [0] 
1542605566.663263,can1 000007AC [0] 
1542605566.663814,can1 000007AD [0] 
1542605566.664346,can1 000007AF [0] 
1542605566.664853,can1 000007B0 [0] 
1542605566.665352,can1 000007B1 [0] 
1542605566.665935,can1 000007B3 [0] 
1542605566.666426,can1 000007B4 [0] 
1542605566.666912,can1 000007B5 [0] 
1542605566.667497,can1 000007B7 [0] 
1542605566.668015,can1 000007B8 [0] 
1542605566.668521,can1 000007B9 [0] 
1542605566.669005,can1 000007BB [0] 
1542605566.669579,can1 000007BC [0] 
1542605566.670094,can1 000007BD [0] 
1542605566.670605,can1 000007BE [0] 
1542605566.671125,can1 000007C0 [0] 
1542605566.671693,can1 000007C1 [0] 
1542605566.672204,can1 000007C2 [0] 
1542605566.672723,can1 000007C4 [0] 
1542605566.673266,can1 000007C5 [0] 
1542605566.673791,can1 000007C6 [0] 
1542605566.674325,can1 000007C8 [0] 
1542605566.674814,can1 000007C9 [0] 
1542605566.675357,can1 000007CA [0] 
1542605566.675905,can1 000007CB [0] 
1542605566.676401,can1 000007CD [0] 
1542605566.6769,can1 000007CE [0] 
1542605566.677441,can1 000007D0 [0] 
1542605566.677973,can1 000007D1 [0] 
1542605566.678482,can1 000007D2 [0] 
1542605566.678982,can1 000007D4 [0] 
1542605566.679563,can1 000007D5 [0] 
1542605566.680044,can1 000007D6 [0] 
1542605566.680555,can1 000007D7 [0] 
1542605566.681124,can1 000007D9 [0] 
1542605566.68164,can1 000007DA [0] 
1542605566.68213,can1 000007DB [0] 
1542605566.682631,can1 000007DD [0] 
1542605566.683495,can1 000007DE [0] 
1542605566.684085,can1 000007DF [0] 
1542605566.684634,can1 000007E0 [0] 
1542605566.685256,can1 000007E2 [0] 
1542605566.685771,can1 000007E3 [0] 
1542605566.686304,can1 000007E5 [0] 
1542605566.68679,can1 000007E6 [0] 
1542605566.687353,can1 000007E7 [0] 
1542605566.687891,can1 000007E8 [0] 
1542605566.688409,can1 000007EA [0] 
1542605566.689012,can1 000007EB [0] 
1542605566.689579,can1 000007ED [0] 
1542605566.690097,can1 000007EE [0] 
1542605566.690606,can1 000007EF [0] 
1542605566.691168,can1 000007F1 [0] 
1542605566.691689,can1 000007F2 [0] 
1542605566.692197,can1 000007F3 [0] 
1542605566.692673,can1 000007F4 [0] 
1542605566.693248,can1 000007F5 [0] 
1542605566.693757,can1 000007F6 [0] 
1542605566.694296,can1 000007F7 [0] 
1542605566.69483,can1 000007FB [0] 
1542605566.695356,can1 000007FC [0] 
1542605566.695853,can1 000007FE [0] 
1542605566.697108,can1 000007FF [0] 
1542605566.697755,can1 00000000 [0] 
1542605566.698339,can1 00000001 [0] 
1542605566.698934,can1 00000003 [0] 
1542605566.699501,can1 00000004 [0] 
1542605566.700021,can1 00000005 [0] 
1542605566.700516,can1 00000007 [0] 
1542605566.701117,can1 00000008 [0] 
1542605566.701642,can1 00000009 [0] 
1542605566.702142,can1 0000000B [0] 
1542605566.702722,can1 0000000C [0] 
1542605566.703229,can1 0000000D [0] 
1542605566.703748,can1 0000000E [0] 
1542605566.704281,can1 00000010 [0] 
1542605566.704847,can1 00000011 [0] 
1542605566.705361,can1 00000012 [0] 
1542605566.705907,can1 00000014 [0] 
1542605566.706442,can1 00000015 [0] 
1542605566.70698,can1 00000016 [0] 
1542605566.707513,can1 00000017 [0] 
1542605566.708014,can1 00000019 [0] 
1542605566.708555,can1 0000001A [0] 
1542605566.709105,can1 0000001B [0] 
1542605566.709608,can1 0000001D [0] 
1542605566.710108,can1 0000001E [0] 
1542605566.710654,can1 0000001F [0] 
1542605566.711194,can1 00000020 [0] 
1542605566.711704,can1 00000022 [0] 
1542605566.712188,can1 00000023 [0] 
1542605566.712774,can1 00000024 [0] 
1542605566.713295,can1 00000026 [0] 
1542605566.713791,can1 00000027 [0] 
1542605566.71435,can1 00000028 [0] 
1542605566.714871,can1 00000029 [0] 
1542605566.71537,can1 0000002B [0] 
1542605566.715861,can1 0000002C [0] 
1542605566.716449,can1 0000002D [0] 
1542605566.716967,can1 0000002F [0] 
1542605566.717487,can1 00000030 [0] 
1542605566.717982,can1 00000031 [0] 
1542605566.718543,can1 00000033 [0] 
1542605566.719073,can1 00000034 [0] 
1542605566.719576,can1 00000035 [0] 
1542605566.720113,can1 00000037 [0] 
1542605566.72065,can1 00000038 [0] 
1542605566.721144,can1 00000039 [0] 
1542605566.721637,can1 0000003B [0] 
1542605566.722333,can1 0000003C [0] 
1542605566.722919,can1 0000003D [0] 
1542605566.723491,can1 0000003E [0] 
1542605566.724032,can1 00000040 [0] 
1542605566.724557,can1 00000041 [0] 
1542605566.725086,can1 00000042 [0] 
1542605566.725595,can1 00000043 [0] 
1542605566.726144,can1 00000045 [0] 
1542605566.726691,can1 00000046 [0] 
1542605566.727203,can1 00000047 [0] 
1542605566.72768,can1 00000049 [0] 
1542605566.728222,can1 0000004B [0] 
1542605566.728775,can1 0000004C [0] 
1542605566.729269,can1 0000004D [0] 
1542605566.729774,can1 0000004F [0] 
1542605566.73036,can1 00000050 [0] 
1542605566.730842,can1 00000051 [0] 
1542605566.731351,can1 00000053 [0] 
1542605566.731909,can1 00000054 [0] 
1542605566.732417,can1 00000055 [0] 
1542605566.732929,can1 00000057 [0] 
1542605566.733437,can1 00000058 [0] 
1542605566.734,can1 00000059 [0] 
1542605566.734498,can1 0000005B [0] 
1542605566.735004,can1 0000005C [0] 
1542605566.735536,can1 0000005D [0] 
1542605566.736101,can1 0000005E [0] 
1542605566.736602,can1 00000060 [0] 
1542605566.737149,can1 00000061 [0] 
1542605566.737688,can1 00000062 [0] 
1542605566.7382,can1 00000064 [0] 
1542605566.738727,can1 00000065 [0] 
1542605566.73922,can1 00000066 [0] 
1542605566.739773,can1 00000068 [0] 
1542605566.740319,can1 00000069 [0] 
1542605566.740817,can1 0000006A [0] 
1542605566.741304,can1 0000006C [0] 
1542605566.741884,can1 0000006D [0] 
1542605566.742394,can1 0000006E [0] 
1542605566.742881,can1 0000006F [0] 
1542605566.74338,can1 00000071 [0] 
1542605566.74396,can1 00000072 [0] 
1542605566.744482,can1 00000073 [0] 
1542605566.744991,can1 00000075 [0] 
1542605566.745571,can1 00000076 [0] 
1542605566.746104,can1 00000077 [0] 
1542605566.7466,can1 00000079 [0] 
1542605566.747126,can1 0000007A [0] 
1542605566.747674,can1 0000007B [0] 
1542605566.748176,can1 0000007D [0] 
1542605566.748687,can1 0000007E [0] 
1542605566.749226,can1 0000007F [0] 
1542605566.749778,can1 00000081 [0] 
1542605566.750299,can1 00000082 [0] 
1542605566.750786,can1 00000083 [0] 
1542605566.751289,can1 00000085 [0] 
1542605566.751875,can1 00000087 [0] 
1542605566.752377,can1 00000089 [0] 
1542605566.75288,can1 0000008B [0] 
1542605566.753428,can1 0000008C [0] 
1542605566.753978,can1 0000008E [0] 
1542605566.754494,can1 0000008F [0] 
1542605566.754995,can1 00000090 [0] 
1542605566.75557,can1 00000092 [0] 
1542605566.756079,can1 00000093 [0] 
1542605566.756567,can1 00000094 [0] 
1542605566.75711,can1 00000095 [0] 
1542605566.757659,can1 00000097 [0] 
1542605566.758162,can1 00000098 [0] 
1542605566.758656,can1 0000009A [0] 
1542605566.759211,can1 0000009B [0] 
1542605566.759704,can1 0000009C [0] 
1542605566.760212,can1 0000009D [0] 
1542605566.76073,can1 0000009F [0] 
1542605566.761258,can1 000000A0 [0] 
1542605566.761781,can1 000000A2 [0] 
1542605566.762306,can1 000000A3 [0] 
1542605566.762803,can1 000000A4 [0] 
1542605566.763335,can1 000000A5 [0] 
1542605566.763861,can1 000000A7 [0] 
1542605566.764372,can1 000000A8 [0] 
1542605566.764876,can1 000000A9 [0] 
1542605566.765442,can1 000000AB [0] 
1542605566.765949,can1 000000AC [0] 
1542605566.766477,can1 000000AD [0] 
1542605566.767015,can1 000000AF [0] 
1542605566.767558,can1 000000B0 [0] 
1542605566.768056,can1 000000B1 [0] 
1542605566.768549,can1 000000B3 [0] 
1542605566.76911,can1 000000B4 [0] 
1542605566.769614,can1 000000B5 [0] 
1542605566.77011,can1 000000B6 [0] 
1542605566.77061,can1 000000B8 [0] 
1542605566.771189,can1 000000B9 [0] 
1542605566.771703,can1 000000BB [0] 
1542605566.772191,can1 000000BC [0] 
1542605566.772714,can1 000000BD [0] 
1542605566.773266,can1 000000BF [0] 
1542605566.773764,can1 000000C1 [0] 
1542605566.774302,can1 000000C2 [0] 
1542605566.77484,can1 000000C3 [0] 
1542605566.775357,can1 000000C5 [0] 
1542605566.775881,can1 000000C6 [0] 
1542605566.776375,can1 000000C7 [0] 
1542605566.776919,can1 000000C9 [0] 
1542605566.777436,can1 000000CA [0] 
1542605566.777977,can1 000000CB [0] 
1542605566.778477,can1 000000CD [0] 
1542605566.779026,can1 000000CE [0] 
1542605566.779555,can1 000000CF [0] 
1542605566.780058,can1 000000D0 [0] 
1542605566.780555,can1 000000D2 [0] 
1542605566.781128,can1 000000D3 [0] 
1542605566.781615,can1 000000D4 [0] 
1542605566.782118,can1 000000D6 [0] 
1542605566.782685,can1 000000D7 [0] 
1542605566.783411,can1 000000D8 [0] 
1542605566.78404,can1 000000DA [0] 
1542605566.784645,can1 000000DB [0] 
1542605566.785204,can1 000000DC [0] 
1542605566.785699,can1 000000DD [0] 
1542605566.786211,can1 000000DF [0] 
1542605566.786809,can1 000000E0 [0] 
1542605566.787336,can1 000000E2 [0] 
1542605566.787864,can1 000000F0 [0] 
1542605566.788381,can1 000000F3 [0] 
1542605566.788954,can1 000000F5 [0] 
1542605566.789454,can1 000000F6 [0] 
1542605566.789999,can1 000000F7 [0] 
1542605566.790529,can1 000000F9 [0] 
1542605566.791077,can1 000000FA [0] 
1542605566.791572,can1 000000FC [0] 
1542605566.792063,can1 000000FD [0] 
1542605566.792652,can1 00000109 [0] 
1542605566.793162,can1 0000010A [0] 
1542605566.793664,can1 0000010C [0] 
1542605566.794141,can1 0000010D [0] 
1542605566.794715,can1 0000010F [0] 
1542605566.795231,can1 00000110 [0] 
1542605566.79572,can1 0000011C [0] 
1542605566.796211,can1 0000011D [0] 
1542605566.796809,can1 0000011F [0] 
1542605566.7973,can1 00000120 [0] 
1542605566.797807,can1 00000122 [0] 
1542605566.798384,can1 00000123 [0] 
1542605566.798885,can1 0000012E [0] 
1542605566.799391,can1 00000130 [0] 
1542605566.799908,can1 00000132 [0] 
1542605566.80044,can1 00000133 [0] 
1542605566.800965,can1 00000135 [0] 
1542605566.801453,can1 00000136 [0] 
1542605566.801971,can1 00000137 [0] 
1542605566.802513,can1 00000143 [0] 
1542605566.803003,can1 00000145 [0] 
1542605566.803528,can1 00000147 [0] 
1542605566.804097,can1 00000148 [0] 
1542605566.804643,can1 00000149 [0] 
1542605566.805206,can1 0000014B [0] 
1542605566.805716,can1 00000156 [0] 
1542605566.806303,can1 00000158 [0] 
1542605566.806811,can1 00000159 [0] 
1542605566.807332,can1 0000015B [0] 
1542605566.807859,can1 0000015D [0] 
1542605566.808409,can1 0000015E [0] 
1542605566.808917,can1 00000169 [0] 
1542605566.809427,can1 0000016B [0] 
1542605566.809981,can1 0000016D [0] 
1542605566.810502,can1 0000016E [0] 
1542605566.811004,can1 00000170 [0] 
1542605566.811524,can1 00000171 [0] 
1542605566.812692,can1 0000017C [0] 
1542605566.813336,can1 0000017E [0] 
1542605566.813974,can1 00000180 [0] 
1542605566.814556,can1 00000181 [0] 
1542605566.815107,can1 00000183 [0] 
1542605566.815549,can1 00000184 [0] 
1542605566.816049,can1 00000185 [0] 
1542605566.816518,can1 0000018D [0] 
1542605566.816972,can1 0000018F [0] 
1542605566.817687,can1 00000190 [0] 
1542605566.818272,can1 00000192 [0] 
1542605566.818774,can1 00000193 [0] 
1542605566.819264,can1 00000195 [0] 
1542605566.819787,can1 00000196 [0] 
1542605566.820329,can1 00000197 [0] 
1542605566.820829,can1 00000199 [0] 
1542605566.821318,can1 0000019A [0] 
1542605566.821901,can1 0000019C [0] 
1542605566.8224,can1 0000019D [0] 
1542605566.82291,can1 0000019E [0] 
1542605566.823386,can1 0000019F [0] 
1542605566.823954,can1 000001A1 [0] 
1542605566.824468,can1 000001A2 [0] 
1542605566.824951,can1 000001A3 [0] 
1542605566.825478,can1 000001A4 [0] 
1542605566.826017,can1 000001A6 [0] 
1542605566.826523,can1 000001A7 [0] 
1542605566.826996,can1 000001A9 [0] 
1542605566.827552,can1 000001AA [0] 
1542605566.828062,can1 000001AB [0] 
1542605566.828551,can1 000001AC [0] 
1542605566.829059,can1 000001AE [0] 
1542605566.829599,can1 000001AF [0] 
1542605566.830105,can1 000001B0 [0] 
1542605566.83061,can1 000001B1 [0] 
1542605566.831141,can1 000001B3 [0] 
1542605566.831693,can1 000001B4 [0] 
1542605566.83221,can1 000001B6 [0] 
1542605566.832736,can1 000001B7 [0] 
1542605566.833222,can1 000001B8 [0] 
1542605566.833785,can1 000001B9 [0] 
1542605566.834316,can1 000001BB [0] 
1542605566.834813,can1 000001BC [0] 
1542605566.835342,can1 000001BD [0] 
1542605566.835885,can1 000001BF [0] 
1542605566.836371,can1 000001C0 [0] 
1542605566.836873,can1 000001C1 [0] 
1542605566.837392,can1 000001C3 [0] 
1542605566.837944,can1 000001C4 [0] 
1542605566.83843,can1 000001C5 [0] 
1542605566.838942,can1 000001C6 [0] 
1542605566.839531,can1 000001C8 [0] 
1542605566.840034,can1 000001C9 [0] 
1542605566.840525,can1 000001CA [0] 
1542605566.841032,can1 000001CC [0] 
1542605566.841614,can1 000001CD [0] 
1542605566.842112,can1 000001CE [0] 
1542605566.842601,can1 000001D0 [0] 
1542605566.843156,can1 000001D1 [0] 
1542605566.843667,can1 000001D2 [0] 
1542605566.844169,can1 000001D3 [0] 
1542605566.844698,can1 000001D5 [0] 
1542605566.845224,can1 000001D6 [0] 
1542605566.845732,can1 000001D8 [0] 
1542605566.846234,can1 000001D9 [0] 
1542605566.846755,can1 000001DA [0] 
1542605566.847302,can1 000001DB [0] 
1542605566.84782,can1 000001DD [0] 
1542605566.848332,can1 000001DE [0] 
1542605566.848838,can1 000001E0 [0] 
1542605566.849378,can1 000001E1 [0] 
1542605566.849925,can1 000001E2 [0] 
1542605566.850413,can1 000001E3 [0] 
1542605566.850966,can1 000001E5 [0] 
1542605566.851518,can1 000001E6 [0] 
1542605566.852008,can1 000001E7 [0] 
1542605566.852503,can1 000001E9 [0] 
1542605566.853054,can1 000001EA [0] 
1542605566.853555,can1 000001EB [0] 
1542605566.854062,can1 000001ED [0] 
1542605566.854547,can1 000001EF [0] 
1542605566.855129,can1 000001F0 [0] 
1542605566.855629,can1 000001F2 [0] 
1542605566.856133,can1 000001F3 [0] 
1542605566.856625,can1 000001F4 [0] 
1542605566.857221,can1 000001F6 [0] 
1542605566.857728,can1 000001F7 [0] 
1542605566.858257,can1 000001F8 [0] 
1542605566.858781,can1 000001FA [0] 
1542605566.859306,can1 000001FB [0] 
1542605566.859821,can1 000001FC [0] 
1542605566.860347,can1 000001FE [0] 
1542605566.860882,can1 000001FF [0] 
1542605566.861386,can1 00000201 [0] 
1542605566.861908,can1 00000202 [0] 
1542605566.862406,can1 00000203 [0] 
1542605566.862946,can1 00000204 [0] 
1542605566.863478,can1 00000206 [0] 
1542605566.863976,can1 00000207 [0] 
1542605566.864461,can1 00000208 [0] 
1542605566.865002,can1 00000209 [0] 
1542605566.86553,can1 0000020B [0] 
1542605566.866019,can1 0000020C [0] 
1542605566.8665,can1 0000020F [0] 
1542605566.867091,can1 00000211 [0] 
1542605566.867588,can1 00000212 [0] 
1542605566.868082,can1 00000214 [0] 
1542605566.868642,can1 00000215 [0] 
1542605566.869155,can1 00000217 [0] 
1542605566.869641,can1 00000218 [0] 
1542605566.870135,can1 00000219 [0] 
1542605566.870736,can1 0000021B [0] 
1542605566.87125,can1 0000021C [0] 
1542605566.871762,can1 0000021D [0] 
1542605566.872242,can1 0000021F [0] 
1542605566.872812,can1 00000220 [0] 
1542605566.873327,can1 00000221 [0] 
1542605566.873834,can1 00000223 [0] 
1542605566.874396,can1 00000224 [0] 
1542605566.874915,can1 00000225 [0] 
1542605566.875417,can1 00000226 [0] 
1542605566.875936,can1 00000228 [0] 
1542605566.876463,can1 00000229 [0] 
1542605566.877004,can1 0000022A [0] 
1542605566.877532,can1 0000022C [0] 
1542605566.878036,can1 0000022D [0] 
1542605566.878564,can1 0000022E [0] 
1542605566.879071,can1 00000230 [0] 
1542605566.879607,can1 00000231 [0] 
1542605566.88008,can1 00000233 [0] 
1542605566.880654,can1 00000234 [0] 
1542605566.88116,can1 00000235 [0] 
1542605566.881649,can1 00000237 [0] 
1542605566.882153,can1 00000238 [0] 
1542605566.882745,can1 00000239 [0] 
1542605566.883249,can1 0000023A [0] 
1542605566.884048,can1 0000023C [0] 
1542605566.884718,can1 0000023D [0] 
1542605566.885249,can1 0000023E [0] 
1542605566.885773,can1 00000240 [0] 
1542605566.886367,can1 00000241 [0] 
1542605566.886891,can1 00000242 [0] 
1542605566.887378,can1 00000243 [0] 
1542605566.887908,can1 00000245 [0] 
1542605566.888468,can1 00000246 [0] 
1542605566.88897,can1 00000247 [0] 
1542605566.889473,can1 00000249 [0] 
1542605566.890049,can1 0000024A [0] 
1542605566.890552,can1 0000024B [0] 
1542605566.891112,can1 0000024D [0] 
1542605566.891601,can1 0000024E [0] 
1542605566.892148,can1 00000250 [0] 
1542605566.892672,can1 00000251 [0] 
1542605566.8932,can1 00000252 [0] 
1542605566.893708,can1 00000254 [0] 
1542605566.894264,can1 00000255 [0] 
1542605566.894806,can1 00000256 [0] 
1542605566.89529,can1 00000258 [0] 
1542605566.895783,can1 00000259 [0] 
1542605566.896377,can1 0000025A [0] 
1542605566.896857,can1 0000025C [0] 
1542605566.897332,can1 0000025D [0] 
1542605566.897888,can1 0000025E [0] 
1542605566.898387,can1 00000260 [0] 
1542605566.898901,can1 00000261 [0] 
1542605566.899384,can1 00000262 [0] 
1542605566.899948,can1 00000264 [0] 
1542605566.900435,can1 00000265 [0] 
1542605566.900933,can1 00000266 [0] 
1542605566.901433,can1 00000268 [0] 
1542605566.901995,can1 00000269 [0] 
1542605566.902515,can1 0000026A [0] 
1542605566.90302,can1 0000026B [0] 
1542605566.903535,can1 0000026D [0] 
1542605566.904098,can1 0000026E [0] 
1542605566.904601,can1 0000026F [0] 
1542605566.905143,can1 00000271 [0] 
1542605566.905669,can1 00000272 [0] 
1542605566.906188,can1 00000273 [0] 
1542605566.906712,can1 00000275 [0] 
1542605566.907195,can1 00000276 [0] 
1542605566.907728,can1 00000277 [0] 
1542605566.908276,can1 00000279 [0] 
1542605566.908765,can1 0000027A [0] 
1542605566.909265,can1 0000027B [0] 
1542605566.909816,can1 0000027C [0] 
1542605566.91034,can1 0000027E [0] 
1542605566.910836,can1 0000027F [0] 
1542605566.911354,can1 00000280 [0] 
1542605566.911948,can1 00000282 [0] 
1542605566.912438,can1 00000283 [0] 
1542605566.912947,can1 00000284 [0] 
1542605566.913496,can1 00000286 [0] 
1542605566.913993,can1 00000287 [0] 
1542605566.914501,can1 00000288 [0] 
1542605566.914996,can1 0000028A [0] 
1542605566.915567,can1 0000028B [0] 
1542605566.916082,can1 0000028C [0] 
1542605566.916578,can1 0000028E [0] 
1542605566.917069,can1 0000028F [0] 
1542605566.917639,can1 00000290 [0] 
1542605566.918159,can1 00000292 [0] 
1542605566.918725,can1 00000293 [0] 
1542605566.919232,can1 00000294 [0] 
1542605566.920505,can1 00000295 [0] 
1542605566.921044,can1 00000297 [0] 
1542605566.921647,can1 00000298 [0] 
1542605566.922171,can1 0000029A [0] 
1542605566.9227,can1 0000029B [0] 
1542605566.923258,can1 0000029C [0] 
1542605566.923771,can1 0000029D [0] 
1542605566.924313,can1 0000029F [0] 
1542605566.924799,can1 000002A0 [0] 
1542605566.925342,can1 000002A1 [0] 
1542605566.925858,can1 000002A3 [0] 
1542605566.926368,can1 000002A4 [0] 
1542605566.926865,can1 000002A5 [0] 
1542605566.92804,can1 000002A7 [0] 
1542605566.928694,can1 000002A8 [0] 
1542605566.929357,can1 000002A9 [0] 
1542605566.929917,can1 000002AA [0] 
1542605566.930444,can1 000002AC [0] 
1542605566.930951,can1 000002AD [0] 
1542605566.931569,can1 000002AE [0] 
1542605566.932071,can1 000002B0 [0] 
1542605566.932568,can1 000002B1 [0] 
1542605566.933163,can1 000002B2 [0] 
1542605566.93367,can1 000002B3 [0] 
1542605566.934193,can1 000002B5 [0] 
1542605566.93469,can1 000002B6 [0] 
1542605566.935268,can1 000002B8 [0] 
1542605566.935782,can1 000002B9 [0] 
1542605566.936302,can1 000002BA [0] 
1542605566.936797,can1 000002BB [0] 
1542605566.937371,can1 000002BD [0] 
1542605566.937914,can1 000002BE [0] 
1542605566.938423,can1 000002BF [0] 
1542605566.93896,can1 000002C1 [0] 
1542605566.93948,can1 000002C2 [0] 
1542605566.940009,can1 000002C3 [0] 
1542605566.940498,can1 000002C4 [0] 
1542605566.941046,can1 000002C6 [0] 
1542605566.941587,can1 000002C7 [0] 
1542605566.943778,can1 000002C9 [0] 
1542605566.944561,can1 000002CA [0] 
1542605566.945268,can1 000002CB [0] 
1542605566.945815,can1 000002CC [0] 
1542605566.946365,can1 000002CE [0] 
1542605566.94693,can1 000002CF [0] 
1542605566.94745,can1 000002D0 [0] 
1542605566.947986,can1 000002D2 [0] 
1542605566.948472,can1 000002D3 [0] 
1542605566.94906,can1 000002D4 [0] 
1542605566.949576,can1 000002D5 [0] 
1542605566.950114,can1 000002D7 [0] 
1542605566.951055,can1 000002D8 [0] 
1542605566.95206,can1 000002D9 [0] 
1542605566.952742,can1 000002DB [0] 
1542605566.953307,can1 000002DC [0] 
1542605566.953826,can1 000002DE [0] 
1542605566.954362,can1 000002DF [0] 
1542605566.954947,can1 000002E0 [0] 
1542605566.955489,can1 000002E1 [0] 
1542605566.955974,can1 000002E3 [0] 
1542605566.956534,can1 000002E4 [0] 
1542605566.957094,can1 000002E5 [0] 
1542605566.957588,can1 000002E7 [0] 
1542605566.958087,can1 000002E9 [0] 
1542605566.958629,can1 000002EA [0] 
1542605566.959177,can1 000002EB [0] 
1542605566.959667,can1 000002ED [0] 
1542605566.960181,can1 000002EE [0] 
1542605566.960763,can1 000002EF [0] 
1542605566.961251,can1 000002F1 [0] 
1542605566.961755,can1 000002F2 [0] 
1542605566.962309,can1 000002F4 [0] 
1542605566.962833,can1 000002F5 [0] 
1542605566.963354,can1 000002F6 [0] 
1542605566.963891,can1 000002F7 [0] 
1542605566.96443,can1 000002F9 [0] 
1542605566.964949,can1 000002FA [0] 
1542605566.965447,can1 000002FB [0] 
1542605566.965958,can1 000002FD [0] 
1542605566.966512,can1 000002FE [0] 
1542605566.967026,can1 000002FF [0] 
1542605566.967561,can1 00000301 [0] 
1542605566.968045,can1 00000302 [0] 
1542605566.968609,can1 00000303 [0] 
1542605566.969143,can1 00000305 [0] 
1542605566.969629,can1 00000306 [0] 
1542605566.970194,can1 00000307 [0] 
1542605566.970758,can1 00000309 [0] 
1542605566.971261,can1 0000030A [0] 
1542605566.971762,can1 0000030B [0] 
1542605566.972337,can1 0000030C [0] 
1542605566.97284,can1 0000030E [0] 
1542605566.973337,can1 0000030F [0] 
1542605566.973824,can1 00000310 [0] 
1542605566.974375,can1 00000312 [0] 
1542605566.974882,can1 00000313 [0] 
1542605566.975386,can1 00000314 [0] 
1542605566.97588,can1 00000315 [0] 
1542605566.976456,can1 00000317 [0] 
1542605566.97696,can1 00000318 [0] 
1542605566.977459,can1 00000319 [0] 
1542605566.978022,can1 0000031B [0] 
1542605566.978538,can1 0000031C [0] 
1542605566.979045,can1 0000031E [0] 
1542605566.979575,can1 0000031F [0] 
1542605566.980124,can1 00000320 [0] 
1542605566.980636,can1 00000321 [0] 
1542605566.981171,can1 00000323 [0] 
1542605566.981667,can1 00000324 [0] 
1542605566.982227,can1 00000326 [0] 
1542605566.982765,can1 00000327 [0] 
1542605566.983253,can1 00000328 [0] 
1542605566.984003,can1 00000329 [0] 
1542605566.984653,can1 0000032B [0] 
1542605566.985197,can1 0000032C [0] 
1542605566.985777,can1 0000032D [0] 
1542605566.986332,can1 00000330 [0] 
1542605566.986853,can1 00000332 [0] 
1542605566.987357,can1 00000333 [0] 
1542605566.987906,can1 00000334 [0] 
1542605566.988466,can1 00000335 [0] 
1542605566.988964,can1 00000336 [0] 
1542605566.989466,can1 00000337 [0] 
1542605566.990041,can1 00000338 [0] 
1542605566.990557,can1 00000339 [0] 
1542605566.991068,can1 0000033A [0] 
1542605566.991645,can1 0000033E [0] 
1542605566.992163,can1 00000340 [0] 
1542605566.992667,can1 00000341 [0] 
1542605566.993179,can1 00000342 [0] 
1542605566.993738,can1 00000343 [0] 
1542605566.994241,can1 00000345 [0] 
1542605566.994778,can1 00000346 [0] 
1542605566.995269,can1 00000347 [0] 
1542605566.995806,can1 00000349 [0] 
1542605566.996346,can1 0000034A [0] 
1542605566.996832,can1 0000034B [0] 
1542605566.997327,can1 0000034D [0] 
1542605566.997892,can1 0000034E [0] 
1542605566.998426,can1 0000034F [0] 
1542605566.998912,can1 00000350 [0] 
1542605566.999458,can1 00000352 [0] 
1542605566.999987,can1 00000353 [0] 
1542605567.000492,can1 00000354 [0] 
1542605567.000975,can1 00000355 [0] 
1542605567.001555,can1 00000357 [0] 
1542605567.002055,can1 00000358 [0] 
1542605567.002562,can1 00000359 [0] 
1542605567.003057,can1 0000035A [0] 
1542605567.003639,can1 0000035C [0] 
1542605567.004165,can1 0000035D [0] 
1542605567.00466,can1 0000035E [0] 
1542605567.005182,can1 00000360 [0] 
1542605567.005737,can1 00000361 [0] 
1542605567.006253,can1 00000362 [0] 
1542605567.006785,can1 00000364 [0] 
1542605567.00732,can1 00000365 [0] 
1542605567.00782,can1 00000366 [0] 
1542605567.008358,can1 00000367 [0] 
1542605567.008838,can1 00000369 [0] 
1542605567.009376,can1 0000036A [0] 
1542605567.009917,can1 0000036C [0] 
1542605567.010417,can1 0000036D [0] 
1542605567.01094,can1 0000036E [0] 
1542605567.011533,can1 0000036F [0] 
1542605567.012055,can1 00000371 [0] 
1542605567.012534,can1 00000372 [0] 
1542605567.013088,can1 00000373 [0] 
1542605567.013599,can1 00000375 [0] 
1542605567.014111,can1 00000376 [0] 
1542605567.014619,can1 00000377 [0] 
1542605567.015183,can1 00000379 [0] 
1542605567.015693,can1 0000037A [0] 
1542605567.016188,can1 0000037B [0] 
1542605567.016679,can1 0000037C [0] 
1542605567.017247,can1 0000037E [0] 
1542605567.01775,can1 0000037F [0] 
1542605567.018245,can1 00000380 [0] 
1542605567.018767,can1 00000381 [0] 
1542605567.019313,can1 00000383 [0] 
1542605567.019811,can1 00000384 [0] 
1542605567.02033,can1 00000385 [0] 
1542605567.020816,can1 00000387 [0] 
1542605567.021373,can1 00000388 [0] 
1542605567.021865,can1 00000389 [0] 
1542605567.02239,can1 0000038B [0] 
1542605567.023061,can1 0000038C [0] 
1542605567.023687,can1 0000038D [0] 
1542605567.024221,can1 0000038F [0] 
1542605567.024794,can1 00000390 [0] 
1542605567.025312,can1 00000391 [0] 
1542605567.025816,can1 00000393 [0] 
1542605567.026339,can1 00000394 [0] 
1542605567.026871,can1 00000395 [0] 
1542605567.027383,can1 00000397 [0] 
1542605567.027864,can1 00000398 [0] 
1542605567.028376,can1 00000399 [0] 
1542605567.028923,can1 0000039A [0] 
1542605567.029443,can1 0000039C [0] 
1542605567.02996,can1 0000039D [0] 
1542605567.030456,can1 0000039E [0] 
1542605567.031002,can1 0000039F [0] 
1542605567.031541,can1 000003A1 [0] 
1542605567.032048,can1 000003A2 [0] 
1542605567.032603,can1 000003A3 [0] 
1542605567.033141,can1 000003A5 [0] 
1542605567.033646,can1 000003A6 [0] 
1542605567.034147,can1 000003A7 [0] 
1542605567.034727,can1 000003A9 [0] 
1542605567.035237,can1 000003AA [0] 
1542605567.035737,can1 000003AB [0] 
1542605567.036271,can1 000003AC [0] 
1542605567.036812,can1 000003AE [0] 
1542605567.037328,can1 000003AF [0] 
1542605567.037859,can1 000003B0 [0] 
1542605567.038386,can1 000003B2 [0] 
1542605567.038971,can1 000003B3 [0] 
1542605567.039488,can1 000003B4 [0] 
1542605567.040017,can1 000003B6 [0] 
1542605567.04057,can1 000003B7 [0] 
1542605567.041108,can1 000003B8 [0] 
1542605567.041603,can1 000003B9 [0] 
1542605567.042108,can1 000003BB [0] 
1542605567.04269,can1 000003BC [0] 
1542605567.043198,can1 000003BD [0] 
1542605567.043707,can1 000003BF [0] 
1542605567.044198,can1 000003C0 [0] 
1542605567.044781,can1 000003C1 [0] 
1542605567.045292,can1 000003C3 [0] 
1542605567.045791,can1 000003C4 [0] 
1542605567.046987,can1 000003C5 [0] 
1542605567.047674,can1 000003C6 [0] 
1542605567.048322,can1 000003C8 [0] 
1542605567.048888,can1 000003C9 [0] 
1542605567.049423,can1 000003CA [0] 
1542605567.049966,can1 000003CC [0] 
1542605567.05053,can1 000003CD [0] 
1542605567.051044,can1 000003CE [0] 
1542605567.051571,can1 000003CF [0] 
1542605567.052138,can1 000003D1 [0] 
1542605567.052708,can1 000003D2 [0] 
1542605567.053222,can1 000003D4 [0] 
1542605567.053711,can1 000003D5 [0] 
1542605567.054291,can1 000003D6 [0] 
1542605567.054798,can1 000003D7 [0] 
1542605567.055277,can1 000003D9 [0] 
1542605567.055784,can1 000003DA [0] 
1542605567.056366,can1 000003DB [0] 
1542605567.05686,can1 000003DD [0] 
1542605567.057372,can1 000003DE [0] 
1542605567.057906,can1 000003DF [0] 
1542605567.058451,can1 000003E1 [0] 
1542605567.058943,can1 000003E3 [0] 
1542605567.059442,can1 000003E4 [0] 
1542605567.060008,can1 000003E6 [0] 
1542605567.060527,can1 000003E7 [0] 
1542605567.061051,can1 000003E8 [0] 
1542605567.06158,can1 000003EA [0] 
1542605567.062126,can1 000003EB [0] 
1542605567.062628,can1 000003EC [0] 
1542605567.063164,can1 000003EE [0] 
1542605567.063649,can1 000003EF [0] 
1542605567.064211,can1 000003F0 [0] 
1542605567.064751,can1 000003F2 [0] 
1542605567.065254,can1 000003F3 [0] 
1542605567.065745,can1 000003F4 [0] 
1542605567.06635,can1 000003F6 [0] 
1542605567.066862,can1 000003F7 [0] 
1542605567.067345,can1 000003F8 [0] 
1542605567.067879,can1 000003FA [0] 
1542605567.068425,can1 000003FB [0] 
1542605567.06891,can1 000003FC [0] 
1542605567.06941,can1 000003FE [0] 
1542605567.069963,can1 000003FF [0] 
1542605567.070472,can1 00000400 [0] 
1542605567.070979,can1 00000401 [0] 
1542605567.0715,can1 00000403 [0] 
1542605567.072047,can1 00000404 [0] 
1542605567.072575,can1 00000405 [0] 
1542605567.073102,can1 00000407 [0] 
1542605567.073648,can1 00000408 [0] 
1542605567.074149,can1 00000409 [0] 
1542605567.074706,can1 0000040A [0] 
1542605567.075193,can1 0000040C [0] 
1542605567.075748,can1 0000040D [0] 
1542605567.07629,can1 0000040E [0] 
1542605567.081952,can1 0000040F [0] 
1542605567.082718,can1 00000411 [0] 
1542605567.083294,can1 00000412 [0] 
1542605567.087419,can1 00000413 [0] 
1542605567.088266,can1 00000415 [0] 
1542605567.088858,can1 00000416 [0] 
1542605567.089476,can1 00000417 [0] 
1542605567.090041,can1 00000419 [0] 
1542605567.090559,can1 0000041A [0] 
1542605567.091061,can1 0000041B [0] 
1542605567.095911,can1 0000041D [0] 
1542605567.096524,can1 0000041E [0] 
1542605567.097168,can1 0000041F [0] 
1542605567.097715,can1 00000421 [0] 
1542605567.098285,can1 00000422 [0] 
1542605567.09878,can1 00000423 [0] 
1542605567.103452,can1 00000424 [0] 
1542605567.104167,can1 00000426 [0] 
1542605567.104755,can1 00000427 [0] 
1542605567.105353,can1 00000428 [0] 
1542605567.105912,can1 0000042A [0] 
1542605567.106403,can1 0000042B [0] 
1542605567.111007,can1 0000042C [0] 
1542605567.11176,can1 0000042E [0] 
1542605567.112354,can1 0000042F [0] 
1542605567.112974,can1 00000430 [0] 
1542605567.113582,can1 00000431 [0] 
1542605567.11408,can1 00000433 [0] 
1542605567.118588,can1 00000434 [0] 
1542605567.119409,can1 00000435 [0] 
1542605567.120021,can1 00000437 [0] 
1542605567.120625,can1 00000438 [0] 
1542605567.121188,can1 00000439 [0] 
1542605567.121718,can1 0000043B [0] 
1542605567.122215,can1 0000043E [0] 
1542605567.126943,can1 0000043F [0] 
1542605567.127629,can1 00000440 [0] 
1542605567.12818,can1 00000442 [0] 
1542605567.128816,can1 00000443 [0] 
1542605567.129349,can1 00000444 [0] 
1542605567.129851,can1 00000446 [0] 
1542605567.134477,can1 00000447 [0] 
1542605567.135281,can1 00000449 [0] 
1542605567.135914,can1 0000044A [0] 
1542605567.136564,can1 0000044B [0] 
1542605567.137131,can1 0000044D [0] 
1542605567.137669,can1 0000044E [0] 
1542605567.141564,can1 00000450 [0] 
1542605567.142464,can1 00000452 [0] 
1542605567.143055,can1 00000454 [0] 
1542605567.143626,can1 00000455 [0] 
1542605567.144232,can1 00000457 [0] 
1542605567.144806,can1 00000458 [0] 
1542605567.145345,can1 00000459 [0] 
1542605567.145942,can1 0000045B [0] 
1542605567.146485,can1 0000045C [0] 
1542605567.146993,can1 0000045D [0] 
1542605567.147512,can1 0000045F [0] 
1542605567.148036,can1 00000460 [0] 
1542605567.14856,can1 00000461 [0] 
1542605567.149081,can1 00000463 [0] 
1542605567.149575,can1 00000464 [0] 
1542605567.15012,can1 00000465 [0] 
1542605567.150625,can1 00000466 [0] 
1542605567.151144,can1 00000468 [0] 
1542605567.151643,can1 00000469 [0] 
1542605567.152197,can1 0000046B [0] 
1542605567.152737,can1 0000046C [0] 
1542605567.153221,can1 0000046D [0] 
1542605567.153765,can1 0000046F [0] 
1542605567.154321,can1 00000470 [0] 
1542605567.154862,can1 00000471 [0] 
1542605567.155373,can1 00000472 [0] 
1542605567.155952,can1 00000477 [0] 
1542605567.15647,can1 0000047A [0] 
1542605567.156955,can1 0000047B [0] 
1542605567.157462,can1 0000047D [0] 
1542605567.158047,can1 0000047E [0] 
1542605567.158549,can1 00000480 [0] 
1542605567.159042,can1 00000481 [0] 
1542605567.159603,can1 00000482 [0] 
1542605567.160107,can1 00000484 [0] 
1542605567.160621,can1 00000485 [0] 
1542605567.161143,can1 00000486 [0] 
1542605567.161676,can1 00000488 [0] 
1542605567.162193,can1 00000489 [0] 
1542605567.162724,can1 0000048D [0] 
1542605567.163214,can1 0000048E [0] 
1542605567.163752,can1 00000490 [0] 
1542605567.164287,can1 00000491 [0] 
1542605567.164775,can1 00000492 [0] 
1542605567.165256,can1 00000494 [0] 
1542605567.165818,can1 00000495 [0] 
1542605567.166351,can1 00000497 [0] 
1542605567.166854,can1 00000498 [0] 
1542605567.167388,can1 00000499 [0] 
1542605567.167939,can1 0000049A [0] 
1542605567.16843,can1 0000049C [0] 
1542605567.168935,can1 0000049D [0] 
1542605567.169494,can1 0000049E [0] 
1542605567.169998,can1 000004A0 [0] 
1542605567.170481,can1 000004A1 [0] 
1542605567.170975,can1 000004A2 [0] 
1542605567.171551,can1 000004A4 [0] 
1542605567.172057,can1 000004A5 [0] 
1542605567.172555,can1 000004A6 [0] 
1542605567.173044,can1 000004A7 [0] 
1542605567.173616,can1 000004A9 [0] 
1542605567.174133,can1 000004AA [0] 
1542605567.174612,can1 000004AB [0] 
1542605567.175188,can1 000004AD [0] 
1542605567.175711,can1 000004AE [0] 
1542605567.1762,can1 000004AF [0] 
1542605567.176735,can1 000004B1 [0] 
1542605567.177282,can1 000004B2 [0] 
1542605567.177786,can1 000004B3 [0] 
1542605567.178278,can1 000004B5 [0] 
1542605567.178802,can1 000004B6 [0] 
1542605567.179355,can1 000004B7 [0] 
1542605567.179952,can1 000004B9 [0] 
1542605567.180455,can1 000004BA [0] 
1542605567.180954,can1 000004BB [0] 
1542605567.181535,can1 000004BD [0] 
1542605567.182077,can1 000004BE [0] 
1542605567.182559,can1 000004BF [0] 
1542605567.183181,can1 000004C1 [0] 
1542605567.183712,can1 000004C2 [0] 
1542605567.184478,can1 000004C3 [0] 
1542605567.185193,can1 000004C5 [0] 
1542605567.185785,can1 000004C6 [0] 
1542605567.186324,can1 000004C7 [0] 
1542605567.186841,can1 000004C8 [0] 
1542605567.187421,can1 000004CA [0] 
1542605567.187952,can1 000004CB [0] 
1542605567.188432,can1 000004CC [0] 
1542605567.189016,can1 000004CE [0] 
1542605567.189552,can1 000004CF [0] 
1542605567.190065,can1 000004D0 [0] 
1542605567.190573,can1 000004D1 [0] 
1542605567.191147,can1 000004D3 [0] 
1542605567.191644,can1 000004D4 [0] 
1542605567.192132,can1 000004D5 [0] 
1542605567.192629,can1 000004D7 [0] 
1542605567.193218,can1 000004D8 [0] 
1542605567.193719,can1 000004D9 [0] 
1542605567.194209,can1 000004DB [0] 
1542605567.194815,can1 000004DC [0] 
1542605567.195358,can1 000004DE [0] 
1542605567.195908,can1 000004E0 [0] 
1542605567.196398,can1 000004E1 [0] 
1542605567.196957,can1 000004E2 [0] 
1542605567.19752,can1 000004E4 [0] 
1542605567.198014,can1 000004E5 [0] 
1542605567.198526,can1 000004E6 [0] 
1542605567.199115,can1 000004E8 [0] 
1542605567.199603,can1 000004E9 [0] 
1542605567.200102,can1 000004EA [0] 
1542605567.200678,can1 000004EC [0] 
1542605567.201194,can1 000004ED [0] 
1542605567.201698,can1 000004EE [0] 
1542605567.202193,can1 000004F0 [0] 
1542605567.20338,can1 000004F1 [0] 
1542605567.204046,can1 000004F2 [0] 
1542605567.204717,can1 000004F4 [0] 
1542605567.205259,can1 000004F5 [0] 
1542605567.205784,can1 000004F6 [0] 
1542605567.2063,can1 000004F7 [0] 
1542605567.206888,can1 000004F9 [0] 
1542605567.2074,can1 000004FA [0] 
1542605567.20789,can1 000004FB [0] 
1542605567.208486,can1 000004FD [0] 
1542605567.208997,can1 000004FE [0] 
1542605567.209539,can1 000004FF [0] 
1542605567.210023,can1 00000501 [0] 
1542605567.210583,can1 00000502 [0] 
1542605567.211084,can1 00000503 [0] 
1542605567.211595,can1 00000505 [0] 
1542605567.212099,can1 00000506 [0] 
1542605567.212672,can1 00000507 [0] 
1542605567.213175,can1 00000508 [0] 
1542605567.213657,can1 0000050A [0] 
1542605567.214156,can1 0000050B [0] 
1542605567.214745,can1 0000050C [0] 
1542605567.215248,can1 0000050E [0] 
1542605567.215746,can1 0000050F [0] 
1542605567.216284,can1 00000510 [0] 
1542605567.216808,can1 00000511 [0] 
1542605567.217337,can1 00000513 [0] 
1542605567.217853,can1 00000514 [0] 
1542605567.21847,can1 00000515 [0] 
1542605567.219012,can1 00000517 [0] 
1542605567.219468,can1 00000518 [0] 
1542605567.219913,can1 00000519 [0] 
1542605567.22039,can1 0000051B [0] 
1542605567.220839,can1 0000051C [0] 
1542605567.221553,can1 0000051D [0] 
1542605567.222084,can1 0000051F [0] 
1542605567.222601,can1 00000520 [0] 
1542605567.223138,can1 00000521 [0] 
1542605567.223637,can1 00000523 [0] 
1542605567.224183,can1 00000524 [0] 
1542605567.224729,can1 00000525 [0] 
1542605567.225235,can1 00000527 [0] 
1542605567.225706,can1 00000528 [0] 
1542605567.226273,can1 00000529 [0] 
1542605567.226763,can1 0000052A [0] 
1542605567.227268,can1 0000052C [0] 
1542605567.227748,can1 0000052D [0] 
1542605567.228345,can1 0000052E [0] 
1542605567.228843,can1 00000530 [0] 
1542605567.229325,can1 00000531 [0] 
1542605567.229794,can1 00000532 [0] 
1542605567.230369,can1 00000533 [0] 
1542605567.230867,can1 00000535 [0] 
1542605567.231349,can1 00000536 [0] 
1542605567.231922,can1 00000537 [0] 
1542605567.232422,can1 00000538 [0] 
1542605567.232896,can1 0000053A [0] 
1542605567.233379,can1 0000053B [0] 
1542605567.233953,can1 0000053C [0] 
1542605567.234464,can1 0000053E [0] 
1542605567.234964,can1 00000540 [0] 
1542605567.235499,can1 00000541 [0] 
1542605567.236043,can1 00000542 [0] 
1542605567.236533,can1 00000544 [0] 
1542605567.237031,can1 00000545 [0] 
1542605567.237512,can1 00000546 [0] 
1542605567.238089,can1 00000548 [0] 
1542605567.238584,can1 00000549 [0] 
1542605567.239075,can1 0000054A [0] 
1542605567.239638,can1 0000054C [0] 
1542605567.240166,can1 0000054D [0] 
1542605567.24067,can1 0000054E [0] 
1542605567.241201,can1 0000054F [0] 
1542605567.241756,can1 00000551 [0] 
1542605567.242304,can1 00000552 [0] 
1542605567.242865,can1 00000553 [0] 
1542605567.243318,can1 00000555 [0] 
1542605567.243807,can1 00000556 [0] 
1542605567.244242,can1 00000557 [0] 
1542605567.244686,can1 00000559 [0] 
1542605567.245348,can1 0000055A [0] 
1542605567.245909,can1 0000055B [0] 
1542605567.246379,can1 0000055C [0] 
1542605567.246859,can1 0000055E [0] 
1542605567.247354,can1 0000055F [0] 
1542605567.247938,can1 00000561 [0] 
1542605567.248436,can1 00000562 [0] 
1542605567.248923,can1 00000563 [0] 
1542605567.249493,can1 00000565 [0] 
1542605567.250021,can1 00000566 [0] 
1542605567.250514,can1 00000567 [0] 
1542605567.251001,can1 00000569 [0] 
1542605567.251565,can1 0000056A [0] 
1542605567.252065,can1 0000056B [0] 
1542605567.252574,can1 0000056C [0] 
1542605567.253058,can1 0000056E [0] 
1542605567.253637,can1 0000056F [0] 
1542605567.25413,can1 00000570 [0] 
1542605567.254602,can1 00000572 [0] 
1542605567.25512,can1 00000573 [0] 
1542605567.255664,can1 00000574 [0] 
1542605567.256166,can1 00000576 [0] 
1542605567.256681,can1 00000577 [0] 
1542605567.257223,can1 0000057A [0] 
1542605567.25771,can1 0000057C [0] 
1542605567.258216,can1 0000057D [0] 
1542605567.258695,can1 0000057E [0] 
1542605567.259272,can1 00000580 [0] 
1542605567.259786,can1 00000581 [0] 
1542605567.260324,can1 00000583 [0] 
1542605567.260823,can1 00000584 [0] 
1542605567.261368,can1 00000585 [0] 
1542605567.261912,can1 00000587 [0] 
1542605567.262411,can1 00000588 [0] 
1542605567.262922,can1 0000058A [0] 
1542605567.263506,can1 0000058B [0] 
1542605567.263996,can1 0000058C [0] 
1542605567.26451,can1 0000058D [0] 
1542605567.265086,can1 0000058F [0] 
1542605567.265591,can1 00000590 [0] 
1542605567.266071,can1 00000591 [0] 
1542605567.266569,can1 00000593 [0] 
1542605567.267118,can1 00000594 [0] 
1542605567.26762,can1 00000595 [0] 
1542605567.26811,can1 00000597 [0] 
1542605567.268608,can1 00000598 [0] 
1542605567.26918,can1 00000599 [0] 
1542605567.269691,can1 0000059A [0] 
1542605567.270201,can1 0000059C [0] 
1542605567.270722,can1 0000059D [0] 
1542605567.271279,can1 0000059E [0] 
1542605567.271771,can1 000005A0 [0] 
1542605567.272295,can1 000005A1 [0] 
1542605567.272825,can1 000005A2 [0] 
1542605567.273351,can1 000005A4 [0] 
1542605567.273881,can1 000005A5 [0] 
1542605567.274371,can1 000005A6 [0] 
1542605567.274883,can1 000005A8 [0] 
1542605567.275403,can1 000005A9 [0] 
1542605567.275928,can1 000005AA [0] 
1542605567.276436,can1 000005AC [0] 
1542605567.276974,can1 000005AD [0] 
1542605567.2775,can1 000005AE [0] 
1542605567.277991,can1 000005B0 [0] 
1542605567.278472,can1 000005B1 [0] 
1542605567.27901,can1 000005B2 [0] 
1542605567.279548,can1 000005B3 [0] 
1542605567.280048,can1 000005B5 [0] 
1542605567.28097,can1 000005B6 [0] 
1542605567.28168,can1 000005B7 [0] 
1542605567.282283,can1 000005B9 [0] 
1542605567.282905,can1 000005BA [0] 
1542605567.283437,can1 000005BB [0] 
1542605567.283945,can1 000005BD [0] 
1542605567.284757,can1 000005BE [0] 
1542605567.285372,can1 000005BF [0] 
1542605567.285951,can1 000005C0 [0] 
1542605567.286449,can1 000005C2 [0] 
1542605567.287046,can1 000005C3 [0] 
1542605567.287584,can1 000005D1 [0] 
1542605567.288101,can1 000005D3 [0] 
1542605567.288674,can1 000005D5 [0] 
1542605567.289184,can1 000005D6 [0] 
1542605567.289694,can1 000005E1 [0] 
1542605567.290185,can1 000005E3 [0] 
1542605567.290728,can1 000005E4 [0] 
1542605567.291258,can1 000005E6 [0] 
1542605567.291743,can1 000005E7 [0] 
1542605567.292248,can1 000005E8 [0] 
1542605567.292843,can1 000005F4 [0] 
1542605567.293363,can1 000005F6 [0] 
1542605567.293905,can1 000005F7 [0] 
1542605567.294438,can1 000005F9 [0] 
1542605567.294942,can1 000005FA [0] 
1542605567.295458,can1 000005FC [0] 
1542605567.296,can1 00000607 [0] 
1542605567.296547,can1 00000609 [0] 
1542605567.297055,can1 0000060A [0] 
1542605567.297599,can1 0000060C [0] 
1542605567.2981,can1 0000060D [0] 
1542605567.29868,can1 0000060F [0] 
1542605567.299223,can1 0000061A [0] 
1542605567.299733,can1 0000061C [0] 
1542605567.300306,can1 0000061D [0] 
1542605567.300773,can1 0000061F [0] 
1542605567.301224,can1 00000620 [0] 
1542605567.301653,can1 00000622 [0] 
1542605567.302128,can1 00000623 [0] 
1542605567.302752,can1 0000062F [0] 
1542605567.303338,can1 00000631 [0] 
1542605567.303816,can1 00000632 [0] 
1542605567.304377,can1 00000633 [0] 
1542605567.304893,can1 00000635 [0] 
1542605567.305382,can1 00000636 [0] 
1542605567.305924,can1 00000642 [0] 
1542605567.306465,can1 00000643 [0] 
1542605567.306957,can1 00000645 [0] 
1542605567.307478,can1 00000646 [0] 
1542605567.307999,can1 00000648 [0] 
1542605567.308537,can1 00000649 [0] 
1542605567.30902,can1 00000654 [0] 
1542605567.309546,can1 00000657 [0] 
1542605567.310109,can1 00000658 [0] 
1542605567.310627,can1 00000659 [0] 
1542605567.311165,can1 0000065B [0] 
1542605567.311662,can1 0000065C [0] 
1542605567.312188,can1 00000666 [0] 
1542605567.312742,can1 00000669 [0] 
1542605567.313247,can1 0000066A [0] 
1542605567.313737,can1 0000066C [0] 
1542605567.314311,can1 0000066D [0] 
1542605567.314798,can1 0000066E [0] 
1542605567.315288,can1 00000670 [0] 
1542605567.315812,can1 00000671 [0] 
1542605567.316348,can1 00000673 [0] 
1542605567.31684,can1 00000674 [0] 
1542605567.317314,can1 00000675 [0] 
1542605567.318484,can1 00000677 [0] 
1542605567.319159,can1 00000678 [0] 
1542605567.319769,can1 00000679 [0] 
1542605567.320347,can1 0000067A [0] 
1542605567.320851,can1 0000067C [0] 
1542605567.321373,can1 0000067D [0] 
1542605567.321973,can1 0000067E [0] 
1542605567.322477,can1 0000067F [0] 
1542605567.323002,can1 00000681 [0] 
1542605567.323531,can1 00000682 [0] 
1542605567.324314,can1 00000684 [0] 
1542605567.324854,can1 00000685 [0] 
1542605567.325358,can1 00000686 [0] 
1542605567.325994,can1 00000688 [0] 
1542605567.32651,can1 00000689 [0] 
1542605567.327015,can1 0000068A [0] 
1542605567.327607,can1 0000068C [0] 
1542605567.328141,can1 0000068D [0] 
1542605567.32867,can1 0000068E [0] 
1542605567.329167,can1 00000690 [0] 
1542605567.329711,can1 00000691 [0] 
1542605567.330201,can1 00000692 [0] 
1542605567.330739,can1 00000693 [0] 
1542605567.331224,can1 00000695 [0] 
1542605567.331788,can1 00000696 [0] 
1542605567.332319,can1 00000697 [0] 
1542605567.332815,can1 00000699 [0] 
1542605567.333319,can1 0000069A [0] 
1542605567.333906,can1 0000069B [0] 
1542605567.334406,can1 0000069C [0] 
1542605567.334899,can1 0000069E [0] 
1542605567.335433,can1 0000069F [0] 
1542605567.33597,can1 000006A0 [0] 
1542605567.336488,can1 000006A2 [0] 
1542605567.336981,can1 000006A3 [0] 
1542605567.337558,can1 000006A4 [0] 
1542605567.338084,can1 000006A5 [0] 
1542605567.338571,can1 000006A7 [0] 
1542605567.339093,can1 000006A8 [0] 
1542605567.339639,can1 000006AA [0] 
1542605567.340147,can1 000006AB [0] 
1542605567.34065,can1 000006AC [0] 
1542605567.341216,can1 000006AD [0] 
1542605567.341736,can1 000006AF [0] 
1542605567.342235,can1 000006B0 [0] 
1542605567.342751,can1 000006B1 [0] 
1542605567.343288,can1 000006B3 [0] 
1542605567.343798,can1 000006B4 [0] 
1542605567.344314,can1 000006B5 [0] 
1542605567.344806,can1 000006B6 [0] 
1542605567.345355,can1 000006B8 [0] 
1542605567.345884,can1 000006B9 [0] 
1542605567.346429,can1 000006BA [0] 
1542605567.346944,can1 000006BC [0] 
1542605567.347522,can1 000006BD [0] 
1542605567.348027,can1 000006BE [0] 
1542605567.348533,can1 000006C0 [0] 
1542605567.349103,can1 000006C1 [0] 
1542605567.349615,can1 000006C2 [0] 
1542605567.350138,can1 000006C3 [0] 
1542605567.350648,can1 000006C5 [0] 
1542605567.351225,can1 000006C6 [0] 
1542605567.351743,can1 000006C8 [0] 
1542605567.352268,can1 000006C9 [0] 
1542605567.352762,can1 000006CA [0] 
1542605567.353319,can1 000006CC [0] 
1542605567.353828,can1 000006CD [0] 
1542605567.354353,can1 000006CF [0] 
1542605567.354872,can1 000006D0 [0] 
1542605567.355387,can1 000006D1 [0] 
1542605567.355912,can1 000006D3 [0] 
1542605567.356411,can1 000006D4 [0] 
1542605567.35695,can1 000006D6 [0] 
1542605567.357468,can1 000006D7 [0] 
1542605567.357992,can1 000006D9 [0] 
1542605567.358475,can1 000006DA [0] 
1542605567.359026,can1 000006DC [0] 
1542605567.359571,can1 000006DD [0] 
1542605567.360073,can1 000006DE [0] 
1542605567.360567,can1 000006DF [0] 
1542605567.361141,can1 000006E1 [0] 
1542605567.36163,can1 000006E2 [0] 
1542605567.362122,can1 000006E4 [0] 
1542605567.362628,can1 000006E5 [0] 
1542605567.363208,can1 000006E6 [0] 
1542605567.363708,can1 000006E8 [0] 
1542605567.36419,can1 000006E9 [0] 
1542605567.364747,can1 000006EA [0] 
1542605567.365249,can1 000006EB [0] 
1542605567.365765,can1 000006ED [0] 
1542605567.36627,can1 000006EE [0] 
1542605567.366866,can1 000006F0 [0] 
1542605567.367389,can1 000006F1 [0] 
1542605567.367915,can1 000006F2 [0] 
1542605567.368421,can1 000006F4 [0] 
1542605567.368983,can1 000006F5 [0] 
1542605567.369513,can1 000006F6 [0] 
1542605567.369998,can1 000006F8 [0] 
1542605567.370534,can1 000006F9 [0] 
1542605567.371035,can1 000006FA [0] 
1542605567.371581,can1 000006FC [0] 
1542605567.372072,can1 000006FD [0] 
1542605567.372619,can1 000006FE [0] 
1542605567.373147,can1 00000701 [0] 
1542605567.373643,can1 00000703 [0] 
1542605567.374135,can1 00000704 [0] 
1542605567.374709,can1 00000706 [0] 
1542605567.375216,can1 00000707 [0] 
1542605567.375745,can1 00000708 [0] 
1542605567.376242,can1 0000070A [0] 
1542605567.376821,can1 0000070B [0] 
1542605567.377331,can1 0000070C [0] 
1542605567.377835,can1 0000070E [0] 
1542605567.378397,can1 0000070F [0] 
1542605567.378904,can1 00000710 [0] 
1542605567.37941,can1 00000712 [0] 
1542605567.379949,can1 00000713 [0] 
1542605567.380495,can1 00000714 [0] 
1542605567.381,can1 00000716 [0] 
1542605567.381527,can1 00000717 [0] 
1542605567.382021,can1 00000718 [0] 
1542605567.382573,can1 00000719 [0] 
1542605567.3831,can1 0000071B [0] 
1542605567.383593,can1 0000071C [0] 
1542605567.384085,can1 0000071D [0] 
1542605567.384892,can1 0000071F [0] 
1542605567.385522,can1 00000720 [0] 
1542605567.386042,can1 00000721 [0] 
1542605567.386643,can1 00000723 [0] 
1542605567.387195,can1 00000724 [0] 
1542605567.387711,can1 00000725 [0] 
1542605567.388325,can1 00000726 [0] 
1542605567.388841,can1 00000727 [0] 
1542605567.389359,can1 00000728 [0] 
1542605567.389858,can1 00000729 [0] 
1542605567.390445,can1 0000072A [0] 
1542605567.390946,can1 0000072B [0] 
1542605567.39145,can1 0000072E [0] 
1542605567.392004,can1 00000730 [0] 
1542605567.392524,can1 00000731 [0] 
1542605567.393026,can1 00000732 [0] 
1542605567.393562,can1 00000734 [0] 
1542605567.394097,can1 00000735 [0] 
1542605567.394621,can1 00000736 [0] 
1542605567.395154,can1 00000738 [0] 
1542605567.395633,can1 00000739 [0] 
1542605567.396185,can1 0000073A [0] 
1542605567.39671,can1 0000073B [0] 
1542605567.3972,can1 0000073D [0] 
1542605567.397708,can1 0000073E [0] 
1542605567.398257,can1 0000073F [0] 
1542605567.398793,can1 00000741 [0] 
1542605567.399279,can1 00000742 [0] 
1542605567.399809,can1 00000743 [0] 
1542605567.400345,can1 00000744 [0] 
1542605567.400835,can1 00000746 [0] 
1542605567.401331,can1 00000747 [0] 
1542605567.401872,can1 00000748 [0] 
1542605567.402403,can1 0000074A [0] 
1542605567.402899,can1 0000074B [0] 
1542605567.403389,can1 0000074C [0] 
1542605567.403963,can1 0000074D [0] 
1542605567.404476,can1 0000074F [0] 
1542605567.404976,can1 00000750 [0] 
1542605567.405463,can1 00000751 [0] 
1542605567.406039,can1 00000753 [0] 
1542605567.40653,can1 00000754 [0] 
1542605567.407027,can1 00000755 [0] 
1542605567.4076,can1 00000756 [0] 
1542605567.408121,can1 00000758 [0] 
1542605567.408621,can1 00000759 [0] 
1542605567.409146,can1 0000075A [0] 
1542605567.409685,can1 0000075C [0] 
1542605567.410176,can1 0000075D [0] 
1542605567.410726,can1 0000075E [0] 
1542605567.411226,can1 0000075F [0] 
1542605567.411772,can1 00000761 [0] 
1542605567.412265,can1 00000762 [0] 
1542605567.412789,can1 00000763 [0] 
1542605567.413293,can1 00000764 [0] 
1542605567.413821,can1 00000765 [0] 
1542605567.414369,can1 00000766 [0] 
1542605567.414848,can1 00000767 [0] 
1542605567.415358,can1 00000769 [0] 
1542605567.41593,can1 0000076B [0] 
1542605567.416419,can1 0000076D [0] 
1542605567.416925,can1 0000076E [0] 
1542605567.41748,can1 0000076F [0] 
1542605567.417989,can1 00000770 [0] 
1542605567.418488,can1 00000772 [0] 
1542605567.418971,can1 00000773 [0] 
1542605567.419543,can1 00000774 [0] 
1542605567.420057,can1 00000776 [0] 
1542605567.420552,can1 00000777 [0] 
1542605567.421055,can1 00000778 [0] 
1542605567.421621,can1 00000779 [0] 
1542605567.422129,can1 0000077B [0] 
1542605567.422621,can1 0000077C [0] 
1542605567.423136,can1 0000077D [0] 
1542605567.423685,can1 0000077F [0] 
1542605567.424195,can1 00000780 [0] 
1542605567.424688,can1 00000781 [0] 
1542605567.425275,can1 00000782 [0] 
1542605567.425813,can1 00000784 [0] 
1542605567.426353,can1 00000785 [0] 
1542605567.426856,can1 00000786 [0] 
1542605567.427419,can1 00000787 [0] 
1542605567.427962,can1 00000789 [0] 
1542605567.428469,can1 0000078A [0] 
1542605567.428976,can1 0000078B [0] 
1542605567.429551,can1 0000078D [0] 
1542605567.430057,can1 0000078E [0] 
1542605567.430552,can1 0000078F [0] 
1542605567.431082,can1 00000791 [0] 
1542605567.431622,can1 00000792 [0] 
1542605567.432123,can1 00000793 [0] 
1542605567.43263,can1 00000794 [0] 
1542605567.433796,can1 00000796 [0] 
1542605567.434451,can1 00000797 [0] 
1542605567.435133,can1 00000799 [0] 
1542605567.435698,can1 0000079A [0] 
1542605567.436226,can1 0000079B [0] 
1542605567.436782,can1 0000079C [0] 
1542605567.437395,can1 0000079E [0] 
1542605567.437927,can1 0000079F [0] 
1542605567.438417,can1 000007A0 [0] 
1542605567.438957,can1 000007A2 [0] 
1542605567.439508,can1 000007A3 [0] 
1542605567.440007,can1 000007A4 [0] 
1542605567.440489,can1 000007A5 [0] 
1542605567.441392,can1 000007A6 [0] 
1542605567.442015,can1 000007A8 [0] 
1542605567.442552,can1 000007A9 [0] 
1542605567.443177,can1 000007AB [0] 
1542605567.443688,can1 000007AC [0] 
1542605567.444215,can1 000007AD [0] 
1542605567.444776,can1 000007AE [0] 
1542605567.44531,can1 000007B0 [0] 
1542605567.445805,can1 000007B1 [0] 
1542605567.446314,can1 000007B2 [0] 
1542605567.446857,can1 000007B4 [0] 
1542605567.447376,can1 000007B5 [0] 
1542605567.447868,can1 000007B6 [0] 
1542605567.448421,can1 000007B7 [0] 
1542605567.448982,can1 000007B9 [0] 
1542605567.44953,can1 000007BA [0] 
1542605567.450031,can1 000007BB [0] 
1542605567.450573,can1 000007BC [0] 
1542605567.451133,can1 000007BE [0] 
1542605567.452382,can1 000007BF [0] 
1542605567.453136,can1 000007C0 [0] 
1542605567.453699,can1 000007C2 [0] 
1542605567.454213,can1 000007C5 [0] 
1542605567.454848,can1 000007C6 [0] 
1542605567.455381,can1 000007C8 [0] 
1542605567.455926,can1 000007C9 [0] 
1542605567.456465,can1 000007CA [0] 
1542605567.456986,can1 000007CB [0] 
1542605567.457492,can1 000007CE [0] 
1542605567.458028,can1 000007CF [0] 
1542605567.458602,can1 000007D1 [0] 
1542605567.459162,can1 000007D2 [0] 
1542605567.459658,can1 000007D4 [0] 
1542605567.460168,can1 000007D5 [0] 
1542605567.460757,can1 000007D6 [0] 
1542605567.461256,can1 000007D7 [0] 
1542605567.461761,can1 000007D9 [0] 
1542605567.46234,can1 000007DA [0] 
1542605567.462855,can1 000007DB [0] 
1542605567.463362,can1 000007DD [0] 
1542605567.463844,can1 000007DE [0] 
1542605567.464404,can1 000007DF [0] 
1542605567.464923,can1 000007E0 [0] 
1542605567.465413,can1 000007E2 [0] 
1542605567.465944,can1 000007E3 [0] 
1542605567.466493,can1 000007E5 [0] 
1542605567.46702,can1 000007E6 [0] 
1542605567.467541,can1 000007E7 [0] 
1542605567.468031,can1 000007E8 [0] 
1542605567.468594,can1 000007EA [0] 
1542605567.469154,can1 000007EB [0] 
1542605567.46966,can1 000007EC [0] 
1542605567.470197,can1 000007ED [0] 
1542605567.470713,can1 000007EF [0] 
1542605567.471252,can1 000007F1 [0] 
1542605567.471752,can1 000007F2 [0] 
1542605567.472324,can1 000007F3 [0] 
1542605567.472824,can1 000007F4 [0] 
1542605567.473333,can1 000007F5 [0] 
1542605567.473819,can1 000007F6 [0] 
1542605567.474409,can1 000007F7 [0] 
1542605567.47493,can1 000007F8 [0] 
1542605567.475443,can1 000007FB [0] 
1542605567.475992,can1 000007FC [0] 
1542605567.476513,can1 000007FD [0] 
1542605567.477023,can1 000007FF [0] 
1542605567.47757,can1 00000000 [0] 
1542605567.478124,can1 00000001 [0] 
1542605567.478646,can1 00000003 [0] 
1542605567.479177,can1 00000004 [0] 
1542605567.479671,can1 00000005 [0] 
1542605567.480233,can1 00000006 [0] 
1542605567.48077,can1 00000008 [0] 
1542605567.481277,can1 00000009 [0] 
1542605567.481813,can1 0000000A [0] 
1542605567.482375,can1 0000000C [0] 
1542605567.482875,can1 0000000D [0] 
1542605567.48339,can1 0000000E [0] 
1542605567.483961,can1 00000010 [0] 
1542605567.484476,can1 00000011 [0] 
1542605567.48525,can1 00000012 [0] 
1542605567.485911,can1 00000014 [0] 
1542605567.486441,can1 00000015 [0] 
1542605567.486959,can1 00000016 [0] 
1542605567.487472,can1 00000018 [0] 
1542605567.488059,can1 00000019 [0] 
1542605567.488578,can1 0000001A [0] 
1542605567.48908,can1 0000001B [0] 
1542605567.489678,can1 0000001D [0] 
1542605567.490202,can1 0000001E [0] 
1542605567.49076,can1 00000021 [0] 
1542605567.491247,can1 00000022 [0] 
1542605567.491804,can1 00000024 [0] 
1542605567.492309,can1 00000025 [0] 
1542605567.492856,can1 00000027 [0] 
1542605567.493349,can1 00000028 [0] 
1542605567.493931,can1 00000029 [0] 
1542605567.494434,can1 0000002B [0] 
1542605567.494931,can1 0000002C [0] 
1542605567.495421,can1 0000002D [0] 
1542605567.496003,can1 0000002F [0] 
1542605567.496508,can1 00000031 [0] 
1542605567.497008,can1 00000032 [0] 
1542605567.497594,can1 00000033 [0] 
1542605567.498096,can1 00000035 [0] 
1542605567.498625,can1 00000036 [0] 
1542605567.499107,can1 00000037 [0] 
1542605567.499701,can1 00000039 [0] 
1542605567.50021,can1 0000003A [0] 
1542605567.50075,can1 0000003B [0] 
1542605567.501235,can1 0000003D [0] 
1542605567.50179,can1 0000003E [0] 
1542605567.502307,can1 0000003F [0] 
1542605567.5028,can1 00000041 [0] 
1542605567.503351,can1 00000042 [0] 
1542605567.503906,can1 00000043 [0] 
1542605567.504388,can1 00000045 [0] 
1542605567.50489,can1 00000046 [0] 
1542605567.505437,can1 00000047 [0] 
1542605567.505974,can1 00000048 [0] 
1542605567.506492,can1 0000004A [0] 
1542605567.506982,can1 0000004B [0] 
1542605567.50756,can1 0000004C [0] 
1542605567.508079,can1 0000004E [0] 
1542605567.508578,can1 0000004F [0] 
1542605567.509075,can1 00000050 [0] 
1542605567.509669,can1 00000052 [0] 
1542605567.510189,can1 00000053 [0] 
1542605567.510715,can1 00000054 [0] 
1542605567.51125,can1 00000056 [0] 
1542605567.511771,can1 00000057 [0] 
1542605567.512271,can1 00000058 [0] 
1542605567.512785,can1 00000059 [0] 
1542605567.513337,can1 0000005B [0] 
1542605567.513854,can1 0000005C [0] 
1542605567.514385,can1 0000005D [0] 
1542605567.514899,can1 0000005F [0] 
1542605567.515609,can1 00000060 [0] 
1542605567.516153,can1 00000061 [0] 
1542605567.516668,can1 00000062 [0] 
1542605567.51775,can1 00000064 [0] 
1542605567.518448,can1 00000065 [0] 
1542605567.519095,can1 00000066 [0] 
1542605567.519707,can1 00000068 [0] 
1542605567.520225,can1 00000069 [0] 
1542605567.520766,can1 0000006B [0] 
1542605567.521342,can1 0000006C [0] 
1542605567.521855,can1 0000006D [0] 
1542605567.522391,can1 0000006F [0] 
1542605567.522945,can1 00000070 [0] 
1542605567.523465,can1 00000071 [0] 
1542605567.523997,can1 00000072 [0] 
1542605567.524486,can1 00000074 [0] 
1542605567.525037,can1 00000075 [0] 
1542605567.525578,can1 00000076 [0] 
1542605567.526076,can1 00000078 [0] 
1542605567.526583,can1 00000079 [0] 
1542605567.527169,can1 0000007A [0] 
1542605567.527684,can1 0000007C [0] 
1542605567.528172,can1 0000007D [0] 
1542605567.528716,can1 0000007E [0] 
1542605567.52928,can1 0000007F [0] 
1542605567.529797,can1 00000081 [0] 
1542605567.530339,can1 00000082 [0] 
1542605567.530909,can1 00000083 [0] 
1542605567.531421,can1 00000085 [0] 
1542605567.531957,can1 00000086 [0] 
1542605567.532448,can1 00000087 [0] 
1542605567.533001,can1 00000089 [0] 
1542605567.533541,can1 0000008A [0] 
1542605567.534035,can1 0000008B [0] 
1542605567.534584,can1 0000008D [0] 
1542605567.535095,can1 0000008E [0] 
1542605567.535641,can1 0000008F [0] 
1542605567.536124,can1 00000090 [0] 
1542605567.536665,can1 00000092 [0] 
1542605567.537213,can1 00000093 [0] 
1542605567.537704,can1 00000094 [0] 
1542605567.53821,can1 00000096 [0] 
1542605567.538792,can1 00000097 [0] 
1542605567.539297,can1 00000098 [0] 
1542605567.539807,can1 0000009A [0] 
1542605567.540342,can1 0000009B [0] 
1542605567.540905,can1 0000009C [0] 
1542605567.541395,can1 0000009D [0] 
1542605567.54193,can1 0000009F [0] 
1542605567.542468,can1 000000A0 [0] 
1542605567.542964,can1 000000A1 [0] 
1542605567.543474,can1 000000A3 [0] 
1542605567.544027,can1 000000A4 [0] 
1542605567.544617,can1 000000A5 [0] 
1542605567.545161,can1 000000A7 [0] 
1542605567.54567,can1 000000A8 [0] 
1542605567.546169,can1 000000A9 [0] 
1542605567.546751,can1 000000AB [0] 
1542605567.547254,can1 000000AC [0] 
1542605567.547748,can1 000000AD [0] 
1542605567.548317,can1 000000AF [0] 
1542605567.548833,can1 000000B0 [0] 
1542605567.549335,can1 000000B1 [0] 
1542605567.549831,can1 000000B2 [0] 
1542605567.550416,can1 000000B4 [0] 
1542605567.550917,can1 000000B5 [0] 
1542605567.551442,can1 000000B6 [0] 
1542605567.552668,can1 000000B8 [0] 
1542605567.553368,can1 000000B9 [0] 
1542605567.553949,can1 000000BA [0] 
1542605567.554567,can1 000000BC [0] 
1542605567.555118,can1 000000BD [0] 
1542605567.555624,can1 000000BE [0] 
1542605567.556178,can1 000000BF [0] 
1542605567.556717,can1 000000C1 [0] 
1542605567.557228,can1 000000C2 [0] 
1542605567.557744,can1 000000C3 [0] 
1542605567.558328,can1 000000C5 [0] 
1542605567.558832,can1 000000C6 [0] 
1542605567.559329,can1 000000C8 [0] 
1542605567.559834,can1 000000CA [0] 
1542605567.560404,can1 000000CB [0] 
1542605567.560924,can1 000000CD [0] 
1542605567.561443,can1 000000CE [0] 
1542605567.562019,can1 000000CF [0] 
1542605567.56252,can1 000000D1 [0] 
1542605567.563269,can1 000000D2 [0] 
1542605567.563951,can1 000000D3 [0] 
1542605567.564509,can1 000000D5 [0] 
1542605567.565032,can1 000000D6 [0] 
1542605567.56556,can1 000000D7 [0] 
1542605567.566137,can1 000000D8 [0] 
1542605567.566663,can1 000000DA [0] 
1542605567.567209,can1 000000DB [0] 
1542605567.567706,can1 000000DC [0] 
1542605567.568277,can1 000000DE [0] 
1542605567.568816,can1 000000DF [0] 
1542605567.569321,can1 000000E0 [0] 
1542605567.569889,can1 000000E2 [0] 
1542605567.570402,can1 000000E3 [0] 
1542605567.570936,can1 000000E4 [0] 
1542605567.57144,can1 000000E5 [0] 
