1549254032.112341,can1 0CFE6E0B [8] 00 00 00 00 00 00 00 00
1549254032.115009,can1 0CFE6E0B [8] 00 00 00 00 00 00 00 00
1549254032.124018,can1 18F0010B [8] CF FF F0 FF FF DC FF FF
1549254032.124686,can1 0CFE6E0B [8] 00 00 00 00 00 00 00 00
1549254032.125345,can1 18F00131 [8] 00 00 00 00 00 00 00 00
1549254032.125799,can1 18F0010B [8] 00 00 00 00 00 00 00 00
1549254032.12629,can1 18FEF117 [8] 00 00 00 00 00 00 00 00
1549254032.126691,can1 18FEF128 [8] 00 00 00 00 00 00 00 00
1549254032.137116,can1 18FEF121 [8] 00 00 00 00 00 00 00 00
1549254032.137631,can1 18FEF131 [8] 00 00 00 00 00 00 00 00
1549254032.138052,can1 18E00017 [8] 00 00 00 00 00 00 00 00
1549254032.138451,can1 18E00019 [8] 00 00 00 00 00 00 00 00
1549254032.13895,can1 18E00021 [8] 00 00 00 00 00 00 00 00
1549254032.139355,can1 18E00028 [8] 00 00 00 00 00 00 00 00
1549254032.139746,can1 0CFE6E0B [8] 00 00 00 00 00 00 00 00
1549254032.140125,can1 18E00031 [8] 00 00 00 00 00 00 00 00
1549254032.150426,can1 18FEBF0B [8] 00 00 7D 7D 7D 7D FF FF
1549254032.151051,can1 18FEF017 [8] 00 00 00 00 00 00 00 00
1549254032.158606,can1 18FEF021 [8] 00 00 00 00 00 00 00 00
1549254032.159203,can1 18FEF028 [8] 00 00 00 00 00 00 00 00
1549254032.159648,can1 18FEF031 [8] 00 00 00 00 00 00 00 00
1549254032.16015,can1 0CFE6E0B [8] 00 00 00 00 00 00 00 00
1549254032.160591,can1 0CFE6E0B [8] 00 00 00 00 00 00 00 00
1549254032.160995,can1 0CFE6E0B [8] 00 00 00 00 00 00 00 00
1549254032.178055,can1 0CFE6E0B [8] 00 00 00 00 00 00 00 00
1549254032.17878,can1 0CFE6E0B [8] 00 00 00 00 00 00 00 00
1549254032.179272,can1 18F00131 [8] 00 00 00 00 00 00 00 00
1549254032.179795,can1 18F0010B [8] 00 00 00 00 00 00 00 00
1549254032.180238,can1 18FEF117 [8] 00 00 00 00 00 00 00 00
1549254032.18064,can1 18FEF128 [8] 00 00 00 00 00 00 00 00
1549254032.181021,can1 18FEF121 [8] 00 00 00 00 00 00 00 00
1549254032.193443,can1 18FEF131 [8] 00 00 00 00 00 00 00 00
1549254032.19413,can1 18E00017 [8] 00 00 00 00 00 00 00 00
1549254032.194599,can1 18E00019 [8] 00 00 00 00 00 00 00 00
1549254032.19502,can1 18E00021 [8] 00 00 00 00 00 00 00 00
1549254032.199736,can1 18E00028 [8] 00 00 00 00 00 00 00 00
1549254032.200362,can1 18E00031 [8] 00 00 00 00 00 00 00 00
1549254032.200816,can1 18FEF017 [8] 00 00 00 00 00 00 00 00
1549254032.216961,can1 18FEF021 [8] 00 00 00 00 00 00 00 00
1549254032.217739,can1 18FEF028 [8] 00 00 00 00 00 00 00 00
1549254032.218232,can1 18FEF031 [8] 00 00 00 00 00 00 00 00
1549254032.218749,can1 0CFE6E0B [8] 00 00 00 00 00 00 00 00
1549254032.219196,can1 0CFE6E0B [8] 00 00 00 00 00 00 00 00
1549254032.219591,can1 0CFE6E0B [8] 00 00 00 00 00 00 00 00
1549254032.219976,can1 18F0010B [8] CF FF F0 FF FF DC FF FF
1549254032.220357,can1 0CFE6E0B [8] 00 00 00 00 00 00 00 00
1549254032.242761,can1 18F00131 [8] 00 00 00 00 00 00 00 00
1549254032.243491,can1 18F0010B [8] 00 00 00 00 00 00 00 00
1549254032.243981,can1 18FEF117 [8] 00 00 00 00 00 00 00 00
1549254032.248265,can1 18FEF128 [8] 00 00 00 00 00 00 00 00
1549254032.248784,can1 18FEF121 [8] 00 00 00 00 00 00 00 00
1549254032.249212,can1 18FEF131 [8] 00 00 00 00 00 00 00 00
1549254032.249612,can1 18E00017 [8] 00 00 00 00 00 00 00 00
1549254032.258095,can1 18E00019 [8] 00 00 00 00 00 00 00 00
1549254032.25872,can1 18E00021 [8] 00 00 00 00 00 00 00 00
1549254032.259179,can1 18E00028 [8] 00 00 00 00 00 00 00 00
1549254032.259604,can1 0CFE6E0B [8] 00 00 00 00 00 00 00 00
1549254032.263061,can1 18E00031 [8] 00 00 00 00 00 00 00 00
1549254032.263641,can1 18FEBF0B [8] 00 00 7D 7D 7D 7D FF FF
1549254032.264116,can1 18FEF017 [8] 00 00 00 00 00 00 00 00
1549254032.270973,can1 18FEF021 [8] 00 00 00 00 00 00 00 00
1549254032.275401,can1 18FEF028 [8] 00 00 00 00 00 00 00 00
1549254032.276123,can1 18FEF031 [8] 00 00 00 00 00 00 00 00
1549254032.276611,can1 0CFE6E0B [8] 00 00 00 00 00 00 00 00
1549254032.277044,can1 0CFE6E0B [8] 00 00 00 00 00 00 00 00
1549254032.277554,can1 18ECFFFA [8] 20 1C 00 04 FF EB FE 00
1549254032.277976,can1 18EBFFFA [8] 01 53 59 4E 45 52 2A 53
1549254032.27837,can1 18EBFFFA [8] 02 53 53 32 2D 30 32 2A
1549254032.278753,can1 18EBFFFA [8] 03 58 58 58 58 2A 55 4E
1549254032.287544,can1 18EBFFFA [8] 04 49 56 45 52 53 41 4C
1549254032.288234,can1 0CFE6E0B [8] 00 00 00 00 00 00 00 00
1549254032.288725,can1 0CFE6E0B [8] 00 00 00 00 00 00 00 00
1549254032.289301,can1 0CFE6E0B [8] 00 00 00 00 00 00 00 00
1549254032.289748,can1 18F00131 [8] 00 00 00 00 00 00 00 00
1549254032.290153,can1 18F0010B [8] 00 00 00 00 00 00 00 00
1549254032.290545,can1 18FEF117 [8] 00 00 00 00 00 00 00 00
1549254032.300938,can1 18FEF128 [8] 00 00 00 00 00 00 00 00
1549254032.304108,can1 18FEF121 [8] 00 00 00 00 00 00 00 00
1549254032.3064,can1 18FEF131 [8] 00 00 00 00 00 00 00 00
1549254032.309222,can1 18E00017 [8] 00 00 00 00 00 00 00 00
1549254032.31601,can1 18E00019 [8] 00 00 00 00 00 00 00 00
1549254032.316727,can1 18E00021 [8] 00 00 00 00 00 00 00 00
1549254032.317196,can1 18E00028 [8] 00 00 00 00 00 00 00 00
1549254032.317611,can1 18E00031 [8] 00 00 00 00 00 00 00 00
1549254032.31801,can1 18FEF017 [8] 00 00 00 00 00 00 00 00
1549254032.326287,can1 18FEF021 [8] 00 00 00 00 00 00 00 00
1549254032.326861,can1 18FEF028 [8] 00 00 00 00 00 00 00 00
1549254032.328491,can1 18FEF031 [8] 00 00 00 00 00 00 00 00
1549254032.329161,can1 0CFE6E0B [8] 00 00 00 00 00 00 00 00
1549254032.329635,can1 0CFE6E0B [8] 00 00 00 00 00 00 00 00
1549254032.33017,can1 0CFE6E0B [8] 00 00 00 00 00 00 00 00
1549254032.330642,can1 18F0010B [8] CF FF F0 FF FF DC FF FF
1549254032.331056,can1 0CFE6E0B [8] 00 00 00 00 00 00 00 00
1549254032.332932,can1 18F00131 [8] 00 00 00 00 00 00 00 00
1549254032.338054,can1 18F0010B [8] 00 00 00 00 00 00 00 00
1549254032.338562,can1 18FEF117 [8] 00 00 00 00 00 00 00 00
1549254032.338989,can1 18FEF128 [8] 00 00 00 00 00 00 00 00
1549254032.339846,can1 18FEF121 [8] 00 00 00 00 00 00 00 00
1549254032.34034,can1 18FEF131 [8] 00 00 00 00 00 00 00 00
1549254032.34076,can1 18E00017 [8] 00 00 00 00 00 00 00 00
1549254032.341147,can1 18E00019 [8] 00 00 00 00 00 00 00 00
1549254032.342869,can1 18E00021 [8] 00 00 00 00 00 00 00 00
1549254032.343411,can1 18E00028 [8] 00 00 00 00 00 00 00 00
1549254032.34393,can1 0CFE6E0B [8] 00 00 00 00 00 00 00 00
1549254032.34436,can1 18E00031 [8] 00 00 00 00 00 00 00 00
1549254032.344765,can1 18FEBF0B [8] 00 00 7D 7D 7D 7D FF FF
1549254032.347737,can1 18FEF017 [8] 00 00 00 00 00 00 00 00
1549254032.348349,can1 18FEF021 [8] 00 00 00 00 00 00 00 00
1549254032.3488,can1 18FEF028 [8] 00 00 00 00 00 00 00 00
1549254032.349209,can1 18FEF031 [8] 00 00 00 00 00 00 00 00
1549254032.349677,can1 18FEF521 [8] 00 00 00 00 00 00 00 00
1549254032.350105,can1 0CFE6E0B [8] 00 00 00 00 00 00 00 00
1549254032.350503,can1 0CFE6E0B [8] 00 00 00 00 00 00 00 00
1549254032.351235,can1 0CFE6E0B [8] 00 00 00 00 00 00 00 00
1549254032.354378,can1 0CFE6E0B [8] 00 00 00 00 00 00 00 00
1549254032.365885,can1 0CFE6E0B [8] 00 00 00 00 00 00 00 00
1549254032.367019,can1 18F00131 [8] 00 00 00 00 00 00 00 00
1549254032.36806,can1 18F0010B [8] 00 00 00 00 00 00 00 00
1549254032.369342,can1 18FEF117 [8] 00 00 00 00 00 00 00 00
1549254032.370273,can1 18FEF128 [8] 00 00 00 00 00 00 00 00
1549254032.376543,can1 18FEF121 [8] 00 00 00 00 00 00 00 00
1549254032.378551,can1 18FEF131 [8] 00 00 00 00 00 00 00 00
1549254032.379922,can1 18E00017 [8] 00 00 00 00 00 00 00 00
1549254032.380555,can1 18E00019 [8] 00 00 00 00 00 00 00 00
1549254032.381109,can1 18E00021 [8] 00 00 00 00 00 00 00 00
1549254032.385527,can1 18E00028 [8] 00 00 00 00 00 00 00 00
1549254032.398647,can1 18E00031 [8] 00 00 00 00 00 00 00 00
1549254032.399253,can1 18FEF017 [8] 00 00 00 00 00 00 00 00
1549254032.399711,can1 18FEF021 [8] 00 00 00 00 00 00 00 00
1549254032.400128,can1 18FEF028 [8] 00 00 00 00 00 00 00 00
1549254032.400628,can1 18FEF031 [8] 00 00 00 00 00 00 00 00
1549254032.401047,can1 0CFE6E0B [8] 00 00 00 00 00 00 00 00
1549254032.423097,can1 0CFE6E0B [8] 00 00 00 00 00 00 00 00
1549254032.42607,can1 0CFE6E0B [8] 00 00 00 00 00 00 00 00
1549254032.426672,can1 18F0010B [8] CF FF F0 FF FF DC FF FF
1549254032.075341,can0 08FF0001 [8] 00 00 00 00 00 00 00 00
1549254032.094904,can0 0CF00203 [8] 00 00 00 00 00 00 00 00
1549254032.108007,can0 08FF0303 [8] 00 00 00 00 00 00 00 00
1549254032.108998,can0 08FF0001 [8] 00 00 00 00 00 00 00 00
1549254032.117313,can0 0CF00203 [8] 00 00 00 00 00 00 00 00
1549254032.117961,can0 08FF0303 [8] 00 00 00 00 00 00 00 00
1549254032.118542,can0 08FF0001 [8] 00 00 00 00 00 00 00 00
1549254032.118976,can0 0CF00203 [8] 00 00 00 00 00 00 00 00
1549254032.133386,can0 08FF0303 [8] 00 00 00 00 00 00 00 00
1549254032.134191,can0 08FF0001 [8] 00 00 00 00 00 00 00 00
1549254032.134791,can0 0CF00203 [8] 00 00 00 00 00 00 00 00
1549254032.135271,can0 08FF0303 [8] 00 00 00 00 00 00 00 00
1549254032.135687,can0 08FF0001 [8] 00 00 00 00 00 00 00 00
1549254032.136086,can0 0CF00203 [8] 00 00 00 00 00 00 00 00
1549254032.13647,can0 08FF0303 [8] 00 00 00 00 00 00 00 00
1549254032.14712,can0 08FF0001 [8] 00 00 00 00 00 00 00 00
1549254032.148953,can0 0CF00203 [8] 00 00 00 00 00 00 00 00
1549254032.1495,can0 08FF0303 [8] 00 00 00 00 00 00 00 00
1549254032.149934,can0 08FF0001 [8] 00 00 00 00 00 00 00 00
1549254032.156851,can0 0CF00203 [8] 00 00 00 00 00 00 00 00
1549254032.157596,can0 08FF0303 [8] 00 00 00 00 00 00 00 00
1549254032.163239,can0 18F00503 [8] 00 00 00 00 00 00 00 00
1549254032.164195,can0 08FF0001 [8] 00 00 00 00 00 00 00 00
1549254032.171729,can0 0CF00203 [8] 00 00 00 00 00 00 00 00
1549254032.184143,can0 08FF0303 [8] 00 00 00 00 00 00 00 00
1549254032.184652,can0 08FF0001 [8] 00 00 00 00 00 00 00 00
1549254032.185101,can0 0CF00203 [8] 00 00 00 00 00 00 00 00
1549254032.188335,can0 08FF0303 [8] 00 00 00 00 00 00 00 00
1549254032.189187,can0 08FF0001 [8] 00 00 00 00 00 00 00 00
1549254032.189789,can0 0CF00203 [8] 00 00 00 00 00 00 00 00
1549254032.190229,can0 08FF0303 [8] 00 00 00 00 00 00 00 00
1549254032.190633,can0 08FF0001 [8] 00 00 00 00 00 00 00 00
1549254032.191022,can0 0CF00203 [8] 00 00 00 00 00 00 00 00
1549254032.208601,can0 08FF0303 [8] 00 00 00 00 00 00 00 00
1549254032.209537,can0 08FF0001 [8] 00 00 00 00 00 00 00 00
1549254032.210117,can0 0CF00203 [8] 00 00 00 00 00 00 00 00
1549254032.224328,can0 08FF0303 [8] 00 00 00 00 00 00 00 00
1549254032.225297,can0 08FF0001 [8] 00 00 00 00 00 00 00 00
1549254032.225815,can0 0CF00203 [8] 00 00 00 00 00 00 00 00
1549254032.226864,can0 08FF0303 [8] 00 00 00 00 00 00 00 00
1549254032.230677,can0 08FF0001 [8] 00 00 00 00 00 00 00 00
1549254032.244346,can0 0CF00203 [8] 00 00 00 00 00 00 00 00
1549254032.244961,can0 08FF0303 [8] 00 00 00 00 00 00 00 00
1549254032.245419,can0 08FF0001 [8] 00 00 00 00 00 00 00 00
1549254032.245833,can0 0CF00203 [8] 00 00 00 00 00 00 00 00
1549254032.250481,can0 08FF0303 [8] 00 00 00 00 00 00 00 00
1549254032.250997,can0 08FF0001 [8] 00 00 00 00 00 00 00 00
1549254032.257038,can0 0CF00203 [8] 00 00 00 00 00 00 00 00
1549254032.259852,can0 08FF0303 [8] 00 00 00 00 00 00 00 00
1549254032.260406,can0 08FF0001 [8] 00 00 00 00 00 00 00 00
1549254032.260854,can0 0CF00203 [8] 00 00 00 00 00 00 00 00
1549254032.262031,can0 08FF0303 [8] 00 00 00 00 00 00 00 00
1549254032.26525,can0 18F00503 [8] 00 00 00 00 00 00 00 00
1549254032.267653,can0 08FF0001 [8] 00 00 00 00 00 00 00 00
1549254032.270565,can0 0CF00203 [8] 00 00 00 00 00 00 00 00
1549254032.279497,can0 08FF0303 [8] 00 00 00 00 00 00 00 00
1549254032.28007,can0 08FF0001 [8] 00 00 00 00 00 00 00 00
1549254032.280514,can0 0CF00203 [8] 00 00 00 00 00 00 00 00
1549254032.282349,can0 08FF0303 [8] 00 00 00 00 00 00 00 00
1549254032.285767,can0 08FF0001 [8] 00 00 00 00 00 00 00 00
1549254032.286865,can0 0CF00203 [8] 00 00 00 00 00 00 00 00
1549254032.291234,can0 08FF0303 [8] 00 00 00 00 00 00 00 00
1549254032.295222,can0 08FF0001 [8] 00 00 00 00 00 00 00 00
1549254032.296172,can0 0CF00203 [8] 00 00 00 00 00 00 00 00
1549254032.296729,can0 08FF0303 [8] 00 00 00 00 00 00 00 00
1549254032.297277,can0 08FF0001 [8] 00 00 00 00 00 00 00 00
1549254032.297697,can0 0CF00203 [8] 00 00 00 00 00 00 00 00
1549254032.303344,can0 08FF0303 [8] 00 00 00 00 00 00 00 00
1549254032.30568,can0 08FF0001 [8] 00 00 00 00 00 00 00 00
1549254032.308579,can0 0CF00203 [8] 00 00 00 00 00 00 00 00
1549254032.312902,can0 08FF0303 [8] 00 00 00 00 00 00 00 00
1549254032.313593,can0 08FF0001 [8] 00 00 00 00 00 00 00 00
1549254032.314075,can0 0CF00203 [8] 00 00 00 00 00 00 00 00
1549254032.314608,can0 08FF0303 [8] 00 00 00 00 00 00 00 00
1549254032.315046,can0 08FF0001 [8] 00 00 00 00 00 00 00 00
1549254032.31545,can0 0CF00203 [8] 00 00 00 00 00 00 00 00
1549254032.323367,can0 08FF0303 [8] 00 00 00 00 00 00 00 00
1549254032.323908,can0 08FF0001 [8] 00 00 00 00 00 00 00 00
1549254032.324514,can0 0CF00203 [8] 00 00 00 00 00 00 00 00
1549254032.324974,can0 08FF0303 [8] 00 00 00 00 00 00 00 00
1549254032.325385,can0 08FF0001 [8] 00 00 00 00 00 00 00 00
1549254032.325782,can0 0CF00203 [8] 00 00 00 00 00 00 00 00
1549254032.331797,can0 08FF0303 [8] 00 00 00 00 00 00 00 00
1549254032.33395,can0 18F00503 [8] 00 00 00 00 00 00 00 00
1549254032.334535,can0 08FF0001 [8] 00 00 00 00 00 00 00 00
1549254032.334977,can0 0CF00203 [8] 00 00 00 00 00 00 00 00
1549254032.335382,can0 08FF0303 [8] 00 00 00 00 00 00 00 00
1549254032.335772,can0 08FF0001 [8] 00 00 00 00 00 00 00 00
1549254032.336313,can0 0CF00203 [8] 00 00 00 00 00 00 00 00
1549254032.336727,can0 08FF0303 [8] 00 00 00 00 00 00 00 00
1549254032.337124,can0 08FF0001 [8] 00 00 00 00 00 00 00 00
1549254032.337515,can0 0CF00203 [8] 00 00 00 00 00 00 00 00
1549254032.34231,can0 08FF0303 [8] 00 00 00 00 00 00 00 00
1549254032.345904,can0 08FF0001 [8] 00 00 00 00 00 00 00 00
1549254032.346417,can0 0CF00203 [8] 00 00 00 00 00 00 00 00
1549254032.346843,can0 08FF0303 [8] 00 00 00 00 00 00 00 00
1549254032.351766,can0 08FF0001 [8] 00 00 00 00 00 00 00 00
1549254032.352806,can0 0CF00203 [8] 00 00 00 00 00 00 00 00
1549254032.353368,can0 08FF0303 [8] 00 00 00 00 00 00 00 00
1549254032.361831,can0 08FF0001 [8] 00 00 00 00 00 00 00 00
1549254032.363223,can0 0CF00203 [8] 00 00 00 00 00 00 00 00
1549254032.363773,can0 08FF0303 [8] 00 00 00 00 00 00 00 00
1549254032.374192,can0 08FF0001 [8] 00 00 00 00 00 00 00 00
1549254032.37527,can0 0CF00203 [8] 00 00 00 00 00 00 00 00
1549254032.375788,can0 08FF0303 [8] 00 00 00 00 00 00 00 00
1549254032.383392,can0 08FF0001 [8] 00 00 00 00 00 00 00 00
1549254032.384126,can0 0CF00203 [8] 00 00 00 00 00 00 00 00
1549254032.384712,can0 08FF0303 [8] 00 00 00 00 00 00 00 00
1549254032.396815,can0 08FF0001 [8] 00 00 00 00 00 00 00 00
1549254032.397581,can0 0CF00203 [8] 00 00 00 00 00 00 00 00
1549254032.398076,can0 08FF0303 [8] 00 00 00 00 00 00 00 00
1549254032.416343,can0 08FF0001 [8] 00 00 00 00 00 00 00 00
1549254032.417118,can0 0CF00203 [8] 00 00 00 00 00 00 00 00
1549254032.417609,can0 08FF0303 [8] 00 00 00 00 00 00 00 00
1549254032.419229,can0 18F00503 [8] 00 00 00 00 00 00 00 00
1549254032.419736,can0 08FF0001 [8] 00 00 00 00 00 00 00 00
1549254032.42027,can0 0CF00203 [8] 00 00 00 00 00 00 00 00
1549254032.42069,can0 08FF0303 [8] 00 00 00 00 00 00 00 00
1549254032.425045,can0 08FF0001 [8] 00 00 00 00 00 00 00 00
1549254032.428426,can0 0CF00203 [8] 00 00 00 00 00 00 00 00
1549254032.429276,can0 08FF0303 [8] 00 00 00 00 00 00 00 00
1549254032.433398,can0 08FF0001 [8] 00 00 00 00 00 00 00 00
1549254032.436151,can0 0CF00203 [8] 00 00 00 00 00 00 00 00
1549254032.436619,can0 08FF0303 [8] 00 00 00 00 00 00 00 00
1549254032.443365,can0 08FF0001 [8] 00 00 00 00 00 00 00 00
1549254032.444088,can0 0CF00203 [8] 00 00 00 00 00 00 00 00
1549254032.444581,can0 08FF0303 [8] 00 00 00 00 00 00 00 00
1549254032.45332,can0 08FF0001 [8] 00 00 00 00 00 00 00 00
1549254032.454033,can0 0CF00203 [8] 00 00 00 00 00 00 00 00
1549254032.454523,can0 08FF0303 [8] 00 00 00 00 00 00 00 00
1549254032.463591,can0 08FF0001 [8] 00 00 00 00 00 00 00 00
1549254032.471488,can0 0CF00203 [8] 00 00 00 00 00 00 00 00
1549254032.472399,can0 08FF0303 [8] 00 00 00 00 00 00 00 00
1549254032.473188,can0 08FF0001 [8] 00 00 00 00 00 00 00 00
1549254032.473653,can0 0CF00203 [8] 00 00 00 00 00 00 00 00
1549254032.430371,can1 0CFE6E0B [8] 00 00 00 00 00 00 00 00
1549254032.433706,can1 18F00131 [8] 00 00 00 00 00 00 00 00
1549254032.43446,can1 18F0010B [8] 00 00 00 00 00 00 00 00
1549254032.434963,can1 18FEF117 [8] 00 00 00 00 00 00 00 00
1549254032.4354,can1 18FEF128 [8] 00 00 00 00 00 00 00 00
1549254032.437571,can1 18FEF121 [8] 00 00 00 00 00 00 00 00
1549254032.438041,can1 18FEF131 [8] 00 00 00 00 00 00 00 00
1549254032.438457,can1 18E00017 [8] 00 00 00 00 00 00 00 00
1549254032.438845,can1 18E00019 [8] 00 00 00 00 00 00 00 00
1549254032.439232,can1 18E00021 [8] 00 00 00 00 00 00 00 00
1549254032.43969,can1 18E00028 [8] 00 00 00 00 00 00 00 00
1549254032.440093,can1 0CFE6E0B [8] 00 00 00 00 00 00 00 00
1549254032.440475,can1 18E00031 [8] 00 00 00 00 00 00 00 00
1549254032.440855,can1 18FEBF0B [8] 00 00 7D 7D 7D 7D FF FF
1549254032.441233,can1 18FEF017 [8] 00 00 00 00 00 00 00 00
1549254032.445611,can1 18FEF021 [8] 00 00 00 00 00 00 00 00
1549254032.446098,can1 18FEF028 [8] 00 00 00 00 00 00 00 00
1549254032.446525,can1 18FEF031 [8] 00 00 00 00 00 00 00 00
1549254032.446924,can1 0CFE6E0B [8] 00 00 00 00 00 00 00 00
1549254032.448252,can1 0CFE6E0B [8] 00 00 00 00 00 00 00 00
1549254032.448999,can1 0CFE6E0B [8] 00 00 00 00 00 00 00 00
1549254032.449572,can1 0CFE6E0B [8] 00 00 00 00 00 00 00 00
1549254032.476783,can1 0CFE6E0B [8] 00 00 00 00 00 00 00 00
1549254032.477556,can1 18F00131 [8] 00 00 00 00 00 00 00 00
1549254032.478073,can1 18F0010B [8] 00 00 00 00 00 00 00 00
1549254032.478597,can1 18FEF117 [8] 00 00 00 00 00 00 00 00
1549254032.479046,can1 18FEF128 [8] 00 00 00 00 00 00 00 00
1549254032.479452,can1 18FEF121 [8] 00 00 00 00 00 00 00 00
1549254032.479851,can1 18FEF131 [8] 00 00 00 00 00 00 00 00
1549254032.480234,can1 18E00017 [8] 00 00 00 00 00 00 00 00
1549254032.485565,can1 18E00019 [8] 00 00 00 00 00 00 00 00
1549254032.486072,can1 18E00021 [8] 00 00 00 00 00 00 00 00
1549254032.486612,can1 18E00028 [8] 00 00 00 00 00 00 00 00
1549254032.487032,can1 18E00031 [8] 00 00 00 00 00 00 00 00
1549254032.488628,can1 18FEF017 [8] 00 00 00 00 00 00 00 00
1549254032.489234,can1 18FEF021 [8] 00 00 00 00 00 00 00 00
1549254032.489696,can1 18FEF028 [8] 00 00 00 00 00 00 00 00
1549254032.490194,can1 18FEF031 [8] 00 00 00 00 00 00 00 00
1549254032.490642,can1 0CFE6E0B [8] 00 00 00 00 00 00 00 00
1549254032.491051,can1 0CFE6E0B [8] 00 00 00 00 00 00 00 00
1549254032.495257,can1 0CFE6E0B [8] 00 00 00 00 00 00 00 00
1549254032.497203,can1 18F0010B [8] CF FF F0 FF FF DC FF FF
1549254032.514191,can1 0CFE6E0B [8] 00 00 00 00 00 00 00 00
1549254032.514907,can1 18F00131 [8] 00 00 00 00 00 00 00 00
1549254032.515387,can1 18F0010B [8] 00 00 00 00 00 00 00 00
1549254032.515924,can1 18FEF117 [8] 00 00 00 00 00 00 00 00
1549254032.516352,can1 18FEF128 [8] 00 00 00 00 00 00 00 00
1549254032.516757,can1 18FEF121 [8] 00 00 00 00 00 00 00 00
1549254032.517144,can1 18FEF131 [8] 00 00 00 00 00 00 00 00
1549254032.519202,can1 18E00017 [8] 00 00 00 00 00 00 00 00
1549254032.519774,can1 18E00019 [8] 00 00 00 00 00 00 00 00
1549254032.520225,can1 18E00021 [8] 00 00 00 00 00 00 00 00
1549254032.520626,can1 18E00028 [8] 00 00 00 00 00 00 00 00
1549254032.521018,can1 0CFE6E0B [8] 00 00 00 00 00 00 00 00
1549254032.525318,can1 18E00031 [8] 00 00 00 00 00 00 00 00
1549254032.525891,can1 18FEBF0B [8] 00 00 7D 7D 7D 7D FF FF
1549254032.526354,can1 18FEF017 [8] 00 00 00 00 00 00 00 00
1549254032.526768,can1 18FEF021 [8] 00 00 00 00 00 00 00 00
1549254032.527158,can1 18FEF028 [8] 00 00 00 00 00 00 00 00
1549254032.528753,can1 18FEF031 [8] 00 00 00 00 00 00 00 00
1549254032.52935,can1 0CFE6E0B [8] 00 00 00 00 00 00 00 00
1549254032.52982,can1 0CFE6E0B [8] 00 00 00 00 00 00 00 00
1549254032.545226,can1 0CFE6E0B [8] 00 00 00 00 00 00 00 00
1549254032.548235,can1 0CFE6E0B [8] 00 00 00 00 00 00 00 00
1549254032.555428,can1 18FEF521 [8] 00 00 00 00 00 00 00 00
1549254032.563512,can1 0CFE6E0B [8] 00 00 00 00 00 00 00 00
1549254032.574351,can1 18F00131 [8] 00 00 00 00 00 00 00 00
1549254032.575106,can1 18F0010B [8] 00 00 00 00 00 00 00 00
1549254032.575601,can1 18FEF117 [8] 00 00 00 00 00 00 00 00
1549254032.576024,can1 18FEF128 [8] 00 00 00 00 00 00 00 00
1549254032.593892,can1 18FEF121 [8] 00 00 00 00 00 00 00 00
1549254032.594438,can1 18FEF131 [8] 00 00 00 00 00 00 00 00
1549254032.61384,can1 18E00017 [8] 00 00 00 00 00 00 00 00
1549254032.614458,can1 18E00019 [8] 00 00 00 00 00 00 00 00
1549254032.614907,can1 18E00021 [8] 00 00 00 00 00 00 00 00
1549254032.63712,can1 18E00028 [8] 00 00 00 00 00 00 00 00
1549254032.637761,can1 18E00031 [8] 00 00 00 00 00 00 00 00
1549254032.638226,can1 18FEF017 [8] 00 00 00 00 00 00 00 00
1549254032.646679,can1 18FEF021 [8] 00 00 00 00 00 00 00 00
1549254032.657423,can1 18FEF028 [8] 00 00 00 00 00 00 00 00
1549254032.660183,can1 18FEF031 [8] 00 00 00 00 00 00 00 00
1549254032.66077,can1 0CFE6E0B [8] 00 00 00 00 00 00 00 00
1549254032.66123,can1 0CFE6E0B [8] 00 00 00 00 00 00 00 00
1549254032.679077,can1 0CFE6E0B [8] 00 00 00 00 00 00 00 00
1549254032.693036,can1 18F0010B [8] CF FF F0 FF FF DC FF FF
1549254032.693952,can1 0CFE6E0B [8] 00 00 00 00 00 00 00 00
1549254032.694455,can1 18F00131 [8] 00 00 00 00 00 00 00 00
1549254032.694877,can1 18F0010B [8] 00 00 00 00 00 00 00 00
1549254032.718251,can1 18FEF117 [8] 00 00 00 00 00 00 00 00
1549254032.719011,can1 18FEF128 [8] 00 00 00 00 00 00 00 00
1549254032.719496,can1 18FEF121 [8] 00 00 00 00 00 00 00 00
1549254032.719914,can1 18FEF131 [8] 00 00 00 00 00 00 00 00
1549254032.720311,can1 18E00017 [8] 00 00 00 00 00 00 00 00
1549254032.730645,can1 18E00019 [8] 00 00 00 00 00 00 00 00
1549254032.731223,can1 18E00021 [8] 00 00 00 00 00 00 00 00
1549254032.733814,can1 18E00028 [8] 00 00 00 00 00 00 00 00
1549254032.734427,can1 0CFE6E0B [8] 00 00 00 00 00 00 00 00
1549254032.734897,can1 18E00031 [8] 00 00 00 00 00 00 00 00
1549254032.735312,can1 18FEBF0B [8] 00 00 7D 7D 7D 7D FF FF
1549254032.73572,can1 18FEF017 [8] 00 00 00 00 00 00 00 00
1549254032.736117,can1 18FEF021 [8] 00 00 00 00 00 00 00 00
1549254032.746573,can1 18FEF028 [8] 00 00 00 00 00 00 00 00
1549254032.747075,can1 18FEF031 [8] 00 00 00 00 00 00 00 00
1549254032.748633,can1 0CFE6E0B [8] 00 00 00 00 00 00 00 00
1549254032.749216,can1 0CFE6E0B [8] 00 00 00 00 00 00 00 00
1549254032.74967,can1 0CFE6E0B [8] 00 00 00 00 00 00 00 00
1549254032.750184,can1 0CFE6E0B [8] 00 00 00 00 00 00 00 00
1549254032.750624,can1 0CFE6E0B [8] 00 00 00 00 00 00 00 00
1549254032.751024,can1 18F00131 [8] 00 00 00 00 00 00 00 00
1549254032.763378,can1 18F0010B [8] 00 00 00 00 00 00 00 00
1549254032.764198,can1 18FEF117 [8] 00 00 00 00 00 00 00 00
1549254032.778012,can1 18FEF128 [8] 00 00 00 00 00 00 00 00
1549254032.778547,can1 18FEF121 [8] 00 00 00 00 00 00 00 00
1549254032.778994,can1 18FEF131 [8] 00 00 00 00 00 00 00 00
1549254032.779537,can1 18E00017 [8] 00 00 00 00 00 00 00 00
1549254032.779965,can1 18E00019 [8] 00 00 00 00 00 00 00 00
1549254032.780363,can1 18E00021 [8] 00 00 00 00 00 00 00 00
1549254032.780757,can1 18E00028 [8] 00 00 00 00 00 00 00 00
1549254032.788164,can1 18E00031 [8] 00 00 00 00 00 00 00 00
1549254032.79371,can1 18FEF017 [8] 00 00 00 00 00 00 00 00
1549254032.794333,can1 18FEF021 [8] 00 00 00 00 00 00 00 00
1549254032.794869,can1 18FEF028 [8] 00 00 00 00 00 00 00 00
1549254032.795335,can1 18FEF031 [8] 00 00 00 00 00 00 00 00
1549254032.795769,can1 0CFE6E0B [8] 00 00 00 00 00 00 00 00
1549254032.796172,can1 0CFE6E0B [8] 00 00 00 00 00 00 00 00
1549254032.800871,can1 0CFE6E0B [8] 00 00 00 00 00 00 00 00
1549254032.806873,can1 18F0010B [8] CF FF F0 FF FF DC FF FF
1549254032.80769,can1 0CFE6E0B [8] 00 00 00 00 00 00 00 00
1549254032.808275,can1 18F00131 [8] 00 00 00 00 00 00 00 00
1549254032.81876,can1 18F0010B [8] 00 00 00 00 00 00 00 00
1549254032.819245,can1 18FEF117 [8] 00 00 00 00 00 00 00 00
1549254032.819665,can1 18FEF128 [8] 00 00 00 00 00 00 00 00
1549254032.820068,can1 18FEF121 [8] 00 00 00 00 00 00 00 00
1549254032.820557,can1 18FEF131 [8] 00 00 00 00 00 00 00 00
1549254032.820964,can1 18E00017 [8] 00 00 00 00 00 00 00 00
1549254032.48069,can0 08FF0303 [8] 00 00 00 00 00 00 00 00
1549254032.483528,can0 08FF0001 [8] 00 00 00 00 00 00 00 00
1549254032.484214,can0 0CF00203 [8] 00 00 00 00 00 00 00 00
1549254032.484819,can0 08FF0303 [8] 00 00 00 00 00 00 00 00
1549254032.493349,can0 08FF0001 [8] 00 00 00 00 00 00 00 00
