1548953496.509271,can1 18F0010B [8] CF FF F0 FF FF DC FF FF
1548953496.514284,can1 18FEBF0B [8] 00 00 7D 7D 7D 7D FF FF
1548953496.604312,can1 18F0010B [8] CF FF F0 FF FF DC FF FF
1548953496.614176,can1 18FEBF0B [8] 00 00 7D 7D 7D 7D FF FF
1548953496.704404,can1 18F0010B [8] CF FF F0 FF FF DC FF FF
1548953496.714314,can1 18FEBF0B [8] 00 00 7D 7D 7D 7D FF FF
1548953496.80464,can1 18F0010B [8] CF FF F0 FF FF DC FF FF
1548953496.815847,can1 18FEBF0B [8] 00 00 7D 7D 7D 7D FF FF
1548953496.906005,can1 18F0010B [8] CF FF F0 FF FF DC FF FF
1548953496.915801,can1 18FEBF0B [8] 00 00 7D 7D 7D 7D FF FF
1548953497.006071,can1 18F0010B [8] CF FF F0 FF FF DC FF FF
1548953497.015928,can1 18FEBF0B [8] 00 00 7D 7D 7D 7D FF FF
1548953497.106073,can1 18F0010B [8] CF FF F0 FF FF DC FF FF
1548953497.117166,can1 18FEBF0B [8] 00 00 7D 7D 7D 7D FF FF
1548953497.206467,can1 18F0010B [8] CF FF F0 FF FF DC FF FF
1548953497.21884,can1 18FEBF0B [8] 00 00 7D 7D 7D 7D FF FF
1548953497.283414,can1 18ECFFFA [8] 20 1D 00 05 FF EB FE 00
1548953497.292336,can1 18EBFFFA [8] 01 20 53 59 4E 45 52 2A
1548953497.29931,can1 18EBFFFA [8] 02 53 53 53 32 2D 30 35
1548953497.30107,can1 18EBFFFA [8] 03 2A 30 30 38 31 2A 55
1548953497.306613,can1 18EBFFFA [8] 04 4E 49 56 45 52 53 41
1548953497.308324,can1 18EBFFFA [8] 05 4C FF FF FF FF FF FF
1548953497.309643,can1 18F0010B [8] CF FF F0 FF FF DC FF FF
1548953497.317471,can1 18FEBF0B [8] 00 00 7D 7D 7D 7D FF FF
1548953497.406782,can1 18F0010B [8] CF FF F0 FF FF DC FF FF
1548953497.416609,can1 18FEBF0B [8] 00 00 7D 7D 7D 7D FF FF
1548953497.506582,can1 18F0010B [8] CF FF F0 FF FF DC FF FF
1548953497.516544,can1 18FEBF0B [8] 00 00 7D 7D 7D 7D FF FF
1548953497.606698,can1 18F0010B [8] CF FF F0 FF FF DC FF FF
1548953497.616633,can1 18FEBF0B [8] 00 00 7D 7D 7D 7D FF FF
1548953497.706702,can1 18F0010B [8] CF FF F0 FF FF DC FF FF
1548953497.716841,can1 18FEBF0B [8] 00 00 7D 7D 7D 7D FF FF
1548953497.807079,can1 18F0010B [8] CF FF F0 FF FF DC FF FF
1548953497.817009,can1 18FEBF0B [8] 00 00 7D 7D 7D 7D FF FF
1548953497.907474,can1 18F0010B [8] CF FF F0 FF FF DC FF FF
1548953497.917031,can1 18FEBF0B [8] 00 00 7D 7D 7D 7D FF FF
1548953498.007275,can1 18F0010B [8] CF FF F0 FF FF DC FF FF
1548953498.017314,can1 18FEBF0B [8] 00 00 7D 7D 7D 7D FF FF
1548953498.05329,can1 18ECFFFA [8] 20 1C 00 04 FF EB FE 00
1548953498.056416,can1 18EBFFFA [8] 01 53 59 4E 45 52 2A 53
1548953498.057942,can1 18EBFFFA [8] 02 53 53 32 2D 30 32 2A
1548953498.059228,can1 18EBFFFA [8] 03 58 58 58 58 2A 55 4E
1548953498.069203,can1 18EBFFFA [8] 04 49 56 45 52 53 41 4C
1548953498.107144,can1 18F0010B [8] CF FF F0 FF FF DC FF FF
1548953498.117268,can1 18FEBF0B [8] 00 00 7D 7D 7D 7D FF FF
1548953498.207287,can1 18F0010B [8] CF FF F0 FF FF DC FF FF
1548953498.217289,can1 18FEBF0B [8] 00 00 7D 7D 7D 7D FF FF
1548953498.307601,can1 18F0010B [8] CF FF F0 FF FF DC FF FF
1548953498.317779,can1 18FEBF0B [8] 00 00 7D 7D 7D 7D FF FF
1548953498.408344,can1 18F0010B [8] CF FF F0 FF FF DC FF FF
1548953498.417663,can1 18FEBF0B [8] 00 00 7D 7D 7D 7D FF FF
1548953498.507743,can1 18F0010B [8] CF FF F0 FF FF DC FF FF
1548953498.517663,can1 18FEBF0B [8] 00 00 7D 7D 7D 7D FF FF
1548953498.607769,can1 18F0010B [8] CF FF F0 FF FF DC FF FF
1548953498.617739,can1 18FEBF0B [8] 00 00 7D 7D 7D 7D FF FF
1548953498.707831,can1 18F0010B [8] CF FF F0 FF FF DC FF FF
1548953498.717875,can1 18FEBF0B [8] 00 00 7D 7D 7D 7D FF FF
1548953498.742134,can1 00111111 [8] 00 00 00 00 14 05 00 00
1548953498.744392,can1 00111111 [8] 01 00 00 00 14 05 00 00
1548953498.757481,can1 00111111 [8] 02 00 00 00 14 05 00 00
1548953498.77214,can1 00111111 [8] 03 00 00 00 14 05 00 00
1548953498.774444,can1 00111111 [8] 04 00 00 00 15 05 00 00
1548953498.787541,can1 00111111 [8] 05 00 00 00 15 05 00 00
1548953498.820984,can1 00111111 [8] 06 00 00 00 16 05 00 00
1548953498.830158,can1 00111111 [8] 07 00 00 00 16 05 00 00
1548953498.861844,can1 00111111 [8] 08 00 00 00 17 05 00 00
1548953498.88116,can1 00111111 [8] 09 00 00 00 18 05 00 00
1548953498.901319,can1 00111111 [8] 0A 00 00 00 18 05 00 00
1548953498.908394,can1 00111111 [8] 0B 00 00 00 19 05 00 00
1548953498.931505,can1 00111111 [8] 0C 00 00 00 19 05 00 00
1548953498.958379,can1 00111111 [8] 0D 00 00 00 1A 05 00 00
1548953498.980392,can1 00111111 [8] 0E 00 00 00 1A 05 00 00
1548953499.000127,can1 00111111 [8] 0F 00 00 00 1B 05 00 00
1548953499.017163,can1 00111111 [8] 10 00 00 00 1C 05 00 00
1548953499.043448,can1 00111111 [8] 11 00 00 00 1C 05 00 00
1548953499.050594,can1 00111111 [8] 12 00 00 00 1D 05 00 00
1548953499.07122,can1 00111111 [8] 13 00 00 00 1D 05 00 00
1548953499.09785,can1 00111111 [8] 14 00 00 00 1E 05 00 00
1548953499.100225,can1 00111111 [8] 15 00 00 00 1E 05 00 00
1548953499.127439,can1 00111111 [8] 16 00 00 00 1F 05 00 00
1548953499.149486,can1 00111111 [8] 17 00 00 00 20 05 00 00
1548953499.174307,can1 00111111 [8] 18 00 00 00 20 05 00 00
1548953499.189425,can1 00111111 [8] 19 00 00 00 21 05 00 00
1548953499.210023,can1 00111111 [8] 1A 00 00 00 21 05 00 00
1548953499.215195,can1 00111111 [8] 1B 00 00 00 22 05 00 00
1548953499.243086,can1 00111111 [8] 1C 00 00 00 22 05 00 00
1548953499.243926,can1 00111111 [8] 1D 00 00 00 23 05 00 00
1548953499.244499,can1 00111111 [8] 1E 00 00 00 24 05 00 00
1548953499.245016,can1 00111111 [8] 1F 00 00 00 24 05 00 00
1548953499.269027,can1 00111111 [8] 20 00 00 00 25 05 00 00
1548953499.269798,can1 00111111 [8] 21 00 00 00 25 05 00 00
1548953499.270378,can1 00111111 [8] 22 00 00 00 26 05 00 00
1548953499.286669,can1 00111111 [8] 23 00 00 00 26 05 00 00
1548953499.287499,can1 00111111 [8] 24 00 00 00 27 05 00 00
1548953499.288087,can1 00111111 [8] 25 00 00 00 28 05 00 00
1548953499.30297,can1 00111111 [8] 26 00 00 00 28 05 00 00
1548953499.303811,can1 00111111 [8] 27 00 00 00 29 05 00 00
1548953499.320289,can1 00111111 [8] 28 00 00 00 29 05 00 00
1548953499.320916,can1 00111111 [8] 29 00 00 00 2A 05 00 00
1548953499.327232,can1 00111111 [8] 2A 00 00 00 2A 05 00 00
1548953499.328231,can1 00111111 [8] 2B 00 00 00 2B 05 00 00
1548953499.328833,can1 00111111 [8] 2C 00 00 00 2C 05 00 00
1548953499.341559,can1 00111111 [8] 2D 00 00 00 2C 05 00 00
1548953499.342487,can1 00111111 [8] 2E 00 00 00 2D 05 00 00
1548953499.353808,can1 00111111 [8] 2F 00 00 00 2D 05 00 00
1548953499.358727,can1 00111111 [8] 30 00 00 00 2E 05 00 00
1548953499.359613,can1 00111111 [8] 31 00 00 00 2E 05 00 00
1548953499.360224,can1 00111111 [8] 32 00 00 00 2F 05 00 00
1548953499.360908,can1 00111111 [8] 33 00 00 00 30 05 00 00
1548953499.361378,can1 00111111 [8] 34 00 00 00 30 05 00 00
1548953499.361871,can1 00111111 [8] 35 00 00 00 31 05 00 00
1548953499.362349,can1 00111111 [8] 36 00 00 00 31 05 00 00
1548953499.370526,can1 00111111 [8] 37 00 00 00 32 05 00 00
1548953499.371195,can1 00111111 [8] 38 00 00 00 32 05 00 00
1548953499.371732,can1 00111111 [8] 39 00 00 00 33 05 00 00
1548953499.372296,can1 00111111 [8] 3A 00 00 00 34 05 00 00
1548953499.372822,can1 00111111 [8] 3B 00 00 00 34 05 00 00
1548953499.373312,can1 00111111 [8] 3C 00 00 00 35 05 00 00
1548953499.373739,can1 00111111 [8] 3D 00 00 00 35 05 00 00
1548953499.388018,can1 00111111 [8] 3E 00 00 00 36 05 00 00
1548953499.388842,can1 00111111 [8] 3F 00 00 00 36 05 00 00
1548953499.389432,can1 00111111 [8] 40 00 00 00 37 05 00 00
1548953499.390042,can1 00111111 [8] 41 00 00 00 38 05 00 00
1548953499.390564,can1 00111111 [8] 42 00 00 00 38 05 00 00
1548953499.391059,can1 00111111 [8] 43 00 00 00 39 05 00 00
1548953499.391534,can1 00111111 [8] 44 00 00 00 39 05 00 00
1548953499.40229,can1 00111111 [8] 45 00 00 00 3A 05 00 00
1548953499.403143,can1 00111111 [8] 46 00 00 00 3A 05 00 00
1548953499.403797,can1 00111111 [8] 47 00 00 00 3B 05 00 00
1548953499.404357,can1 00111111 [8] 48 00 00 00 3C 05 00 00
1548953499.404869,can1 00111111 [8] 49 00 00 00 3C 05 00 00
1548953499.405361,can1 00111111 [8] 4A 00 00 00 3D 05 00 00
1548953499.416939,can1 00111111 [8] 4B 00 00 00 3D 05 00 00
1548953499.41782,can1 00111111 [8] 4C 00 00 00 3E 05 00 00
1548953499.418385,can1 00111111 [8] 4D 00 00 00 3E 05 00 00
1548953499.431112,can1 00111111 [8] 4E 00 00 00 3F 05 00 00
1548953499.431964,can1 00111111 [8] 4F 00 00 00 3F 05 00 00
1548953499.43255,can1 00111111 [8] 50 00 00 00 40 05 00 00
1548953499.433182,can1 00111111 [8] 51 00 00 00 41 05 00 00
1548953499.433713,can1 00111111 [8] 52 00 00 00 41 05 00 00
1548953499.434217,can1 00111111 [8] 53 00 00 00 42 05 00 00
1548953499.440616,can1 00111111 [8] 54 00 00 00 42 05 00 00
1548953499.448633,can1 00111111 [8] 55 00 00 00 43 05 00 00
1548953499.449381,can1 00111111 [8] 56 00 00 00 43 05 00 00
1548953499.449953,can1 00111111 [8] 57 00 00 00 44 05 00 00
1548953499.458708,can1 00111111 [8] 58 00 00 00 45 05 00 00
1548953499.460329,can1 00111111 [8] 59 00 00 00 45 05 00 00
1548953499.460978,can1 00111111 [8] 5A 00 00 00 46 05 00 00
1548953499.46153,can1 00111111 [8] 5B 00 00 00 46 05 00 00
1548953499.464983,can1 00111111 [8] 5C 00 00 00 47 05 00 00
1548953499.47588,can1 00111111 [8] 5D 00 00 00 47 05 00 00
1548953499.476724,can1 00111111 [8] 5E 00 00 00 48 05 00 00
1548953499.477321,can1 00111111 [8] 5F 00 00 00 49 05 00 00
1548953499.478,can1 00111111 [8] 60 00 00 00 49 05 00 00
1548953499.478549,can1 00111111 [8] 61 00 00 00 4A 05 00 00
1548953499.479059,can1 00111111 [8] 62 00 00 00 4A 05 00 00
1548953499.479551,can1 00111111 [8] 63 00 00 00 4B 05 00 00
1548953499.492095,can1 00111111 [8] 64 00 00 00 4B 05 00 00
1548953499.492955,can1 00111111 [8] 65 00 00 00 4C 05 00 00
1548953499.493628,can1 00111111 [8] 66 00 00 00 4D 05 00 00
1548953499.49418,can1 00111111 [8] 67 00 00 00 4D 05 00 00
1548953499.494693,can1 00111111 [8] 68 00 00 00 4E 05 00 00
1548953499.495126,can1 00111111 [8] 69 00 00 00 4E 05 00 00
1548953499.508251,can1 00111111 [8] 6A 00 00 00 4F 05 00 00
1548953499.509197,can1 00111111 [8] 6B 00 00 00 4F 05 00 00
1548953499.509873,can1 00111111 [8] 6C 00 00 00 50 05 00 00
1548953499.510339,can1 00111111 [8] 6D 00 00 00 50 05 00 00
1548953499.510838,can1 00111111 [8] 6E 00 00 00 51 05 00 00
1548953499.520802,can1 00111111 [8] 6F 00 00 00 52 05 00 00
1548953499.521457,can1 00111111 [8] 70 00 00 00 52 05 00 00
1548953499.522002,can1 00111111 [8] 71 00 00 00 53 05 00 00
1548953499.522508,can1 00111111 [8] 72 00 00 00 53 05 00 00
1548953499.533747,can1 00111111 [8] 73 00 00 00 54 05 00 00
1548953499.534689,can1 00111111 [8] 74 00 00 00 54 05 00 00
1548953499.535286,can1 00111111 [8] 75 00 00 00 55 05 00 00
1548953499.535803,can1 00111111 [8] 76 00 00 00 56 05 00 00
1548953499.539587,can1 00111111 [8] 77 00 00 00 56 05 00 00
1548953499.546533,can1 00111111 [8] 78 00 00 00 57 05 00 00
1548953499.547234,can1 00111111 [8] 79 00 00 00 57 05 00 00
1548953499.547786,can1 00111111 [8] 7A 00 00 00 58 05 00 00
1548953499.557856,can1 00111111 [8] 7B 00 00 00 58 05 00 00
1548953499.558704,can1 00111111 [8] 7C 00 00 00 59 05 00 00
1548953499.559374,can1 00111111 [8] 7D 00 00 00 5A 05 00 00
1548953499.565336,can1 00111111 [8] 7E 00 00 00 5A 05 00 00
1548953499.566242,can1 00111111 [8] 7F 00 00 00 5B 05 00 00
1548953499.56683,can1 00111111 [8] 80 00 00 00 5B 05 00 00
1548953499.567349,can1 00111111 [8] 81 00 00 00 5C 05 00 00
1548953499.576995,can1 00111111 [8] 82 00 00 00 5C 05 00 00
1548953499.577931,can1 00111111 [8] 83 00 00 00 5D 05 00 00
1548953499.57853,can1 00111111 [8] 84 00 00 00 5E 05 00 00
1548953499.57905,can1 00111111 [8] 85 00 00 00 5E 05 00 00
1548953499.58838,can1 00111111 [8] 86 00 00 00 5F 05 00 00
1548953499.589282,can1 00111111 [8] 87 00 00 00 5F 05 00 00
1548953499.589867,can1 00111111 [8] 88 00 00 00 60 05 00 00
1548953499.590409,can1 00111111 [8] 89 00 00 00 60 05 00 00
1548953499.59091,can1 00111111 [8] 8A 00 00 00 61 05 00 00
1548953499.599948,can1 00111111 [8] 8B 00 00 00 62 05 00 00
1548953499.600622,can1 00111111 [8] 8C 00 00 00 62 05 00 00
1548953499.601271,can1 00111111 [8] 8D 00 00 00 63 05 00 00
1548953499.601804,can1 00111111 [8] 8E 00 00 00 63 05 00 00
1548953499.602297,can1 00111111 [8] 8F 00 00 00 64 05 00 00
1548953499.60761,can1 00111111 [8] 90 00 00 00 64 05 00 00
1548953499.618135,can1 00111111 [8] 91 00 00 00 65 05 00 00
1548953499.619008,can1 00111111 [8] 92 00 00 00 65 05 00 00
1548953499.61961,can1 00111111 [8] 93 00 00 00 66 05 00 00
1548953499.620156,can1 00111111 [8] 94 00 00 00 67 05 00 00
1548953499.62081,can1 00111111 [8] 95 00 00 00 67 05 00 00
1548953499.621258,can1 00111111 [8] 96 00 00 00 68 05 00 00
1548953499.621761,can1 00111111 [8] 97 00 00 00 68 05 00 00
1548953499.626946,can1 00111111 [8] 98 00 00 00 69 05 00 00
1548953499.634754,can1 00111111 [8] 99 00 00 00 69 05 00 00
1548953499.642416,can1 00111111 [8] 9A 00 00 00 6A 05 00 00
1548953499.64308,can1 00111111 [8] 9B 00 00 00 6B 05 00 00
1548953499.643635,can1 00111111 [8] 9C 00 00 00 6B 05 00 00
1548953499.644266,can1 00111111 [8] 9D 00 00 00 6C 05 00 00
1548953499.644787,can1 00111111 [8] 9E 00 00 00 6C 05 00 00
1548953499.64528,can1 00111111 [8] 9F 00 00 00 6D 05 00 00
1548953499.651734,can1 00111111 [8] A0 00 00 00 6D 05 00 00
1548953499.659524,can1 00111111 [8] A1 00 00 00 6E 05 00 00
1548953499.660368,can1 00111111 [8] A2 00 00 00 6F 05 00 00
1548953499.660939,can1 00111111 [8] A3 00 00 00 6F 05 00 00
1548953499.670219,can1 00111111 [8] A4 00 00 00 70 05 00 00
1548953499.672428,can1 00111111 [8] A5 00 00 00 70 05 00 00
1548953499.673116,can1 00111111 [8] A6 00 00 00 71 05 00 00
1548953499.673682,can1 00111111 [8] A7 00 00 00 71 05 00 00
1548953499.674197,can1 00111111 [8] A8 00 00 00 72 05 00 00
1548953499.674692,can1 00111111 [8] A9 00 00 00 73 05 00 00
1548953499.682152,can1 00111111 [8] AA 00 00 00 73 05 00 00
1548953499.687566,can1 00111111 [8] AB 00 00 00 74 05 00 00
1548953499.6882,can1 00111111 [8] AC 00 00 00 74 05 00 00
1548953499.688827,can1 00111111 [8] AD 00 00 00 75 05 00 00
1548953499.689364,can1 00111111 [8] AE 00 00 00 75 05 00 00
1548953499.689867,can1 00111111 [8] AF 00 00 00 76 05 00 00
1548953499.690346,can1 00111111 [8] B0 00 00 00 76 05 00 00
1548953499.697436,can1 00111111 [8] B1 00 00 00 77 05 00 00
1548953499.705835,can1 00111111 [8] B2 00 00 00 78 05 00 00
1548953499.70662,can1 00111111 [8] B3 00 00 00 78 05 00 00
1548953499.707193,can1 00111111 [8] B4 00 00 00 79 05 00 00
1548953499.707707,can1 00111111 [8] B5 00 00 00 79 05 00 00
1548953499.714149,can1 00111111 [8] B6 00 00 00 7A 05 00 00
1548953499.717954,can1 00111111 [8] B7 00 00 00 7A 05 00 00
1548953499.718629,can1 00111111 [8] B8 00 00 00 7B 05 00 00
1548953499.71918,can1 00111111 [8] B9 00 00 00 7C 05 00 00
1548953499.719696,can1 00111111 [8] BA 00 00 00 7C 05 00 00
1548953499.729336,can1 00111111 [8] BB 00 00 00 7D 05 00 00
1548953499.730201,can1 00111111 [8] BC 00 00 00 7D 05 00 00
1548953499.730771,can1 00111111 [8] BD 00 00 00 7E 05 00 00
1548953499.731279,can1 00111111 [8] BE 00 00 00 7E 05 00 00
1548953499.740408,can1 00111111 [8] BF 00 00 00 7F 05 00 00
1548953499.74128,can1 00111111 [8] C0 00 00 00 80 05 00 00
1548953499.741971,can1 00111111 [8] C1 00 00 00 80 05 00 00
1548953499.742518,can1 00111111 [8] C2 00 00 00 81 05 00 00
1548953499.743019,can1 00111111 [8] C3 00 00 00 81 05 00 00
1548953499.749677,can1 00111111 [8] C4 00 00 00 82 05 00 00
1548953499.755125,can1 00111111 [8] C5 00 00 00 82 05 00 00
1548953499.755817,can1 00111111 [8] C6 00 00 00 83 05 00 00
1548953499.756375,can1 00111111 [8] C7 00 00 00 84 05 00 00
1548953499.761594,can1 00111111 [8] C8 00 00 00 84 05 00 00
1548953499.767398,can1 00111111 [8] C9 00 00 00 85 05 00 00
1548953499.768082,can1 00111111 [8] CA 00 00 00 85 05 00 00
1548953499.76863,can1 00111111 [8] CB 00 00 00 86 05 00 00
1548953499.769242,can1 00111111 [8] CC 00 00 00 86 05 00 00
1548953499.769753,can1 00111111 [8] CD 00 00 00 87 05 00 00
1548953499.770249,can1 00111111 [8] CE 00 00 00 88 05 00 00
1548953499.774525,can1 00111111 [8] CF 00 00 00 88 05 00 00
1548953499.78548,can1 00111111 [8] D0 00 00 00 89 05 00 00
1548953499.786439,can1 00111111 [8] D1 00 00 00 89 05 00 00
1548953499.78706,can1 00111111 [8] D2 00 00 00 8A 05 00 00
1548953499.787599,can1 00111111 [8] D3 00 00 00 8A 05 00 00
1548953499.788103,can1 00111111 [8] D4 00 00 00 8B 05 00 00
1548953499.796122,can1 00111111 [8] D5 00 00 00 8B 05 00 00
1548953499.796849,can1 00111111 [8] D6 00 00 00 8C 05 00 00
1548953499.79742,can1 00111111 [8] D7 00 00 00 8D 05 00 00
1548953499.797941,can1 00111111 [8] D8 00 00 00 8D 05 00 00
1548953499.8328,can1 00111111 [8] D9 00 00 00 8E 05 00 00
1548953499.835016,can1 00111111 [8] DA 00 00 00 8E 05 00 00
1548953499.835791,can1 00111111 [8] DB 00 00 00 8F 05 00 00
1548953499.83634,can1 00111111 [8] DC 00 00 00 8F 05 00 00
1548953499.836793,can1 00111111 [8] DD 00 00 00 90 05 00 00
1548953499.857032,can1 00111111 [8] DE 00 00 00 91 05 00 00
1548953499.857832,can1 00111111 [8] DF 00 00 00 91 05 00 00
1548953499.858423,can1 00111111 [8] E0 00 00 00 92 05 00 00
1548953499.878747,can1 00111111 [8] E1 00 00 00 92 05 00 00
1548953499.879585,can1 00111111 [8] E2 00 00 00 93 05 00 00
1548953499.891687,can1 00111111 [8] E3 00 00 00 93 05 00 00
1548953499.896714,can1 00111111 [8] E4 00 00 00 94 05 00 00
1548953499.89735,can1 00111111 [8] E5 00 00 00 95 05 00 00
1548953499.915784,can1 00111111 [8] E6 00 00 00 95 05 00 00
1548953499.916647,can1 00111111 [8] E7 00 00 00 96 05 00 00
1548953499.932721,can1 00111111 [8] E8 00 00 00 96 05 00 00
1548953499.936531,can1 00111111 [8] E9 00 00 00 97 05 00 00
1548953499.937339,can1 00111111 [8] EA 00 00 00 97 05 00 00
1548953499.937827,can1 00111111 [8] EB 00 00 00 98 05 00 00
1548953499.938333,can1 00111111 [8] EC 00 00 00 98 05 00 00
1548953499.961798,can1 00111111 [8] ED 00 00 00 99 05 00 00
1548953499.964566,can1 00111111 [8] EE 00 00 00 9A 05 00 00
1548953499.965213,can1 00111111 [8] EF 00 00 00 9A 05 00 00
1548953499.965745,can1 00111111 [8] F0 00 00 00 9B 05 00 00
1548953499.989222,can1 00111111 [8] F1 00 00 00 9B 05 00 00
1548953499.991851,can1 00111111 [8] F2 00 00 00 9C 05 00 00
1548953499.992476,can1 00111111 [8] F3 00 00 00 9C 05 00 00
1548953499.993012,can1 00111111 [8] F4 00 00 00 9D 05 00 00
1548953500.00744,can1 00111111 [8] F5 00 00 00 9E 05 00 00
1548953500.008209,can1 00111111 [8] F6 00 00 00 9E 05 00 00
1548953500.008786,can1 00111111 [8] F7 00 00 00 9F 05 00 00
1548953500.035916,can1 00111111 [8] F8 00 00 00 9F 05 00 00
1548953500.044526,can1 00111111 [8] F9 00 00 00 A0 05 00 00
1548953500.045251,can1 00111111 [8] FA 00 00 00 A0 05 00 00
1548953500.045806,can1 00111111 [8] FB 00 00 00 A1 05 00 00
1548953500.056333,can1 00111111 [8] FC 00 00 00 A1 05 00 00
1548953500.057092,can1 00111111 [8] FD 00 00 00 A2 05 00 00
1548953500.05766,can1 00111111 [8] FE 00 00 00 A3 05 00 00
1548953500.058275,can1 00111111 [8] FF 00 00 00 A3 05 00 00
1548953500.058786,can1 00111111 [8] 00 01 00 00 A4 05 00 00
1548953500.059277,can1 00111111 [8] 01 01 00 00 A4 05 00 00
1548953500.064606,can1 00111111 [8] 02 01 00 00 A5 05 00 00
1548953500.073475,can1 00111111 [8] 03 01 00 00 A5 05 00 00
1548953500.074359,can1 00111111 [8] 04 01 00 00 A6 05 00 00
1548953500.074944,can1 00111111 [8] 05 01 00 00 A7 05 00 00
1548953500.075533,can1 00111111 [8] 06 01 00 00 A7 05 00 00
1548953500.076073,can1 00111111 [8] 07 01 00 00 A8 05 00 00
1548953500.076573,can1 00111111 [8] 08 01 00 00 A8 05 00 00
1548953500.076996,can1 00111111 [8] 09 01 00 00 A9 05 00 00
1548953500.085884,can1 00111111 [8] 0A 01 00 00 A9 05 00 00
1548953500.093325,can1 00111111 [8] 0B 01 00 00 AA 05 00 00
1548953500.094047,can1 00111111 [8] 0C 01 00 00 AB 05 00 00
1548953500.094609,can1 00111111 [8] 0D 01 00 00 AB 05 00 00
1548953500.095204,can1 00111111 [8] 0E 01 00 00 AC 05 00 00
1548953500.095721,can1 00111111 [8] 0F 01 00 00 AC 05 00 00
1548953500.096213,can1 00111111 [8] 10 01 00 00 AD 05 00 00
1548953500.096689,can1 00111111 [8] 11 01 00 00 AD 05 00 00
1548953500.11268,can1 00111111 [8] 12 01 00 00 AE 05 00 00
1548953500.11372,can1 00111111 [8] 13 01 00 00 AF 05 00 00
1548953500.114325,can1 00111111 [8] 14 01 00 00 AF 05 00 00
1548953500.114956,can1 00111111 [8] 15 01 00 00 B0 05 00 00
1548953500.115479,can1 00111111 [8] 16 01 00 00 B0 05 00 00
1548953500.115967,can1 00111111 [8] 17 01 00 00 B1 05 00 00
1548953500.121627,can1 00111111 [8] 18 01 00 00 B1 05 00 00
1548953500.128634,can1 00111111 [8] 19 01 00 00 B2 05 00 00
1548953500.129322,can1 00111111 [8] 1A 01 00 00 B2 05 00 00
1548953500.129864,can1 00111111 [8] 1B 01 00 00 B3 05 00 00
1548953500.130475,can1 00111111 [8] 1C 01 00 00 B4 05 00 00
1548953500.130987,can1 00111111 [8] 1D 01 00 00 B4 05 00 00
1548953500.131476,can1 00111111 [8] 1E 01 00 00 B5 05 00 00
1548953500.131946,can1 00111111 [8] 1F 01 00 00 B5 05 00 00
1548953500.14628,can1 00111111 [8] 20 01 00 00 B6 05 00 00
1548953500.147111,can1 00111111 [8] 21 01 00 00 B6 05 00 00
1548953500.147748,can1 00111111 [8] 22 01 00 00 B7 05 00 00
1548953500.148296,can1 00111111 [8] 23 01 00 00 B8 05 00 00
1548953500.148816,can1 00111111 [8] 24 01 00 00 B8 05 00 00
1548953500.149307,can1 00111111 [8] 25 01 00 00 B9 05 00 00
1548953500.156243,can1 00111111 [8] 26 01 00 00 B9 05 00 00
1548953500.165383,can1 00111111 [8] 27 01 00 00 BA 05 00 00
1548953500.166117,can1 00111111 [8] 28 01 00 00 BA 05 00 00
1548953500.166671,can1 00111111 [8] 29 01 00 00 BB 05 00 00
1548953500.16724,can1 00111111 [8] 2A 01 00 00 BC 05 00 00
1548953500.167759,can1 00111111 [8] 2B 01 00 00 BC 05 00 00
1548953500.168254,can1 00111111 [8] 2C 01 00 00 BD 05 00 00
1548953500.168745,can1 00111111 [8] 2D 01 00 00 BD 05 00 00
1548953500.175807,can1 00111111 [8] 2E 01 00 00 BE 05 00 00
1548953500.18423,can1 00111111 [8] 2F 01 00 00 BE 05 00 00
1548953500.185133,can1 00111111 [8] 30 01 00 00 BF 05 00 00
1548953500.185804,can1 00111111 [8] 31 01 00 00 C0 05 00 00
1548953500.186336,can1 00111111 [8] 32 01 00 00 C0 05 00 00
1548953500.195391,can1 00111111 [8] 33 01 00 00 C1 05 00 00
1548953500.196268,can1 00111111 [8] 34 01 00 00 C1 05 00 00
1548953500.196962,can1 00111111 [8] 35 01 00 00 C2 05 00 00
1548953500.197493,can1 00111111 [8] 36 01 00 00 C2 05 00 00
1548953500.197996,can1 00111111 [8] 37 01 00 00 C3 05 00 00
1548953500.202932,can1 00111111 [8] 38 01 00 00 C3 05 00 00
1548953500.209772,can1 00111111 [8] 39 01 00 00 C4 05 00 00
1548953500.210532,can1 00111111 [8] 3A 01 00 00 C5 05 00 00
1548953500.211094,can1 00111111 [8] 3B 01 00 00 C5 05 00 00
1548953500.211595,can1 00111111 [8] 3C 01 00 00 C6 05 00 00
1548953500.217491,can1 00111111 [8] 3D 01 00 00 C6 05 00 00
1548953500.222238,can1 00111111 [8] 3E 01 00 00 C7 05 00 00
1548953500.222915,can1 00111111 [8] 3F 01 00 00 C7 05 00 00
1548953500.223466,can1 00111111 [8] 40 01 00 00 C8 05 00 00
1548953500.23313,can1 00111111 [8] 41 01 00 00 C9 05 00 00
1548953500.23415,can1 00111111 [8] 42 01 00 00 C9 05 00 00
1548953500.234755,can1 00111111 [8] 43 01 00 00 CA 05 00 00
1548953500.235284,can1 00111111 [8] 44 01 00 00 CA 05 00 00
1548953500.244615,can1 00111111 [8] 45 01 00 00 CB 05 00 00
1548953500.2455,can1 00111111 [8] 46 01 00 00 CB 05 00 00
1548953500.246177,can1 00111111 [8] 47 01 00 00 CC 05 00 00
1548953500.246705,can1 00111111 [8] 48 01 00 00 CD 05 00 00
1548953500.247152,can1 00111111 [8] 49 01 00 00 CD 05 00 00
1548953500.259089,can1 00111111 [8] 4A 01 00 00 CE 05 00 00
1548953500.259839,can1 00111111 [8] 4B 01 00 00 CE 05 00 00
1548953500.260414,can1 00111111 [8] 5D 01 00 00 D8 05 00 00
1548953500.260993,can1 00111111 [8] 8C 01 00 00 F3 05 00 00
1548953500.261532,can1 00111111 [8] 91 01 00 00 F6 05 00 00
1548953500.262023,can1 00111111 [8] D7 01 00 00 1D 06 00 00
1548953500.262504,can1 00111111 [8] F5 01 00 00 2E 06 00 00
1548953500.273626,can1 00111111 [8] F9 01 00 00 30 06 00 00
1548953500.274692,can1 00111111 [8] 30 02 00 00 4F 06 00 00
1548953500.275375,can1 00111111 [8] 54 02 00 00 64 06 00 00
1548953500.275859,can1 00111111 [8] 59 02 00 00 67 06 00 00
1548953500.276376,can1 00111111 [8] 88 02 00 00 81 06 00 00
1548953500.285635,can1 00111111 [8] B9 02 00 00 9D 06 00 00
1548953500.286345,can1 00111111 [8] E0 02 00 00 B3 06 00 00
1548953500.286918,can1 00111111 [8] EB 02 00 00 B9 06 00 00
1548953500.287443,can1 00111111 [8] 26 03 00 00 DA 06 00 00
1548953500.287939,can1 00111111 [8] 4B 03 00 00 EF 06 00 00
1548953500.316601,can1 00111111 [8] 54 03 00 00 F4 06 00 00
1548953500.31976,can1 00111111 [8] 86 03 00 00 10 07 00 00
1548953500.320481,can1 00111111 [8] 88 03 00 00 12 07 00 00
1548953500.321043,can1 00111111 [8] 89 03 00 00 12 07 00 00
1548953500.341929,can1 00111111 [8] 8A 03 00 00 13 07 00 00
1548953500.353962,can1 00111111 [8] B4 03 00 00 2A 07 00 00
1548953500.354777,can1 00111111 [8] B6 03 00 00 2B 07 00 00
1548953500.355391,can1 00111111 [8] B7 03 00 00 2C 07 00 00
1548953500.355917,can1 00111111 [8] D4 03 00 00 3C 07 00 00
1548953500.356418,can1 00111111 [8] D5 03 00 00 3D 07 00 00
1548953500.388625,can1 00111111 [8] D6 03 00 00 3D 07 00 00
1548953500.389539,can1 00111111 [8] F1 03 00 00 4D 07 00 00
1548953500.390332,can1 00111111 [8] F2 03 00 00 4D 07 00 00
1548953500.390894,can1 00111111 [8] 0F 04 00 00 5D 07 00 00
1548953500.391396,can1 00111111 [8] 10 04 00 00 5E 07 00 00
1548953500.40846,can1 00111111 [8] 11 04 00 00 5F 07 00 00
1548953500.409548,can1 00111111 [8] 1D 04 00 00 65 07 00 00
1548953500.410191,can1 00111111 [8] 1E 04 00 00 66 07 00 00
1548953500.410749,can1 00111111 [8] 1F 04 00 00 67 07 00 00
1548953500.425799,can1 00111111 [8] 37 04 00 00 74 07 00 00
1548953500.434186,can1 00111111 [8] 4A 04 00 00 7F 07 00 00
1548953500.434984,can1 00111111 [8] 4C 04 00 00 80 07 00 00
1548953500.435567,can1 00111111 [8] 55 04 00 00 85 07 00 00
1548953500.436075,can1 00111111 [8] 56 04 00 00 86 07 00 00
1548953500.436502,can1 00111111 [8] 57 04 00 00 86 07 00 00
1548953500.469165,can1 00111111 [8] 58 04 00 00 87 07 00 00
1548953500.476685,can1 00111111 [8] 59 04 00 00 87 07 00 00
1548953500.477616,can1 00111111 [8] 5A 04 00 00 88 07 00 00
1548953500.478337,can1 00111111 [8] 68 04 00 00 90 07 00 00
1548953500.47888,can1 00111111 [8] 6A 04 00 00 91 07 00 00
1548953500.479378,can1 00111111 [8] 6B 04 00 00 91 07 00 00
1548953500.499126,can1 00111111 [8] 6C 04 00 00 92 07 00 00
1548953500.500105,can1 00111111 [8] 6D 04 00 00 93 07 00 00
1548953500.500702,can1 00111111 [8] 6E 04 00 00 93 07 00 00
1548953500.516246,can1 00111111 [8] 6F 04 00 00 94 07 00 00
1548953500.522059,can1 00111111 [8] 70 04 00 00 94 07 00 00
1548953500.522807,can1 00111111 [8] 89 04 00 00 A2 07 00 00
1548953500.523404,can1 00111111 [8] 8A 04 00 00 A3 07 00 00
1548953500.523925,can1 00111111 [8] 8B 04 00 00 A3 07 00 00
1548953500.524416,can1 00111111 [8] 8C 04 00 00 A4 07 00 00
1548953500.556119,can1 00111111 [8] 8D 04 00 00 A5 07 00 00
1548953500.557013,can1 00111111 [8] 8E 04 00 00 A5 07 00 00
1548953500.557593,can1 00111111 [8] A1 04 00 00 B0 07 00 00
1548953500.567287,can1 00111111 [8] A2 04 00 00 B0 07 00 00
1548953500.568076,can1 00111111 [8] A4 04 00 00 B2 07 00 00
1548953500.568642,can1 00111111 [8] A5 04 00 00 B2 07 00 00
1548953500.569163,can1 00111111 [8] A6 04 00 00 B3 07 00 00
1548953500.577663,can1 00111111 [8] A7 04 00 00 B3 07 00 00
1548953500.578502,can1 00111111 [8] BB 04 00 00 BE 07 00 00
1548953500.579069,can1 00111111 [8] BC 04 00 00 BF 07 00 00
1548953500.579678,can1 00111111 [8] BD 04 00 00 C0 07 00 00
1548953500.580195,can1 00111111 [8] D4 04 00 00 CD 07 00 00
1548953500.580685,can1 00111111 [8] D6 04 00 00 CE 07 00 00
1548953500.581166,can1 00111111 [8] D7 04 00 00 CE 07 00 00
1548953500.592716,can1 00111111 [8] D8 04 00 00 CF 07 00 00
1548953500.593591,can1 00111111 [8] D9 04 00 00 CF 07 00 00
1548953500.594162,can1 00111111 [8] DA 04 00 00 D0 07 00 00
1548953500.594677,can1 00111111 [8] DB 04 00 00 D0 07 00 00
1548953500.604856,can1 00111111 [8] F3 04 00 00 DE 07 00 00
1548953500.605692,can1 00111111 [8] F5 04 00 00 DF 07 00 00
1548953500.606297,can1 00111111 [8] F6 04 00 00 E0 07 00 00
1548953500.61375,can1 00111111 [8] FE 04 00 00 E4 07 00 00
1548953500.61472,can1 00111111 [8] 08 05 00 00 EA 07 00 00
1548953500.615335,can1 00111111 [8] 09 05 00 00 EA 07 00 00
1548953500.615864,can1 00111111 [8] 0A 05 00 00 EB 07 00 00
1548953500.619648,can1 00111111 [8] 0B 05 00 00 EC 07 00 00
1548953500.629575,can1 00111111 [8] 19 05 00 00 F3 07 00 00
1548953500.630492,can1 00111111 [8] 25 05 00 00 FA 07 00 00
1548953500.631093,can1 00111111 [8] 26 05 00 00 FB 07 00 00
1548953500.631612,can1 00111111 [8] 27 05 00 00 FB 07 00 00
1548953500.63648,can1 00111111 [8] 28 05 00 00 FC 07 00 00
1548953500.643502,can1 00111111 [8] 29 05 00 00 FD 07 00 00
1548953500.64428,can1 00111111 [8] 2A 05 00 00 FD 07 00 00
1548953500.644852,can1 00111111 [8] 39 05 00 00 06 08 00 00
1548953500.645383,can1 00111111 [8] 41 05 00 00 0A 08 00 00
1548953500.654991,can1 00111111 [8] 42 05 00 00 0B 08 00 00
1548953500.658629,can1 00111111 [8] 43 05 00 00 0B 08 00 00
1548953500.659277,can1 00111111 [8] 44 05 00 00 0C 08 00 00
1548953500.65994,can1 00111111 [8] 45 05 00 00 0C 08 00 00
1548953500.66047,can1 00111111 [8] 54 05 00 00 15 08 00 00
1548953500.660971,can1 00111111 [8] 5E 05 00 00 1B 08 00 00
1548953500.666818,can1 00111111 [8] 5F 05 00 00 1B 08 00 00
1548953500.674832,can1 00111111 [8] 60 05 00 00 1C 08 00 00
1548953500.675611,can1 00111111 [8] 61 05 00 00 1C 08 00 00
1548953500.676184,can1 00111111 [8] 72 05 00 00 26 08 00 00
1548953500.676687,can1 00111111 [8] 74 05 00 00 27 08 00 00
1548953500.687353,can1 00111111 [8] 75 05 00 00 28 08 00 00
1548953500.688201,can1 00111111 [8] 76 05 00 00 28 08 00 00
1548953500.688857,can1 00111111 [8] 87 05 00 00 32 08 00 00
1548953500.689417,can1 00111111 [8] 8B 05 00 00 34 08 00 00
1548953500.68993,can1 00111111 [8] 8C 05 00 00 34 08 00 00
1548953500.690422,can1 00111111 [8] 8D 05 00 00 35 08 00 00
1548953500.699261,can1 00111111 [8] 8E 05 00 00 36 08 00 00
1548953500.706107,can1 00111111 [8] A0 05 00 00 40 08 00 00
1548953500.706897,can1 00111111 [8] A2 05 00 00 41 08 00 00
1548953500.707478,can1 00111111 [8] A3 05 00 00 41 08 00 00
1548953500.708012,can1 00111111 [8] B0 05 00 00 49 08 00 00
1548953500.719404,can1 00111111 [8] B6 05 00 00 4C 08 00 00
1548953500.720302,can1 00111111 [8] B7 05 00 00 4D 08 00 00
1548953500.720899,can1 00111111 [8] C2 05 00 00 53 08 00 00
1548953500.721418,can1 00111111 [8] C3 05 00 00 53 08 00 00
1548953500.721971,can1 00111111 [8] C5 05 00 00 55 08 00 00
1548953500.722492,can1 00111111 [8] C6 05 00 00 55 08 00 00
1548953500.722985,can1 00111111 [8] D0 05 00 00 5B 08 00 00
1548953500.723481,can1 00111111 [8] D8 05 00 00 5F 08 00 00
1548953500.73114,can1 00111111 [8] D9 05 00 00 60 08 00 00
1548953500.739685,can1 00111111 [8] DA 05 00 00 60 08 00 00
1548953500.740403,can1 00111111 [8] EB 05 00 00 6A 08 00 00
1548953500.745374,can1 00111111 [8] EC 05 00 00 6A 08 00 00
1548953500.746057,can1 00111111 [8] EE 05 00 00 6C 08 00 00
1548953500.746618,can1 00111111 [8] EF 05 00 00 6C 08 00 00
1548953500.747131,can1 00111111 [8] F0 05 00 00 6D 08 00 00
1548953500.754476,can1 00111111 [8] FF 05 00 00 75 08 00 00
1548953500.755192,can1 00111111 [8] 01 06 00 00 76 08 00 00
1548953500.755763,can1 00111111 [8] 02 06 00 00 77 08 00 00
1548953500.756276,can1 00111111 [8] 03 06 00 00 77 08 00 00
1548953500.756769,can1 00111111 [8] 04 06 00 00 78 08 00 00
1548953500.764233,can1 00111111 [8] 05 06 00 00 78 08 00 00
1548953500.770268,can1 00111111 [8] 15 06 00 00 82 08 00 00
1548953500.771013,can1 00111111 [8] 21 06 00 00 88 08 00 00
1548953500.771578,can1 00111111 [8] 22 06 00 00 89 08 00 00
1548953500.772091,can1 00111111 [8] 23 06 00 00 8A 08 00 00
1548953500.772573,can1 00111111 [8] 24 06 00 00 8A 08 00 00
1548953500.784081,can1 00111111 [8] 25 06 00 00 8B 08 00 00
1548953500.784948,can1 00111111 [8] 26 06 00 00 8B 08 00 00
1548953500.785535,can1 00111111 [8] 27 06 00 00 8C 08 00 00
1548953500.786054,can1 00111111 [8] 39 06 00 00 96 08 00 00
1548953500.811523,can1 00111111 [8] 4A 06 00 00 A0 08 00 00
1548953500.818084,can1 00111111 [8] 4C 06 00 00 A1 08 00 00
1548953500.818753,can1 00111111 [8] 4D 06 00 00 A1 08 00 00
1548953500.819293,can1 00111111 [8] 4E 06 00 00 A2 08 00 00
1548953500.840593,can1 00111111 [8] 4F 06 00 00 A2 08 00 00
1548953500.843708,can1 00111111 [8] 50 06 00 00 A3 08 00 00
1548953500.844356,can1 00111111 [8] 51 06 00 00 A3 08 00 00
1548953500.856065,can1 00111111 [8] 69 06 00 00 B1 08 00 00
1548953500.870824,can1 00111111 [8] 6A 06 00 00 B2 08 00 00
1548953500.87206,can1 00111111 [8] 6B 06 00 00 B2 08 00 00
1548953500.89064,can1 00111111 [8] 78 06 00 00 B9 08 00 00
1548953500.891494,can1 00111111 [8] 80 06 00 00 BE 08 00 00
1548953500.905207,can1 00111111 [8] 81 06 00 00 BE 08 00 00
1548953500.90618,can1 00111111 [8] 82 06 00 00 BF 08 00 00
1548953500.906785,can1 00111111 [8] 83 06 00 00 C0 08 00 00
1548953500.907322,can1 00111111 [8] 84 06 00 00 C0 08 00 00
1548953500.930246,can1 00111111 [8] 8E 06 00 00 C6 08 00 00
1548953500.93114,can1 00111111 [8] 9B 06 00 00 CD 08 00 00
1548953500.931747,can1 00111111 [8] 9C 06 00 00 CE 08 00 00
1548953500.93228,can1 00111111 [8] 9D 06 00 00 CE 08 00 00
1548953500.950391,can1 00111111 [8] 9E 06 00 00 CF 08 00 00
1548953500.954143,can1 00111111 [8] 9F 06 00 00 CF 08 00 00
1548953500.973255,can1 00111111 [8] A0 06 00 00 D0 08 00 00
1548953500.974163,can1 00111111 [8] A9 06 00 00 D5 08 00 00
1548953500.974745,can1 00111111 [8] BB 06 00 00 DF 08 00 00
1548953500.975258,can1 00111111 [8] BD 06 00 00 E0 08 00 00
1548953500.992332,can1 00111111 [8] BE 06 00 00 E1 08 00 00
1548953501.001385,can1 00111111 [8] BF 06 00 00 E1 08 00 00
1548953501.002164,can1 00111111 [8] C0 06 00 00 E2 08 00 00
1548953501.00274,can1 00111111 [8] D1 06 00 00 EB 08 00 00
1548953501.017558,can1 00111111 [8] D2 06 00 00 EC 08 00 00
1548953501.023159,can1 00111111 [8] D3 06 00 00 ED 08 00 00
1548953501.023866,can1 00111111 [8] D4 06 00 00 ED 08 00 00
1548953501.024393,can1 00111111 [8] E5 06 00 00 F7 08 00 00
1548953501.037968,can1 00111111 [8] E7 06 00 00 F8 08 00 00
1548953501.038817,can1 00111111 [8] E8 06 00 00 F8 08 00 00
1548953501.039409,can1 00111111 [8] E9 06 00 00 F9 08 00 00
1548953501.039933,can1 00111111 [8] F8 06 00 00 01 09 00 00
1548953501.049467,can1 00111111 [8] FA 06 00 00 03 09 00 00
1548953501.050422,can1 00111111 [8] FB 06 00 00 03 09 00 00
1548953501.05104,can1 00111111 [8] FC 06 00 00 04 09 00 00
1548953501.051579,can1 00111111 [8] FD 06 00 00 04 09 00 00
1548953501.060385,can1 00111111 [8] 05 07 00 00 09 09 00 00
1548953501.067158,can1 00111111 [8] 12 07 00 00 10 09 00 00
1548953501.068054,can1 00111111 [8] 14 07 00 00 11 09 00 00
1548953501.068629,can1 00111111 [8] 15 07 00 00 12 09 00 00
1548953501.069151,can1 00111111 [8] 16 07 00 00 12 09 00 00
1548953501.074559,can1 00111111 [8] 28 07 00 00 1D 09 00 00
1548953501.081494,can1 00111111 [8] 2A 07 00 00 1E 09 00 00
1548953501.082175,can1 00111111 [8] 2B 07 00 00 1E 09 00 00
1548953501.082716,can1 00111111 [8] 2C 07 00 00 1F 09 00 00
1548953501.088609,can1 00111111 [8] 2D 07 00 00 1F 09 00 00
1548953501.093863,can1 00111111 [8] 2E 07 00 00 20 09 00 00
1548953501.094534,can1 00111111 [8] 2F 07 00 00 21 09 00 00
1548953501.095161,can1 00111111 [8] 3E 07 00 00 29 09 00 00
1548953501.095704,can1 00111111 [8] 4A 07 00 00 30 09 00 00
1548953501.096207,can1 00111111 [8] 4B 07 00 00 30 09 00 00
1548953501.096679,can1 00111111 [8] 4C 07 00 00 31 09 00 00
1548953501.105443,can1 00111111 [8] 4D 07 00 00 31 09 00 00
1548953501.109322,can1 00111111 [8] 5B 07 00 00 39 09 00 00
1548953501.109928,can1 00111111 [8] 5D 07 00 00 3A 09 00 00
1548953501.110454,can1 00111111 [8] 5E 07 00 00 3B 09 00 00
1548953501.111074,can1 00111111 [8] 5F 07 00 00 3B 09 00 00
1548953501.111595,can1 00111111 [8] 88 07 00 00 52 09 00 00
1548953501.112084,can1 00111111 [8] A1 07 00 00 60 09 00 00
1548953501.120088,can1 00111111 [8] A2 07 00 00 61 09 00 00
1548953501.127953,can1 00111111 [8] A3 07 00 00 62 09 00 00
1548953501.128826,can1 00111111 [8] A4 07 00 00 62 09 00 00
1548953501.129413,can1 00111111 [8] C8 07 00 00 76 09 00 00
1548953501.129923,can1 00111111 [8] CA 07 00 00 77 09 00 00
1548953501.141379,can1 00111111 [8] CB 07 00 00 78 09 00 00
1548953501.145226,can1 00111111 [8] EF 07 00 00 8C 09 00 00
1548953501.145932,can1 00111111 [8] F0 07 00 00 8D 09 00 00
1548953501.146497,can1 00111111 [8] F1 07 00 00 8D 09 00 00
1548953501.147008,can1 00111111 [8] 0F 08 00 00 9E 09 00 00
1548953501.147507,can1 00111111 [8] 10 08 00 00 9F 09 00 00
1548953501.156835,can1 00111111 [8] 2F 08 00 00 B0 09 00 00
1548953501.157602,can1 00111111 [8] 32 08 00 00 B2 09 00 00
1548953501.158188,can1 00111111 [8] 33 08 00 00 B2 09 00 00
1548953501.158716,can1 00111111 [8] 56 08 00 00 C6 09 00 00
1548953501.159213,can1 00111111 [8] 57 08 00 00 C7 09 00 00
1548953501.170517,can1 00111111 [8] 58 08 00 00 C7 09 00 00
1548953501.171448,can1 00111111 [8] 59 08 00 00 C8 09 00 00
1548953501.172041,can1 00111111 [8] 7B 08 00 00 DB 09 00 00
1548953501.172564,can1 00111111 [8] 88 08 00 00 E2 09 00 00
1548953501.176817,can1 00111111 [8] 89 08 00 00 E3 09 00 00
1548953501.183757,can1 00111111 [8] 8A 08 00 00 E3 09 00 00
1548953501.18448,can1 00111111 [8] AC 08 00 00 F6 09 00 00
1548953501.185142,can1 00111111 [8] B9 08 00 00 FD 09 00 00
1548953501.185683,can1 00111111 [8] BA 08 00 00 FE 09 00 00
1548953501.18618,can1 00111111 [8] BB 08 00 00 FF 09 00 00
1548953501.190322,can1 00111111 [8] D4 08 00 00 0D 0A 00 00
1548953501.200255,can1 00111111 [8] D6 08 00 00 0E 0A 00 00
1548953501.201181,can1 00111111 [8] D7 08 00 00 0E 0A 00 00
1548953501.201769,can1 00111111 [8] F5 08 00 00 1F 0A 00 00
1548953501.202355,can1 00111111 [8] 16 09 00 00 32 0A 00 00
1548953501.20289,can1 00111111 [8] 18 09 00 00 33 0A 00 00
1548953501.203385,can1 00111111 [8] 19 09 00 00 33 0A 00 00
1548953501.203823,can1 00111111 [8] 2B 09 00 00 3E 0A 00 00
1548953501.211638,can1 00111111 [8] 2D 09 00 00 3F 0A 00 00
1548953501.218129,can1 00111111 [8] 2E 09 00 00 3F 0A 00 00
1548953501.218843,can1 00111111 [8] 2F 09 00 00 40 0A 00 00
1548953501.2194,can1 00111111 [8] 30 09 00 00 40 0A 00 00
1548953501.225315,can1 00111111 [8] 31 09 00 00 41 0A 00 00
1548953501.230419,can1 00111111 [8] 32 09 00 00 42 0A 00 00
1548953501.231082,can1 00111111 [8] 42 09 00 00 4B 0A 00 00
1548953501.231702,can1 00111111 [8] 4B 09 00 00 50 0A 00 00
1548953501.232251,can1 00111111 [8] 4C 09 00 00 50 0A 00 00
1548953501.23276,can1 00111111 [8] 4D 09 00 00 51 0A 00 00
1548953501.233244,can1 00111111 [8] 4E 09 00 00 51 0A 00 00
1548953501.238568,can1 00111111 [8] 4F 09 00 00 52 0A 00 00
1548953501.248487,can1 00111111 [8] 50 09 00 00 52 0A 00 00
1548953501.249335,can1 00111111 [8] 5B 09 00 00 58 0A 00 00
1548953501.249922,can1 00111111 [8] 6D 09 00 00 63 0A 00 00
1548953501.250437,can1 00111111 [8] 6F 09 00 00 64 0A 00 00
1548953501.250928,can1 00111111 [8] 70 09 00 00 64 0A 00 00
1548953501.26063,can1 00111111 [8] 71 09 00 00 65 0A 00 00
1548953501.261534,can1 00111111 [8] 72 09 00 00 65 0A 00 00
1548953501.262127,can1 00111111 [8] 73 09 00 00 66 0A 00 00
1548953501.262655,can1 00111111 [8] 74 09 00 00 66 0A 00 00
1548953501.272314,can1 00111111 [8] 86 09 00 00 71 0A 00 00
1548953501.273186,can1 00111111 [8] 92 09 00 00 77 0A 00 00
1548953501.273849,can1 00111111 [8] 93 09 00 00 78 0A 00 00
1548953501.274309,can1 00111111 [8] 94 09 00 00 78 0A 00 00
1548953501.281715,can1 00111111 [8] 95 09 00 00 79 0A 00 00
1548953501.282485,can1 00111111 [8] 96 09 00 00 79 0A 00 00
1548953501.283071,can1 00111111 [8] 97 09 00 00 7A 0A 00 00
1548953501.283601,can1 00111111 [8] AC 09 00 00 86 0A 00 00
1548953501.284095,can1 00111111 [8] AE 09 00 00 87 0A 00 00
1548953501.307071,can1 00111111 [8] AF 09 00 00 87 0A 00 00
1548953501.308106,can1 00111111 [8] B0 09 00 00 88 0A 00 00
1548953501.308721,can1 00111111 [8] B1 09 00 00 89 0A 00 00
1548953501.309251,can1 00111111 [8] B2 09 00 00 89 0A 00 00
1548953501.333014,can1 00111111 [8] B3 09 00 00 8A 0A 00 00
1548953501.34473,can1 00111111 [8] CC 09 00 00 98 0A 00 00
1548953501.345694,can1 00111111 [8] CE 09 00 00 99 0A 00 00
1548953501.34629,can1 00111111 [8] CF 09 00 00 99 0A 00 00
1548953501.35781,can1 00111111 [8] D0 09 00 00 9A 0A 00 00
1548953501.362792,can1 00111111 [8] D1 09 00 00 9A 0A 00 00
1548953501.363497,can1 00111111 [8] D2 09 00 00 9B 0A 00 00
1548953501.363979,can1 00111111 [8] DA 09 00 00 9F 0A 00 00
1548953501.380714,can1 00111111 [8] EE 09 00 00 AB 0A 00 00
1548953501.387605,can1 00111111 [8] F0 09 00 00 AC 0A 00 00
1548953501.388394,can1 00111111 [8] F1 09 00 00 AC 0A 00 00
1548953501.389492,can1 00111111 [8] F2 09 00 00 AD 0A 00 00
1548953501.412044,can1 00111111 [8] F3 09 00 00 AD 0A 00 00
1548953501.418139,can1 00111111 [8] F4 09 00 00 AE 0A 00 00
1548953501.418761,can1 00111111 [8] F5 09 00 00 AF 0A 00 00
1548953501.440238,can1 00111111 [8] F6 09 00 00 AF 0A 00 00
1548953501.441248,can1 00111111 [8] 10 0A 00 00 BE 0A 00 00
1548953501.441865,can1 00111111 [8] 11 0A 00 00 BE 0A 00 00
1548953501.456118,can1 00111111 [8] 13 0A 00 00 BF 0A 00 00
1548953501.460706,can1 00111111 [8] 14 0A 00 00 C0 0A 00 00
1548953501.461373,can1 00111111 [8] 1B 0A 00 00 C4 0A 00 00
1548953501.46193,can1 00111111 [8] 25 0A 00 00 CA 0A 00 00
1548953501.488074,can1 00111111 [8] 26 0A 00 00 CA 0A 00 00
1548953501.488918,can1 00111111 [8] 27 0A 00 00 CB 0A 00 00
1548953501.502648,can1 00111111 [8] 28 0A 00 00 CB 0A 00 00
1548953501.513092,can1 00111111 [8] 29 0A 00 00 CC 0A 00 00
1548953501.514011,can1 00111111 [8] 3D 0A 00 00 D7 0A 00 00
1548953501.514617,can1 00111111 [8] 3F 0A 00 00 D8 0A 00 00
1548953501.531161,can1 00111111 [8] 40 0A 00 00 D9 0A 00 00
1548953501.532024,can1 00111111 [8] 41 0A 00 00 D9 0A 00 00
1548953501.547434,can1 00111111 [8] 42 0A 00 00 DA 0A 00 00
1548953501.548443,can1 00111111 [8] 53 0A 00 00 E3 0A 00 00
1548953501.549063,can1 00111111 [8] 55 0A 00 00 E4 0A 00 00
1548953501.549596,can1 00111111 [8] 56 0A 00 00 E5 0A 00 00
1548953501.557729,can1 00111111 [8] 62 0A 00 00 EC 0A 00 00
1548953501.55992,can1 00111111 [8] 69 0A 00 00 F0 0A 00 00
1548953501.56053,can1 00111111 [8] 6A 0A 00 00 F0 0A 00 00
1548953501.561084,can1 00111111 [8] 6B 0A 00 00 F1 0A 00 00
1548953501.561586,can1 00111111 [8] 78 0A 00 00 F8 0A 00 00
1548953501.57117,can1 00111111 [8] 7D 0A 00 00 FB 0A 00 00
1548953501.572029,can1 00111111 [8] 7E 0A 00 00 FB 0A 00 00
1548953501.572586,can1 00111111 [8] 7F 0A 00 00 FC 0A 00 00
1548953501.573098,can1 00111111 [8] 80 0A 00 00 FD 0A 00 00
1548953501.583054,can1 00111111 [8] 95 0A 00 00 08 0B 00 00
1548953501.584003,can1 00111111 [8] 97 0A 00 00 09 0B 00 00
1548953501.584615,can1 00111111 [8] 98 0A 00 00 0A 0B 00 00
1548953501.590734,can1 00111111 [8] 99 0A 00 00 0B 0B 00 00
1548953501.595513,can1 00111111 [8] 9A 0A 00 00 0B 0B 00 00
1548953501.596173,can1 00111111 [8] 9B 0A 00 00 0C 0B 00 00
1548953501.59671,can1 00111111 [8] 9C 0A 00 00 0C 0B 00 00
1548953501.597316,can1 00111111 [8] 9D 0A 00 00 0D 0B 00 00
1548953501.597823,can1 00111111 [8] B1 0A 00 00 18 0B 00 00
1548953501.598326,can1 00111111 [8] B2 0A 00 00 19 0B 00 00
1548953501.603598,can1 00111111 [8] B3 0A 00 00 19 0B 00 00
1548953501.610417,can1 00111111 [8] B4 0A 00 00 1A 0B 00 00
1548953501.611274,can1 00111111 [8] C4 0A 00 00 23 0B 00 00
1548953501.6119,can1 00111111 [8] C6 0A 00 00 24 0B 00 00
1548953501.618824,can1 00111111 [8] C7 0A 00 00 24 0B 00 00
1548953501.62195,can1 00111111 [8] C8 0A 00 00 25 0B 00 00
1548953501.622673,can1 00111111 [8] C9 0A 00 00 26 0B 00 00
1548953501.62325,can1 00111111 [8] EA 0A 00 00 38 0B 00 00
1548953501.623774,can1 00111111 [8] 01 0B 00 00 45 0B 00 00
1548953501.633126,can1 00111111 [8] 03 0B 00 00 46 0B 00 00
1548953501.634104,can1 00111111 [8] 04 0B 00 00 47 0B 00 00
1548953501.634803,can1 00111111 [8] 20 0B 00 00 56 0B 00 00
1548953501.635327,can1 00111111 [8] 3E 0B 00 00 67 0B 00 00
1548953501.63577,can1 00111111 [8] 40 0B 00 00 68 0B 00 00
1548953501.648077,can1 00111111 [8] 41 0B 00 00 69 0B 00 00
1548953501.648902,can1 00111111 [8] 42 0B 00 00 69 0B 00 00
1548953501.64947,can1 00111111 [8] 43 0B 00 00 6A 0B 00 00
1548953501.650111,can1 00111111 [8] 73 0B 00 00 85 0B 00 00
1548953501.65064,can1 00111111 [8] 7E 0B 00 00 8B 0B 00 00
1548953501.651133,can1 00111111 [8] 7F 0B 00 00 8B 0B 00 00
1548953501.65601,can1 00111111 [8] 80 0B 00 00 8C 0B 00 00
1548953501.666384,can1 00111111 [8] 81 0B 00 00 8D 0B 00 00
1548953501.667381,can1 00111111 [8] 82 0B 00 00 8D 0B 00 00
1548953501.668006,can1 00111111 [8] A2 0B 00 00 9F 0B 00 00
1548953501.668538,can1 00111111 [8] A3 0B 00 00 A0 0B 00 00
1548953501.669039,can1 00111111 [8] A4 0B 00 00 A0 0B 00 00
1548953501.679815,can1 00111111 [8] A5 0B 00 00 A1 0B 00 00
1548953501.680499,can1 00111111 [8] CE 0B 00 00 B8 0B 00 00
1548953501.681134,can1 00111111 [8] CF 0B 00 00 B8 0B 00 00
1548953501.68167,can1 00111111 [8] D0 0B 00 00 B9 0B 00 00
1548953501.682178,can1 00111111 [8] D1 0B 00 00 B9 0B 00 00
1548953501.682674,can1 00111111 [8] D2 0B 00 00 BA 0B 00 00
1548953501.694575,can1 00111111 [8] 0C 0C 00 00 DA 0B 00 00
1548953501.695439,can1 00111111 [8] 0E 0C 00 00 DB 0B 00 00
1548953501.69603,can1 00111111 [8] 1B 0C 00 00 E3 0B 00 00
1548953501.696628,can1 00111111 [8] 1D 0C 00 00 E4 0B 00 00
1548953501.697159,can1 00111111 [8] 1E 0C 00 00 E4 0B 00 00
1548953501.697658,can1 00111111 [8] 1F 0C 00 00 E5 0B 00 00
1548953501.698143,can1 00111111 [8] 3B 0C 00 00 F5 0B 00 00
1548953501.706474,can1 00111111 [8] 43 0C 00 00 F9 0B 00 00
1548953501.713903,can1 00111111 [8] 44 0C 00 00 FA 0B 00 00
1548953501.714691,can1 00111111 [8] 45 0C 00 00 FA 0B 00 00
1548953501.715242,can1 00111111 [8] 6A 0C 00 00 0F 0C 00 00
1548953501.715747,can1 00111111 [8] 6C 0C 00 00 10 0C 00 00
1548953501.724891,can1 00111111 [8] 6D 0C 00 00 11 0C 00 00
1548953501.725804,can1 00111111 [8] 6E 0C 00 00 11 0C 00 00
1548953501.726412,can1 00111111 [8] 6F 0C 00 00 12 0C 00 00
1548953501.72695,can1 00111111 [8] A6 0C 00 00 31 0C 00 00
1548953501.727444,can1 00111111 [8] A8 0C 00 00 32 0C 00 00
1548953501.734513,can1 00111111 [8] A9 0C 00 00 33 0C 00 00
1548953501.740348,can1 00111111 [8] BA 0C 00 00 3C 0C 00 00
1548953501.740979,can1 00111111 [8] BC 0C 00 00 3D 0C 00 00
1548953501.741604,can1 00111111 [8] BD 0C 00 00 3E 0C 00 00
1548953501.742145,can1 00111111 [8] BE 0C 00 00 3F 0C 00 00
1548953501.742646,can1 00111111 [8] CD 0C 00 00 47 0C 00 00
1548953501.74845,can1 00111111 [8] CF 0C 00 00 48 0C 00 00
1548953501.754862,can1 00111111 [8] D0 0C 00 00 49 0C 00 00
1548953501.755637,can1 00111111 [8] D1 0C 00 00 49 0C 00 00
1548953501.756195,can1 00111111 [8] D2 0C 00 00 4A 0C 00 00
1548953501.756713,can1 00111111 [8] D3 0C 00 00 4A 0C 00 00
1548953501.764753,can1 00111111 [8] D4 0C 00 00 4B 0C 00 00
1548953501.770836,can1 00111111 [8] E8 0C 00 00 56 0C 00 00
1548953501.771508,can1 00111111 [8] EA 0C 00 00 57 0C 00 00
1548953501.772055,can1 00111111 [8] EB 0C 00 00 58 0C 00 00
1548953501.772566,can1 00111111 [8] EC 0C 00 00 58 0C 00 00
1548953501.783031,can1 00111111 [8] FB 0C 00 00 61 0C 00 00
1548953501.783735,can1 00111111 [8] FF 0C 00 00 63 0C 00 00
1548953501.784286,can1 00111111 [8] 00 0D 00 00 63 0C 00 00
1548953501.784909,can1 00111111 [8] 08 0D 00 00 68 0C 00 00
1548953501.785421,can1 00111111 [8] 0F 0D 00 00 6C 0C 00 00
1548953501.785916,can1 00111111 [8] 10 0D 00 00 6C 0C 00 00
1548953501.791418,can1 00111111 [8] 11 0D 00 00 6D 0C 00 00
1548953501.821934,can1 00111111 [8] 12 0D 00 00 6E 0C 00 00
1548953501.822797,can1 00111111 [8] 29 0D 00 00 7B 0C 00 00
1548953501.82821,can1 00111111 [8] 2B 0D 00 00 7C 0C 00 00
1548953501.829205,can1 00111111 [8] 2C 0D 00 00 7C 0C 00 00
1548953501.829966,can1 00111111 [8] 2D 0D 00 00 7D 0C 00 00
1548953501.830455,can1 00111111 [8] 2E 0D 00 00 7D 0C 00 00
1548953501.830966,can1 00111111 [8] 42 0D 00 00 89 0C 00 00
1548953501.861087,can1 00111111 [8] 44 0D 00 00 8A 0C 00 00
1548953501.866566,can1 00111111 [8] 45 0D 00 00 8A 0C 00 00
1548953501.867283,can1 00111111 [8] 46 0D 00 00 8B 0C 00 00
1548953501.867827,can1 00111111 [8] 52 0D 00 00 92 0C 00 00
1548953501.889508,can1 00111111 [8] 5D 0D 00 00 98 0C 00 00
1548953501.890622,can1 00111111 [8] 5F 0D 00 00 99 0C 00 00
1548953501.891263,can1 00111111 [8] 60 0D 00 00 99 0C 00 00
1548953501.897115,can1 00111111 [8] 61 0D 00 00 9A 0C 00 00
1548953501.9123,can1 00111111 [8] 62 0D 00 00 9B 0C 00 00
1548953501.917384,can1 00111111 [8] 69 0D 00 00 9E 0C 00 00
1548953501.918088,can1 00111111 [8] 7A 0D 00 00 A8 0C 00 00
1548953501.918565,can1 00111111 [8] 7C 0D 00 00 A9 0C 00 00
1548953501.93527,can1 00111111 [8] 7D 0D 00 00 AA 0C 00 00
1548953501.94052,can1 00111111 [8] 7E 0D 00 00 AA 0C 00 00
1548953501.941797,can1 00111111 [8] 8F 0D 00 00 B4 0C 00 00
1548953501.942446,can1 00111111 [8] 92 0D 00 00 B5 0C 00 00
1548953501.96341,can1 00111111 [8] 93 0D 00 00 B6 0C 00 00
1548953501.964187,can1 00111111 [8] 94 0D 00 00 B7 0C 00 00
1548953501.964769,can1 00111111 [8] 95 0D 00 00 B7 0C 00 00
1548953501.965305,can1 00111111 [8] 96 0D 00 00 B8 0C 00 00
1548953501.965822,can1 00111111 [8] A2 0D 00 00 BE 0C 00 00
1548953501.99358,can1 00111111 [8] B2 0D 00 00 C7 0C 00 00
1548953501.994265,can1 00111111 [8] B4 0D 00 00 C8 0C 00 00
1548953501.994826,can1 00111111 [8] B5 0D 00 00 C9 0C 00 00
1548953502.012612,can1 00111111 [8] B6 0D 00 00 CA 0C 00 00
1548953502.015291,can1 00111111 [8] CA 0D 00 00 D5 0C 00 00
1548953502.01594,can1 00111111 [8] CC 0D 00 00 D6 0C 00 00
1548953502.016485,can1 00111111 [8] CD 0D 00 00 D6 0C 00 00
1548953502.035285,can1 00111111 [8] CE 0D 00 00 D7 0C 00 00
1548953502.036158,can1 00111111 [8] CF 0D 00 00 D8 0C 00 00
1548953502.036827,can1 00111111 [8] D0 0D 00 00 D8 0C 00 00
1548953502.037361,can1 00111111 [8] D1 0D 00 00 D9 0C 00 00
1548953502.037868,can1 00111111 [8] D2 0D 00 00 D9 0C 00 00
1548953502.060045,can1 00111111 [8] DC 0D 00 00 DF 0C 00 00
1548953502.061,can1 00111111 [8] EE 0D 00 00 E9 0C 00 00
1548953502.061624,can1 00111111 [8] F0 0D 00 00 EA 0C 00 00
1548953502.06226,can1 00111111 [8] F8 0D 00 00 EE 0C 00 00
1548953502.062782,can1 00111111 [8] FA 0D 00 00 F0 0C 00 00
1548953502.063269,can1 00111111 [8] FB 0D 00 00 F0 0C 00 00
1548953502.070343,can1 00111111 [8] FC 0D 00 00 F1 0C 00 00
1548953502.077842,can1 00111111 [8] 09 0E 00 00 F8 0C 00 00
1548953502.078607,can1 00111111 [8] 0A 0E 00 00 F9 0C 00 00
1548953502.079169,can1 00111111 [8] 0B 0E 00 00 F9 0C 00 00
1548953502.087503,can1 00111111 [8] 0C 0E 00 00 FA 0C 00 00
1548953502.088183,can1 00111111 [8] 0D 0E 00 00 FA 0C 00 00
1548953502.088734,can1 00111111 [8] 16 0E 00 00 FF 0C 00 00
1548953502.089329,can1 00111111 [8] 25 0E 00 00 08 0D 00 00
1548953502.089846,can1 00111111 [8] 26 0E 00 00 08 0D 00 00
1548953502.090341,can1 00111111 [8] 27 0E 00 00 09 0D 00 00
1548953502.090825,can1 00111111 [8] 28 0E 00 00 0A 0D 00 00
1548953502.10036,can1 00111111 [8] 29 0E 00 00 0A 0D 00 00
1548953502.109008,can1 00111111 [8] 3D 0E 00 00 15 0D 00 00
1548953502.109713,can1 00111111 [8] 3F 0E 00 00 17 0D 00 00
1548953502.110267,can1 00111111 [8] 40 0E 00 00 17 0D 00 00
1548953502.110864,can1 00111111 [8] 41 0E 00 00 18 0D 00 00
1548953502.111393,can1 00111111 [8] 4F 0E 00 00 20 0D 00 00
1548953502.111894,can1 00111111 [8] 7A 0E 00 00 38 0D 00 00
1548953502.112374,can1 00111111 [8] 7B 0E 00 00 38 0D 00 00
1548953502.124237,can1 00111111 [8] 7C 0E 00 00 39 0D 00 00
1548953502.125112,can1 00111111 [8] 9C 0E 00 00 4B 0D 00 00
1548953502.125703,can1 00111111 [8] A8 0E 00 00 51 0D 00 00
1548953502.126302,can1 00111111 [8] A9 0E 00 00 52 0D 00 00
1548953502.126842,can1 00111111 [8] AA 0E 00 00 52 0D 00 00
1548953502.127357,can1 00111111 [8] D8 0E 00 00 6C 0D 00 00
1548953502.12784,can1 00111111 [8] DA 0E 00 00 6D 0D 00 00
1548953502.137193,can1 00111111 [8] FA 0E 00 00 7F 0D 00 00
1548953502.14744,can1 00111111 [8] FD 0E 00 00 81 0D 00 00
1548953502.148268,can1 00111111 [8] 15 0F 00 00 8E 0D 00 00
1548953502.148851,can1 00111111 [8] 17 0F 00 00 8F 0D 00 00
1548953502.149372,can1 00111111 [8] 18 0F 00 00 90 0D 00 00
1548953502.157227,can1 00111111 [8] 19 0F 00 00 90 0D 00 00
1548953502.158095,can1 00111111 [8] 42 0F 00 00 A8 0D 00 00
1548953502.158661,can1 00111111 [8] 44 0F 00 00 A9 0D 00 00
1548953502.159174,can1 00111111 [8] 45 0F 00 00 A9 0D 00 00
1548953502.168077,can1 00111111 [8] 46 0F 00 00 AA 0D 00 00
1548953502.168877,can1 00111111 [8] 47 0F 00 00 AA 0D 00 00
1548953502.169635,can1 00111111 [8] 6D 0F 00 00 C0 0D 00 00
1548953502.17018,can1 00111111 [8] 8F 0F 00 00 D3 0D 00 00
1548953502.170679,can1 00111111 [8] 91 0F 00 00 D4 0D 00 00
1548953502.176719,can1 00111111 [8] 92 0F 00 00 D4 0D 00 00
1548953502.182092,can1 00111111 [8] 93 0F 00 00 D5 0D 00 00
1548953502.182806,can1 00111111 [8] 94 0F 00 00 D5 0D 00 00
1548953502.183389,can1 00111111 [8] C1 0F 00 00 EF 0D 00 00
1548953502.183914,can1 00111111 [8] C3 0F 00 00 F0 0D 00 00
1548953502.184407,can1 00111111 [8] C4 0F 00 00 F0 0D 00 00
1548953502.192349,can1 00111111 [8] DA 0F 00 00 FD 0D 00 00
1548953502.196783,can1 00111111 [8] E8 0F 00 00 04 0E 00 00
1548953502.197432,can1 00111111 [8] E9 0F 00 00 05 0E 00 00
1548953502.197986,can1 00111111 [8] EA 0F 00 00 06 0E 00 00
1548953502.206087,can1 00111111 [8] 02 10 00 00 13 0E 00 00
1548953502.207358,can1 00111111 [8] 04 10 00 00 14 0E 00 00
1548953502.208378,can1 00111111 [8] 05 10 00 00 15 0E 00 00
1548953502.209113,can1 00111111 [8] 06 10 00 00 15 0E 00 00
1548953502.20995,can1 00111111 [8] 10 10 00 00 1B 0E 00 00
1548953502.216293,can1 00111111 [8] 18 10 00 00 20 0E 00 00
1548953502.21722,can1 00111111 [8] 19 10 00 00 20 0E 00 00
1548953502.217825,can1 00111111 [8] 1A 10 00 00 21 0E 00 00
1548953502.218458,can1 00111111 [8] 24 10 00 00 26 0E 00 00
1548953502.21897,can1 00111111 [8] 36 10 00 00 31 0E 00 00
1548953502.219456,can1 00111111 [8] 38 10 00 00 32 0E 00 00
1548953502.22702,can1 00111111 [8] 39 10 00 00 32 0E 00 00
1548953502.234013,can1 00111111 [8] 3A 10 00 00 33 0E 00 00
1548953502.234693,can1 00111111 [8] 40 10 00 00 36 0E 00 00
1548953502.235266,can1 00111111 [8] 4F 10 00 00 3F 0E 00 00
1548953502.241731,can1 00111111 [8] 51 10 00 00 40 0E 00 00
1548953502.24243,can1 00111111 [8] 52 10 00 00 40 0E 00 00
1548953502.24299,can1 00111111 [8] 53 10 00 00 41 0E 00 00
1548953502.243594,can1 00111111 [8] 65 10 00 00 4B 0E 00 00
1548953502.250941,can1 00111111 [8] 67 10 00 00 4C 0E 00 00
1548953502.255237,can1 00111111 [8] 68 10 00 00 4D 0E 00 00
1548953502.255905,can1 00111111 [8] 69 10 00 00 4D 0E 00 00
1548953502.256452,can1 00111111 [8] 6A 10 00 00 4E 0E 00 00
1548953502.261499,can1 00111111 [8] 6B 10 00 00 4E 0E 00 00
1548953502.265226,can1 00111111 [8] 77 10 00 00 55 0E 00 00
1548953502.26587,can1 00111111 [8] 81 10 00 00 5B 0E 00 00
1548953502.266413,can1 00111111 [8] 82 10 00 00 5B 0E 00 00
1548953502.27406,can1 00111111 [8] 83 10 00 00 5C 0E 00 00
1548953502.274922,can1 00111111 [8] 84 10 00 00 5C 0E 00 00
1548953502.275586,can1 00111111 [8] 85 10 00 00 5D 0E 00 00
1548953502.276119,can1 00111111 [8] 86 10 00 00 5E 0E 00 00
1548953502.281549,can1 00111111 [8] 92 10 00 00 64 0E 00 00
1548953502.288461,can1 00111111 [8] A2 10 00 00 6D 0E 00 00
1548953502.289158,can1 00111111 [8] A4 10 00 00 6E 0E 00 00
1548953502.289719,can1 00111111 [8] A5 10 00 00 6F 0E 00 00
1548953502.311249,can1 00111111 [8] A6 10 00 00 70 0E 00 00
1548953502.316208,can1 00111111 [8] BA 10 00 00 7B 0E 00 00
1548953502.316923,can1 00111111 [8] C1 10 00 00 7F 0E 00 00
1548953502.317464,can1 00111111 [8] C2 10 00 00 7F 0E 00 00
1548953502.34372,can1 00111111 [8] C3 10 00 00 80 0E 00 00
1548953502.353887,can1 00111111 [8] C4 10 00 00 80 0E 00 00
1548953502.354751,can1 00111111 [8] C5 10 00 00 81 0E 00 00
1548953502.355361,can1 00111111 [8] D5 10 00 00 8A 0E 00 00
1548953502.355893,can1 00111111 [8] D7 10 00 00 8B 0E 00 00
1548953502.356393,can1 00111111 [8] D8 10 00 00 8C 0E 00 00
1548953502.386979,can1 00111111 [8] D9 10 00 00 8C 0E 00 00
1548953502.390773,can1 00111111 [8] DA 10 00 00 8D 0E 00 00
1548953502.39163,can1 00111111 [8] EB 10 00 00 96 0E 00 00
1548953502.3924,can1 00111111 [8] EF 10 00 00 99 0E 00 00
1548953502.392936,can1 00111111 [8] F1 10 00 00 9A 0E 00 00
1548953502.393432,can1 00111111 [8] F2 10 00 00 9A 0E 00 00
1548953502.408842,can1 00111111 [8] F3 10 00 00 9B 0E 00 00
1548953502.409815,can1 00111111 [8] 05 11 00 00 A5 0E 00 00
1548953502.410414,can1 00111111 [8] 07 11 00 00 A6 0E 00 00
1548953502.410935,can1 00111111 [8] 08 11 00 00 A7 0E 00 00
1548953502.43173,can1 00111111 [8] 09 11 00 00 A7 0E 00 00
1548953502.437637,can1 00111111 [8] 0A 11 00 00 A8 0E 00 00
1548953502.438288,can1 00111111 [8] 0B 11 00 00 A8 0E 00 00
1548953502.460385,can1 00111111 [8] 22 11 00 00 B5 0E 00 00
1548953502.461181,can1 00111111 [8] 24 11 00 00 B6 0E 00 00
1548953502.476765,can1 00111111 [8] 25 11 00 00 B7 0E 00 00
1548953502.477753,can1 00111111 [8] 26 11 00 00 B7 0E 00 00
1548953502.478386,can1 00111111 [8] 27 11 00 00 B8 0E 00 00
1548953502.478925,can1 00111111 [8] 28 11 00 00 B9 0E 00 00
1548953502.479436,can1 00111111 [8] 29 11 00 00 B9 0E 00 00
1548953502.500322,can1 00111111 [8] 2A 11 00 00 BA 0E 00 00
1548953502.501246,can1 00111111 [8] 42 11 00 00 C7 0E 00 00
1548953502.501855,can1 00111111 [8] 44 11 00 00 C8 0E 00 00
1548953502.502384,can1 00111111 [8] 45 11 00 00 C9 0E 00 00
1548953502.502899,can1 00111111 [8] 46 11 00 00 C9 0E 00 00
1548953502.527411,can1 00111111 [8] 58 11 00 00 D4 0E 00 00
1548953502.528338,can1 00111111 [8] 5A 11 00 00 D5 0E 00 00
1548953502.529044,can1 00111111 [8] 5B 11 00 00 D5 0E 00 00
1548953502.529605,can1 00111111 [8] 5C 11 00 00 D6 0E 00 00
1548953502.530109,can1 00111111 [8] 5D 11 00 00 D6 0E 00 00
1548953502.553568,can1 00111111 [8] 5E 11 00 00 D7 0E 00 00
1548953502.554597,can1 00111111 [8] 64 11 00 00 DA 0E 00 00
1548953502.55522,can1 00111111 [8] 79 11 00 00 E6 0E 00 00
1548953502.555751,can1 00111111 [8] 7A 11 00 00 E6 0E 00 00
1548953502.556372,can1 00111111 [8] 7B 11 00 00 E7 0E 00 00
1548953502.556879,can1 00111111 [8] 7C 11 00 00 E8 0E 00 00
1548953502.557376,can1 00111111 [8] 7D 11 00 00 E8 0E 00 00
1548953502.562215,can1 00111111 [8] 8D 11 00 00 F1 0E 00 00
1548953502.571736,can1 00111111 [8] 90 11 00 00 F3 0E 00 00
1548953502.572582,can1 00111111 [8] 91 11 00 00 F3 0E 00 00
1548953502.57317,can1 00111111 [8] 92 11 00 00 F4 0E 00 00
1548953502.573804,can1 00111111 [8] A2 11 00 00 FD 0E 00 00
1548953502.574337,can1 00111111 [8] A5 11 00 00 FE 0E 00 00
1548953502.574824,can1 00111111 [8] A6 11 00 00 FF 0E 00 00
1548953502.580138,can1 00111111 [8] A7 11 00 00 00 0F 00 00
1548953502.592043,can1 00111111 [8] B4 11 00 00 07 0F 00 00
1548953502.593025,can1 00111111 [8] B6 11 00 00 08 0F 00 00
1548953502.593726,can1 00111111 [8] B7 11 00 00 09 0F 00 00
1548953502.59426,can1 00111111 [8] B8 11 00 00 09 0F 00 00
1548953502.594723,can1 00111111 [8] B9 11 00 00 0A 0F 00 00
1548953502.602794,can1 00111111 [8] C3 11 00 00 0F 0F 00 00
1548953502.603464,can1 00111111 [8] E3 11 00 00 21 0F 00 00
1548953502.603998,can1 00111111 [8] E5 11 00 00 22 0F 00 00
1548953502.604501,can1 00111111 [8] E6 11 00 00 23 0F 00 00
1548953502.605076,can1 00111111 [8] E7 11 00 00 23 0F 00 00
1548953502.605591,can1 00111111 [8] 1A 12 00 00 40 0F 00 00
1548953502.606074,can1 00111111 [8] 26 12 00 00 47 0F 00 00
1548953502.606549,can1 00111111 [8] 28 12 00 00 48 0F 00 00
1548953502.620608,can1 00111111 [8] 29 12 00 00 48 0F 00 00
1548953502.621293,can1 00111111 [8] 45 12 00 00 58 0F 00 00
1548953502.62184,can1 00111111 [8] 46 12 00 00 59 0F 00 00
1548953502.629182,can1 00111111 [8] 47 12 00 00 59 0F 00 00
1548953502.630146,can1 00111111 [8] 48 12 00 00 5A 0F 00 00
1548953502.630761,can1 00111111 [8] 71 12 00 00 71 0F 00 00
1548953502.631289,can1 00111111 [8] 73 12 00 00 72 0F 00 00
1548953502.631799,can1 00111111 [8] 75 12 00 00 73 0F 00 00
1548953502.641556,can1 00111111 [8] 9A 12 00 00 88 0F 00 00
1548953502.642457,can1 00111111 [8] A8 12 00 00 90 0F 00 00
1548953502.643036,can1 00111111 [8] A9 12 00 00 90 0F 00 00
1548953502.643559,can1 00111111 [8] C0 12 00 00 9D 0F 00 00
1548953502.652855,can1 00111111 [8] D1 12 00 00 A6 0F 00 00
1548953502.653726,can1 00111111 [8] D2 12 00 00 A7 0F 00 00
1548953502.654327,can1 00111111 [8] D3 12 00 00 A8 0F 00 00
1548953502.654855,can1 00111111 [8] F4 12 00 00 BA 0F 00 00
1548953502.655363,can1 00111111 [8] F5 12 00 00 BA 0F 00 00
1548953502.666464,can1 00111111 [8] F6 12 00 00 BB 0F 00 00
1548953502.667245,can1 00111111 [8] 25 13 00 00 D5 0F 00 00
1548953502.667832,can1 00111111 [8] 26 13 00 00 D6 0F 00 00
1548953502.668373,can1 00111111 [8] 27 13 00 00 D7 0F 00 00
1548953502.668882,can1 00111111 [8] 49 13 00 00 EA 0F 00 00
1548953502.67901,can1 00111111 [8] 53 13 00 00 EF 0F 00 00
1548953502.679875,can1 00111111 [8] 54 13 00 00 F0 0F 00 00
1548953502.680455,can1 00111111 [8] 71 13 00 00 00 10 00 00
1548953502.681053,can1 00111111 [8] 73 13 00 00 01 10 00 00
1548953502.681579,can1 00111111 [8] 8B 13 00 00 0F 10 00 00
1548953502.682074,can1 00111111 [8] 90 13 00 00 12 10 00 00
1548953502.682551,can1 00111111 [8] 92 13 00 00 13 10 00 00
1548953502.6919,can1 00111111 [8] 93 13 00 00 13 10 00 00
1548953502.698273,can1 00111111 [8] 94 13 00 00 14 10 00 00
1548953502.699044,can1 00111111 [8] A5 13 00 00 1D 10 00 00
1548953502.699605,can1 00111111 [8] A6 13 00 00 1E 10 00 00
1548953502.70013,can1 00111111 [8] A7 13 00 00 1E 10 00 00
1548953502.709893,can1 00111111 [8] A8 13 00 00 1F 10 00 00
1548953502.710685,can1 00111111 [8] B9 13 00 00 28 10 00 00
1548953502.711243,can1 00111111 [8] BB 13 00 00 2A 10 00 00
1548953502.711759,can1 00111111 [8] BC 13 00 00 2A 10 00 00
1548953502.719166,can1 00111111 [8] BD 13 00 00 2B 10 00 00
1548953502.720078,can1 00111111 [8] C4 13 00 00 2F 10 00 00
1548953502.720679,can1 00111111 [8] D0 13 00 00 35 10 00 00
1548953502.721197,can1 00111111 [8] D1 13 00 00 36 10 00 00
1548953502.721705,can1 00111111 [8] D2 13 00 00 36 10 00 00
1548953502.732991,can1 00111111 [8] E4 13 00 00 41 10 00 00
1548953502.733918,can1 00111111 [8] E6 13 00 00 42 10 00 00
1548953502.734505,can1 00111111 [8] E7 13 00 00 42 10 00 00
1548953502.735034,can1 00111111 [8] E8 13 00 00 43 10 00 00
1548953502.740382,can1 00111111 [8] E9 13 00 00 43 10 00 00
1548953502.747332,can1 00111111 [8] EA 13 00 00 44 10 00 00
1548953502.748023,can1 00111111 [8] EB 13 00 00 44 10 00 00
1548953502.748592,can1 00111111 [8] FF 13 00 00 50 10 00 00
1548953502.7491,can1 00111111 [8] 01 14 00 00 51 10 00 00
1548953502.757935,can1 00111111 [8] 02 14 00 00 51 10 00 00
1548953502.758616,can1 00111111 [8] 03 14 00 00 52 10 00 00
1548953502.759242,can1 00111111 [8] 13 14 00 00 5B 10 00 00
1548953502.759775,can1 00111111 [8] 15 14 00 00 5C 10 00 00
1548953502.760278,can1 00111111 [8] 16 14 00 00 5D 10 00 00
1548953502.760753,can1 00111111 [8] 17 14 00 00 5D 10 00 00
1548953502.775557,can1 00111111 [8] 1F 14 00 00 62 10 00 00
1548953502.776648,can1 00111111 [8] 29 14 00 00 67 10 00 00
1548953502.777274,can1 00111111 [8] 2A 14 00 00 68 10 00 00
1548953502.777813,can1 00111111 [8] 2B 14 00 00 68 10 00 00
1548953502.778326,can1 00111111 [8] 2C 14 00 00 69 10 00 00
1548953502.778902,can1 00111111 [8] 42 14 00 00 75 10 00 00
1548953502.779416,can1 00111111 [8] 43 14 00 00 76 10 00 00
1548953502.779904,can1 00111111 [8] 44 14 00 00 77 10 00 00
1548953502.780377,can1 00111111 [8] 46 14 00 00 78 10 00 00
1548953502.803549,can1 00111111 [8] 47 14 00 00 78 10 00 00
1548953502.821998,can1 00111111 [8] 48 14 00 00 79 10 00 00
1548953502.822857,can1 00111111 [8] 49 14 00 00 79 10 00 00
1548953502.828823,can1 00111111 [8] 59 14 00 00 82 10 00 00
1548953502.842381,can1 00111111 [8] 64 14 00 00 89 10 00 00
1548953502.843221,can1 00111111 [8] 65 14 00 00 89 10 00 00
1548953502.843817,can1 00111111 [8] 66 14 00 00 8A 10 00 00
1548953502.844354,can1 00111111 [8] 67 14 00 00 8A 10 00 00
1548953502.863458,can1 00111111 [8] 7A 14 00 00 95 10 00 00
1548953502.869996,can1 00111111 [8] 7C 14 00 00 96 10 00 00
1548953502.870765,can1 00111111 [8] 7D 14 00 00 97 10 00 00
1548953502.871334,can1 00111111 [8] 7E 14 00 00 97 10 00 00
1548953502.871841,can1 00111111 [8] 7F 14 00 00 98 10 00 00
1548953502.891658,can1 00111111 [8] 80 14 00 00 98 10 00 00
1548953502.892679,can1 00111111 [8] 8E 14 00 00 A0 10 00 00
1548953502.893303,can1 00111111 [8] 96 14 00 00 A5 10 00 00
1548953502.907131,can1 00111111 [8] 97 14 00 00 A5 10 00 00
1548953502.913505,can1 00111111 [8] 98 14 00 00 A6 10 00 00
1548953502.914195,can1 00111111 [8] 99 14 00 00 A6 10 00 00
1548953502.914747,can1 00111111 [8] 9A 14 00 00 A7 10 00 00
1548953502.936138,can1 00111111 [8] 9B 14 00 00 A7 10 00 00
1548953502.940479,can1 00111111 [8] A6 14 00 00 AE 10 00 00
1548953502.941229,can1 00111111 [8] B7 14 00 00 B7 10 00 00
1548953502.941787,can1 00111111 [8] B9 14 00 00 B8 10 00 00
1548953502.942315,can1 00111111 [8] BA 14 00 00 B9 10 00 00
1548953502.964816,can1 00111111 [8] BB 14 00 00 B9 10 00 00
1548953502.965585,can1 00111111 [8] CB 14 00 00 C2 10 00 00
1548953502.981095,can1 00111111 [8] CC 14 00 00 C3 10 00 00
1548953502.982101,can1 00111111 [8] CE 14 00 00 C4 10 00 00
1548953502.982714,can1 00111111 [8] CF 14 00 00 C5 10 00 00
1548953502.983255,can1 00111111 [8] D0 14 00 00 C5 10 00 00
1548953503.003467,can1 00111111 [8] D9 14 00 00 CA 10 00 00
1548953503.004369,can1 00111111 [8] E6 14 00 00 D1 10 00 00
1548953503.004955,can1 00111111 [8] E8 14 00 00 D2 10 00 00
1548953503.022702,can1 00111111 [8] E9 14 00 00 D3 10 00 00
1548953503.02342,can1 00111111 [8] EA 14 00 00 D4 10 00 00
1548953503.023977,can1 00111111 [8] EB 14 00 00 D4 10 00 00
1548953503.024482,can1 00111111 [8] F1 14 00 00 D8 10 00 00
1548953503.04453,can1 00111111 [8] 00 15 00 00 E0 10 00 00
1548953503.045233,can1 00111111 [8] 02 15 00 00 E1 10 00 00
1548953503.051935,can1 00111111 [8] 03 15 00 00 E2 10 00 00
1548953503.052815,can1 00111111 [8] 04 15 00 00 E2 10 00 00
1548953503.053411,can1 00111111 [8] 0E 15 00 00 E8 10 00 00
1548953503.053997,can1 00111111 [8] 1C 15 00 00 F0 10 00 00
1548953503.054536,can1 00111111 [8] 1E 15 00 00 F1 10 00 00
1548953503.055035,can1 00111111 [8] 1F 15 00 00 F1 10 00 00
1548953503.055525,can1 00111111 [8] 20 15 00 00 F2 10 00 00
1548953503.066836,can1 00111111 [8] 32 15 00 00 FC 10 00 00
1548953503.067787,can1 00111111 [8] 33 15 00 00 FD 10 00 00
1548953503.068475,can1 00111111 [8] 34 15 00 00 FD 10 00 00
1548953503.068946,can1 00111111 [8] 36 15 00 00 FE 10 00 00
1548953503.069509,can1 00111111 [8] 37 15 00 00 FF 10 00 00
1548953503.077359,can1 00111111 [8] 38 15 00 00 00 11 00 00
1548953503.078068,can1 00111111 [8] 39 15 00 00 00 11 00 00
1548953503.078555,can1 00111111 [8] 78 15 00 00 23 11 00 00
1548953503.079066,can1 00111111 [8] 79 15 00 00 24 11 00 00
1548953503.090654,can1 00111111 [8] 7A 15 00 00 24 11 00 00
1548953503.091558,can1 00111111 [8] 85 15 00 00 2B 11 00 00
1548953503.092144,can1 00111111 [8] 86 15 00 00 2B 11 00 00
1548953503.09266,can1 00111111 [8] 87 15 00 00 2C 11 00 00
1548953503.10206,can1 00111111 [8] 88 15 00 00 2C 11 00 00
1548953503.104764,can1 00111111 [8] BA 15 00 00 48 11 00 00
1548953503.10541,can1 00111111 [8] C8 15 00 00 50 11 00 00
1548953503.105961,can1 00111111 [8] C9 15 00 00 50 11 00 00
1548953503.106465,can1 00111111 [8] CA 15 00 00 51 11 00 00
1548953503.116555,can1 00111111 [8] CB 15 00 00 52 11 00 00
1548953503.117363,can1 00111111 [8] F3 15 00 00 68 11 00 00
1548953503.117931,can1 00111111 [8] F4 15 00 00 68 11 00 00
1548953503.122699,can1 00111111 [8] F5 15 00 00 69 11 00 00
1548953503.126563,can1 00111111 [8] 16 16 00 00 7B 11 00 00
1548953503.12725,can1 00111111 [8] 23 16 00 00 83 11 00 00
1548953503.127727,can1 00111111 [8] 24 16 00 00 83 11 00 00
1548953503.133833,can1 00111111 [8] 25 16 00 00 84 11 00 00
1548953503.138275,can1 00111111 [8] 26 16 00 00 84 11 00 00
1548953503.138975,can1 00111111 [8] 4C 16 00 00 9A 11 00 00
1548953503.139509,can1 00111111 [8] 4F 16 00 00 9B 11 00 00
1548953503.149128,can1 00111111 [8] 50 16 00 00 9C 11 00 00
1548953503.150096,can1 00111111 [8] 75 16 00 00 B0 11 00 00
1548953503.150707,can1 00111111 [8] 77 16 00 00 B1 11 00 00
1548953503.151216,can1 00111111 [8] 78 16 00 00 B2 11 00 00
1548953503.156716,can1 00111111 [8] 79 16 00 00 B3 11 00 00
1548953503.163091,can1 00111111 [8] 7A 16 00 00 B3 11 00 00
1548953503.163849,can1 00111111 [8] AC 16 00 00 CF 11 00 00
1548953503.164402,can1 00111111 [8] AD 16 00 00 D0 11 00 00
1548953503.164923,can1 00111111 [8] AE 16 00 00 D0 11 00 00
1548953503.173581,can1 00111111 [8] AF 16 00 00 D1 11 00 00
1548953503.174287,can1 00111111 [8] D3 16 00 00 E5 11 00 00
1548953503.174824,can1 00111111 [8] D4 16 00 00 E5 11 00 00
1548953503.175435,can1 00111111 [8] D5 16 00 00 E6 11 00 00
1548953503.175957,can1 00111111 [8] F6 16 00 00 F8 11 00 00
1548953503.176448,can1 00111111 [8] F8 16 00 00 F9 11 00 00
1548953503.182863,can1 00111111 [8] FA 16 00 00 FA 11 00 00
1548953503.192717,can1 00111111 [8] FB 16 00 00 FB 11 00 00
1548953503.193522,can1 00111111 [8] FC 16 00 00 FC 11 00 00
1548953503.194116,can1 00111111 [8] FD 16 00 00 FC 11 00 00
1548953503.194732,can1 00111111 [8] 24 17 00 00 12 12 00 00
1548953503.195267,can1 00111111 [8] 25 17 00 00 13 12 00 00
1548953503.195772,can1 00111111 [8] 27 17 00 00 14 12 00 00
1548953503.196262,can1 00111111 [8] 28 17 00 00 14 12 00 00
1548953503.205493,can1 00111111 [8] 29 17 00 00 15 12 00 00
1548953503.210982,can1 00111111 [8] 2A 17 00 00 15 12 00 00
1548953503.211612,can1 00111111 [8] 42 17 00 00 23 12 00 00
1548953503.212227,can1 00111111 [8] 44 17 00 00 24 12 00 00
1548953503.21277,can1 00111111 [8] 45 17 00 00 25 12 00 00
1548953503.213275,can1 00111111 [8] 54 17 00 00 2D 12 00 00
1548953503.213754,can1 00111111 [8] 55 17 00 00 2D 12 00 00
1548953503.221841,can1 00111111 [8] 56 17 00 00 2E 12 00 00
1548953503.231191,can1 00111111 [8] 57 17 00 00 2F 12 00 00
1548953503.232125,can1 00111111 [8] 58 17 00 00 2F 12 00 00
1548953503.232708,can1 00111111 [8] 59 17 00 00 30 12 00 00
1548953503.233237,can1 00111111 [8] 5A 17 00 00 30 12 00 00
1548953503.242019,can1 00111111 [8] 67 17 00 00 37 12 00 00
1548953503.242995,can1 00111111 [8] 7A 17 00 00 42 12 00 00
1548953503.243691,can1 00111111 [8] 7C 17 00 00 43 12 00 00
1548953503.24425,can1 00111111 [8] 7D 17 00 00 44 12 00 00
1548953503.244755,can1 00111111 [8] 7E 17 00 00 44 12 00 00
1548953503.25205,can1 00111111 [8] 7F 17 00 00 45 12 00 00
1548953503.257928,can1 00111111 [8] 80 17 00 00 45 12 00 00
1548953503.258609,can1 00111111 [8] 81 17 00 00 46 12 00 00
1548953503.259244,can1 00111111 [8] 8E 17 00 00 4D 12 00 00
1548953503.259795,can1 00111111 [8] 97 17 00 00 52 12 00 00
1548953503.260297,can1 00111111 [8] 98 17 00 00 53 12 00 00
1548953503.260778,can1 00111111 [8] 99 17 00 00 53 12 00 00
1548953503.27209,can1 00111111 [8] 9A 17 00 00 54 12 00 00
1548953503.273104,can1 00111111 [8] 9B 17 00 00 54 12 00 00
1548953503.273738,can1 00111111 [8] 9C 17 00 00 55 12 00 00
1548953503.274278,can1 00111111 [8] AA 17 00 00 5D 12 00 00
1548953503.284796,can1 00111111 [8] BF 17 00 00 68 12 00 00
1548953503.285715,can1 00111111 [8] C1 17 00 00 6A 12 00 00
1548953503.286453,can1 00111111 [8] C2 17 00 00 6A 12 00 00
1548953503.287021,can1 00111111 [8] C3 17 00 00 6B 12 00 00
1548953503.287536,can1 00111111 [8] D1 17 00 00 73 12 00 00
1548953503.287981,can1 00111111 [8] D3 17 00 00 74 12 00 00
1548953503.317159,can1 00111111 [8] D4 17 00 00 74 12 00 00
1548953503.319914,can1 00111111 [8] D5 17 00 00 75 12 00 00
1548953503.32056,can1 00111111 [8] E2 17 00 00 7C 12 00 00
1548953503.32109,can1 00111111 [8] E6 17 00 00 7E 12 00 00
1548953503.341188,can1 00111111 [8] E7 17 00 00 7F 12 00 00
1548953503.342061,can1 00111111 [8] E8 17 00 00 7F 12 00 00
1548953503.34267,can1 00111111 [8] E9 17 00 00 80 12 00 00
1548953503.358394,can1 00111111 [8] EA 17 00 00 80 12 00 00
1548953503.362902,can1 00111111 [8] FE 17 00 00 8C 12 00 00
1548953503.363545,can1 00111111 [8] FF 17 00 00 8C 12 00 00
1548953503.364084,can1 00111111 [8] 00 18 00 00 8D 12 00 00
1548953503.387381,can1 00111111 [8] 01 18 00 00 8D 12 00 00
1548953503.388366,can1 00111111 [8] 02 18 00 00 8E 12 00 00
1548953503.388973,can1 00111111 [8] 0C 18 00 00 93 12 00 00
1548953503.389506,can1 00111111 [8] 18 18 00 00 9A 12 00 00
1548953503.411094,can1 00111111 [8] 19 18 00 00 9B 12 00 00
1548953503.41336,can1 00111111 [8] 1A 18 00 00 9B 12 00 00
1548953503.414061,can1 00111111 [8] 28 18 00 00 A3 12 00 00
1548953503.414593,can1 00111111 [8] 2A 18 00 00 A4 12 00 00
1548953503.415033,can1 00111111 [8] 2C 18 00 00 A5 12 00 00
1548953503.438683,can1 00111111 [8] 2E 18 00 00 A6 12 00 00
1548953503.439413,can1 00111111 [8] 2F 18 00 00 A7 12 00 00
1548953503.439985,can1 00111111 [8] 31 18 00 00 A8 12 00 00
1548953503.440494,can1 00111111 [8] 3C 18 00 00 AE 12 00 00
1548953503.466276,can1 00111111 [8] 3D 18 00 00 AF 12 00 00
1548953503.466982,can1 00111111 [8] 3F 18 00 00 B0 12 00 00
1548953503.467546,can1 00111111 [8] 40 18 00 00 B1 12 00 00
1548953503.483089,can1 00111111 [8] 41 18 00 00 B1 12 00 00
1548953503.48402,can1 00111111 [8] 42 18 00 00 B2 12 00 00
1548953503.484635,can1 00111111 [8] 5A 18 00 00 BF 12 00 00
1548953503.485168,can1 00111111 [8] 5C 18 00 00 C0 12 00 00
1548953503.501065,can1 00111111 [8] 5D 18 00 00 C1 12 00 00
1548953503.502058,can1 00111111 [8] 68 18 00 00 C7 12 00 00
1548953503.502651,can1 00111111 [8] 6A 18 00 00 C8 12 00 00
1548953503.519374,can1 00111111 [8] 6B 18 00 00 C8 12 00 00
1548953503.520298,can1 00111111 [8] 6C 18 00 00 C9 12 00 00
1548953503.535207,can1 00111111 [8] 6D 18 00 00 CA 12 00 00
1548953503.542291,can1 00111111 [8] 80 18 00 00 D4 12 00 00
1548953503.542965,can1 00111111 [8] 82 18 00 00 D5 12 00 00
1548953503.543513,can1 00111111 [8] 83 18 00 00 D6 12 00 00
1548953503.54403,can1 00111111 [8] 84 18 00 00 D6 12 00 00
1548953503.562906,can1 00111111 [8] 93 18 00 00 DF 12 00 00
1548953503.563697,can1 00111111 [8] 94 18 00 00 DF 12 00 00
1548953503.564286,can1 00111111 [8] 95 18 00 00 E0 12 00 00
1548953503.56482,can1 00111111 [8] A1 18 00 00 E7 12 00 00
1548953503.56532,can1 00111111 [8] A4 18 00 00 E8 12 00 00
1548953503.571301,can1 00111111 [8] A5 18 00 00 E9 12 00 00
1548953503.580819,can1 00111111 [8] A6 18 00 00 E9 12 00 00
1548953503.581718,can1 00111111 [8] A7 18 00 00 EA 12 00 00
1548953503.582314,can1 00111111 [8] BC 18 00 00 F6 12 00 00
1548953503.582831,can1 00111111 [8] BE 18 00 00 F7 12 00 00
1548953503.591985,can1 00111111 [8] BF 18 00 00 F7 12 00 00
1548953503.595174,can1 00111111 [8] C0 18 00 00 F8 12 00 00
1548953503.595834,can1 00111111 [8] EE 18 00 00 12 13 00 00
1548953503.596387,can1 00111111 [8] EF 18 00 00 12 13 00 00
1548953503.600415,can1 00111111 [8] F0 18 00 00 13 13 00 00
1548953503.606803,can1 00111111 [8] 13 19 00 00 26 13 00 00
1548953503.607478,can1 00111111 [8] 31 19 00 00 37 13 00 00
1548953503.60803,can1 00111111 [8] 33 19 00 00 38 13 00 00
1548953503.611585,can1 00111111 [8] 34 19 00 00 39 13 00 00
1548953503.618879,can1 00111111 [8] 35 19 00 00 39 13 00 00
1548953503.619669,can1 00111111 [8] 36 19 00 00 3A 13 00 00
1548953503.620299,can1 00111111 [8] 62 19 00 00 52 13 00 00
1548953503.620872,can1 00111111 [8] 6E 19 00 00 59 13 00 00
1548953503.621393,can1 00111111 [8] 75 19 00 00 5D 13 00 00
1548953503.621879,can1 00111111 [8] 76 19 00 00 5D 13 00 00
1548953503.628375,can1 00111111 [8] 77 19 00 00 5E 13 00 00
1548953503.635836,can1 00111111 [8] 78 19 00 00 5F 13 00 00
1548953503.636629,can1 00111111 [8] 94 19 00 00 6E 13 00 00
1548953503.637183,can1 00111111 [8] 96 19 00 00 6F 13 00 00
1548953503.637676,can1 00111111 [8] 97 19 00 00 70 13 00 00
1548953503.648928,can1 00111111 [8] 98 19 00 00 70 13 00 00
1548953503.649896,can1 00111111 [8] B9 19 00 00 83 13 00 00
1548953503.650501,can1 00111111 [8] C8 19 00 00 8B 13 00 00
1548953503.651039,can1 00111111 [8] C9 19 00 00 8C 13 00 00
1548953503.658819,can1 00111111 [8] F0 19 00 00 A1 13 00 00
1548953503.659776,can1 00111111 [8] F2 19 00 00 A2 13 00 00
1548953503.660464,can1 00111111 [8] 0E 1A 00 00 B2 13 00 00
1548953503.660935,can1 00111111 [8] 0F 1A 00 00 B3 13 00 00
1548953503.661575,can1 00111111 [8] 11 1A 00 00 B4 13 00 00
1548953503.662028,can1 00111111 [8] 12 1A 00 00 B4 13 00 00
1548953503.66254,can1 00111111 [8] 13 1A 00 00 B5 13 00 00
1548953503.663024,can1 00111111 [8] 38 1A 00 00 CA 13 00 00
1548953503.672036,can1 00111111 [8] 3A 1A 00 00 CB 13 00 00
1548953503.677517,can1 00111111 [8] 3B 1A 00 00 CB 13 00 00
1548953503.678161,can1 00111111 [8] 3C 1A 00 00 CC 13 00 00
1548953503.678713,can1 00111111 [8] 3D 1A 00 00 CC 13 00 00
1548953503.679324,can1 00111111 [8] 61 1A 00 00 E0 13 00 00
1548953503.67984,can1 00111111 [8] 6A 1A 00 00 E5 13 00 00
1548953503.680343,can1 00111111 [8] 6C 1A 00 00 E7 13 00 00
1548953503.687747,can1 00111111 [8] 6D 1A 00 00 E7 13 00 00
1548953503.696645,can1 00111111 [8] 6E 1A 00 00 E8 13 00 00
1548953503.697484,can1 00111111 [8] 8C 1A 00 00 F8 13 00 00
1548953503.698057,can1 00111111 [8] 99 1A 00 00 00 14 00 00
1548953503.706625,can1 00111111 [8] 9B 1A 00 00 01 14 00 00
1548953503.707467,can1 00111111 [8] 9C 1A 00 00 01 14 00 00
1548953503.708028,can1 00111111 [8] 9D 1A 00 00 02 14 00 00
1548953503.708633,can1 00111111 [8] 9E 1A 00 00 02 14 00 00
1548953503.709158,can1 00111111 [8] 9F 1A 00 00 03 14 00 00
1548953503.70966,can1 00111111 [8] A0 1A 00 00 04 14 00 00
1548953503.71391,can1 00111111 [8] B8 1A 00 00 11 14 00 00
1548953503.723826,can1 00111111 [8] B9 1A 00 00 12 14 00 00
1548953503.724721,can1 00111111 [8] BB 1A 00 00 13 14 00 00
1548953503.725318,can1 00111111 [8] BC 1A 00 00 13 14 00 00
1548953503.73288,can1 00111111 [8] BD 1A 00 00 14 14 00 00
1548953503.733934,can1 00111111 [8] BE 1A 00 00 14 14 00 00
1548953503.734576,can1 00111111 [8] BF 1A 00 00 15 14 00 00
1548953503.735127,can1 00111111 [8] D0 1A 00 00 1F 14 00 00
1548953503.743718,can1 00111111 [8] DE 1A 00 00 26 14 00 00
1548953503.744572,can1 00111111 [8] DF 1A 00 00 27 14 00 00
1548953503.745172,can1 00111111 [8] E0 1A 00 00 27 14 00 00
1548953503.745873,can1 00111111 [8] E1 1A 00 00 28 14 00 00
1548953503.746399,can1 00111111 [8] EF 1A 00 00 30 14 00 00
1548953503.746845,can1 00111111 [8] F1 1A 00 00 31 14 00 00
1548953503.754001,can1 00111111 [8] F2 1A 00 00 31 14 00 00
1548953503.762324,can1 00111111 [8] F3 1A 00 00 32 14 00 00
1548953503.763255,can1 00111111 [8] F4 1A 00 00 33 14 00 00
1548953503.763846,can1 00111111 [8] F5 1A 00 00 33 14 00 00
1548953503.764376,can1 00111111 [8] F6 1A 00 00 34 14 00 00
1548953503.777098,can1 00111111 [8] F7 1A 00 00 34 14 00 00
1548953503.778087,can1 00111111 [8] 0F 1B 00 00 42 14 00 00
1548953503.782865,can1 00111111 [8] 11 1B 00 00 43 14 00 00
1548953503.783611,can1 00111111 [8] 12 1B 00 00 43 14 00 00
1548953503.784182,can1 00111111 [8] 1B 1B 00 00 48 14 00 00
1548953503.784793,can1 00111111 [8] 20 1B 00 00 4B 14 00 00
1548953503.785302,can1 00111111 [8] 22 1B 00 00 4C 14 00 00
1548953503.785795,can1 00111111 [8] 23 1B 00 00 4D 14 00 00
1548953503.792258,can1 00111111 [8] 24 1B 00 00 4D 14 00 00
1548953503.819387,can1 00111111 [8] 34 1B 00 00 56 14 00 00
1548953503.82017,can1 00111111 [8] 36 1B 00 00 58 14 00 00
1548953503.820721,can1 00111111 [8] 37 1B 00 00 58 14 00 00
1548953503.821231,can1 00111111 [8] 38 1B 00 00 59 14 00 00
1548953503.83005,can1 00111111 [8] 49 1B 00 00 62 14 00 00
1548953503.830729,can1 00111111 [8] 4A 1B 00 00 63 14 00 00
1548953503.844792,can1 00111111 [8] 4C 1B 00 00 64 14 00 00
1548953503.853953,can1 00111111 [8] 4D 1B 00 00 64 14 00 00
1548953503.865901,can1 00111111 [8] 4E 1B 00 00 65 14 00 00
1548953503.870798,can1 00111111 [8] 61 1B 00 00 70 14 00 00
1548953503.871461,can1 00111111 [8] 63 1B 00 00 71 14 00 00
1548953503.872008,can1 00111111 [8] 64 1B 00 00 71 14 00 00
1548953503.899975,can1 00111111 [8] 65 1B 00 00 72 14 00 00
1548953503.900753,can1 00111111 [8] 66 1B 00 00 72 14 00 00
1548953503.901328,can1 00111111 [8] 78 1B 00 00 7C 14 00 00
1548953503.910453,can1 00111111 [8] 79 1B 00 00 7D 14 00 00
1548953503.911348,can1 00111111 [8] 7B 1B 00 00 7E 14 00 00
1548953503.91194,can1 00111111 [8] 7C 1B 00 00 7F 14 00 00
1548953503.912463,can1 00111111 [8] 7D 1B 00 00 7F 14 00 00
1548953503.912952,can1 00111111 [8] 7E 1B 00 00 80 14 00 00
1548953503.936489,can1 00111111 [8] 7F 1B 00 00 80 14 00 00
1548953503.937526,can1 00111111 [8] 8B 1B 00 00 87 14 00 00
1548953503.938135,can1 00111111 [8] 9A 1B 00 00 8F 14 00 00
1548953503.9556,can1 00111111 [8] 9C 1B 00 00 90 14 00 00
1548953503.956713,can1 00111111 [8] 9D 1B 00 00 91 14 00 00
1548953503.957361,can1 00111111 [8] 9E 1B 00 00 92 14 00 00
1548953503.957913,can1 00111111 [8] AF 1B 00 00 9B 14 00 00
1548953503.984633,can1 00111111 [8] B1 1B 00 00 9C 14 00 00
1548953503.990514,can1 00111111 [8] B2 1B 00 00 9D 14 00 00
1548953503.991164,can1 00111111 [8] B3 1B 00 00 9D 14 00 00
1548953504.009086,can1 00111111 [8] C0 1B 00 00 A4 14 00 00
1548953504.009916,can1 00111111 [8] C1 1B 00 00 A5 14 00 00
1548953504.010484,can1 00111111 [8] C3 1B 00 00 A6 14 00 00
1548953504.027371,can1 00111111 [8] C4 1B 00 00 A7 14 00 00
1548953504.033335,can1 00111111 [8] C5 1B 00 00 A7 14 00 00
1548953504.034034,can1 00111111 [8] D3 1B 00 00 AF 14 00 00
1548953504.043229,can1 00111111 [8] DA 1B 00 00 B3 14 00 00
1548953504.043969,can1 00111111 [8] DC 1B 00 00 B4 14 00 00
1548953504.05164,can1 00111111 [8] DD 1B 00 00 B5 14 00 00
1548953504.052413,can1 00111111 [8] DE 1B 00 00 B5 14 00 00
1548953504.052973,can1 00111111 [8] F2 1B 00 00 C0 14 00 00
1548953504.053484,can1 00111111 [8] F4 1B 00 00 C1 14 00 00
1548953504.06232,can1 00111111 [8] F5 1B 00 00 C2 14 00 00
1548953504.063251,can1 00111111 [8] F6 1B 00 00 C3 14 00 00
1548953504.063946,can1 00111111 [8] 05 1C 00 00 CB 14 00 00
1548953504.064494,can1 00111111 [8] 07 1C 00 00 CC 14 00 00
1548953504.065005,can1 00111111 [8] 08 1C 00 00 CD 14 00 00
1548953504.065486,can1 00111111 [8] 09 1C 00 00 CD 14 00 00
1548953504.07686,can1 00111111 [8] 0A 1C 00 00 CE 14 00 00
1548953504.077814,can1 00111111 [8] 0B 1C 00 00 CE 14 00 00
1548953504.078435,can1 00111111 [8] 18 1C 00 00 D6 14 00 00
1548953504.078965,can1 00111111 [8] 27 1C 00 00 DE 14 00 00
1548953504.088578,can1 00111111 [8] 28 1C 00 00 DF 14 00 00
1548953504.089452,can1 00111111 [8] 29 1C 00 00 DF 14 00 00
1548953504.090127,can1 00111111 [8] 2A 1C 00 00 E0 14 00 00
1548953504.090651,can1 00111111 [8] 2B 1C 00 00 E0 14 00 00
1548953504.09861,can1 00111111 [8] 2C 1C 00 00 E1 14 00 00
1548953504.099515,can1 00111111 [8] 2D 1C 00 00 E1 14 00 00
1548953504.10018,can1 00111111 [8] 2E 1C 00 00 E2 14 00 00
1548953504.103866,can1 00111111 [8] 3F 1C 00 00 EB 14 00 00
1548953504.109315,can1 00111111 [8] 78 1C 00 00 0B 15 00 00
1548953504.109983,can1 00111111 [8] 79 1C 00 00 0C 15 00 00
1548953504.110616,can1 00111111 [8] 7A 1C 00 00 0C 15 00 00
1548953504.111167,can1 00111111 [8] 9C 1C 00 00 20 15 00 00
1548953504.111679,can1 00111111 [8] 9E 1C 00 00 21 15 00 00
1548953504.112171,can1 00111111 [8] 9F 1C 00 00 21 15 00 00
1548953504.120119,can1 00111111 [8] A0 1C 00 00 22 15 00 00
1548953504.125055,can1 00111111 [8] A1 1C 00 00 22 15 00 00
1548953504.125672,can1 00111111 [8] CD 1C 00 00 3B 15 00 00
1548953504.12627,can1 00111111 [8] CF 1C 00 00 3C 15 00 00
1548953504.126805,can1 00111111 [8] D0 1C 00 00 3D 15 00 00
1548953504.127321,can1 00111111 [8] D1 1C 00 00 3D 15 00 00
1548953504.127818,can1 00111111 [8] EB 1C 00 00 4C 15 00 00
1548953504.137374,can1 00111111 [8] F6 1C 00 00 52 15 00 00
1548953504.144341,can1 00111111 [8] F7 1C 00 00 52 15 00 00
1548953504.145024,can1 00111111 [8] F8 1C 00 00 53 15 00 00
1548953504.145583,can1 00111111 [8] 1B 1D 00 00 67 15 00 00
1548953504.154273,can1 00111111 [8] 1D 1D 00 00 68 15 00 00
1548953504.154958,can1 00111111 [8] 1E 1D 00 00 68 15 00 00
1548953504.155588,can1 00111111 [8] 1F 1D 00 00 69 15 00 00
1548953504.156146,can1 00111111 [8] 4C 1D 00 00 82 15 00 00
1548953504.156658,can1 00111111 [8] 4D 1D 00 00 82 15 00 00
1548953504.157151,can1 00111111 [8] 4E 1D 00 00 83 15 00 00
1548953504.165739,can1 00111111 [8] 4F 1D 00 00 84 15 00 00
1548953504.173621,can1 00111111 [8] 77 1D 00 00 9A 15 00 00
1548953504.174353,can1 00111111 [8] 79 1D 00 00 9B 15 00 00
1548953504.174913,can1 00111111 [8] 8E 1D 00 00 A7 15 00 00
1548953504.175541,can1 00111111 [8] 96 1D 00 00 AB 15 00 00
1548953504.176055,can1 00111111 [8] 98 1D 00 00 AC 15 00 00
1548953504.176546,can1 00111111 [8] 99 1D 00 00 AD 15 00 00
1548953504.183533,can1 00111111 [8] BD 1D 00 00 C1 15 00 00
1548953504.192296,can1 00111111 [8] BE 1D 00 00 C1 15 00 00
1548953504.193229,can1 00111111 [8] C0 1D 00 00 C2 15 00 00
1548953504.193837,can1 00111111 [8] DF 1D 00 00 D4 15 00 00
1548953504.194366,can1 00111111 [8] E1 1D 00 00 D5 15 00 00
1548953504.203857,can1 00111111 [8] E2 1D 00 00 D5 15 00 00
1548953504.204636,can1 00111111 [8] E3 1D 00 00 D6 15 00 00
1548953504.205204,can1 00111111 [8] 06 1E 00 00 E9 15 00 00
1548953504.205727,can1 00111111 [8] 08 1E 00 00 EB 15 00 00
1548953504.210344,can1 00111111 [8] 10 1E 00 00 EF 15 00 00
1548953504.216246,can1 00111111 [8] 15 1E 00 00 F2 15 00 00
1548953504.216928,can1 00111111 [8] 17 1E 00 00 F3 15 00 00
1548953504.217487,can1 00111111 [8] 18 1E 00 00 F4 15 00 00
1548953504.224404,can1 00111111 [8] 19 1E 00 00 F4 15 00 00
1548953504.228553,can1 00111111 [8] 1A 1E 00 00 F5 15 00 00
1548953504.229182,can1 00111111 [8] 1B 1E 00 00 F5 15 00 00
1548953504.2298,can1 00111111 [8] 27 1E 00 00 FC 15 00 00
1548953504.230349,can1 00111111 [8] 30 1E 00 00 01 16 00 00
1548953504.230852,can1 00111111 [8] 31 1E 00 00 02 16 00 00
1548953504.231334,can1 00111111 [8] 32 1E 00 00 02 16 00 00
1548953504.23931,can1 00111111 [8] 33 1E 00 00 03 16 00 00
1548953504.247301,can1 00111111 [8] 41 1E 00 00 0B 16 00 00
1548953504.24803,can1 00111111 [8] 42 1E 00 00 0B 16 00 00
1548953504.25419,can1 00111111 [8] 43 1E 00 00 0C 16 00 00
1548953504.255143,can1 00111111 [8] 44 1E 00 00 0C 16 00 00
1548953504.255764,can1 00111111 [8] 58 1E 00 00 18 16 00 00
1548953504.256301,can1 00111111 [8] 5A 1E 00 00 19 16 00 00
1548953504.256794,can1 00111111 [8] 5B 1E 00 00 19 16 00 00
1548953504.268232,can1 00111111 [8] 5C 1E 00 00 1A 16 00 00
1548953504.269268,can1 00111111 [8] 67 1E 00 00 20 16 00 00
1548953504.269877,can1 00111111 [8] 72 1E 00 00 26 16 00 00
1548953504.270406,can1 00111111 [8] 73 1E 00 00 27 16 00 00
1548953504.270977,can1 00111111 [8] 74 1E 00 00 27 16 00 00
1548953504.271506,can1 00111111 [8] 75 1E 00 00 28 16 00 00
1548953504.272009,can1 00111111 [8] 87 1E 00 00 32 16 00 00
1548953504.272484,can1 00111111 [8] 88 1E 00 00 32 16 00 00
1548953504.281557,can1 00111111 [8] 8A 1E 00 00 33 16 00 00
1548953504.288556,can1 00111111 [8] 8B 1E 00 00 34 16 00 00
1548953504.28922,can1 00111111 [8] 99 1E 00 00 3C 16 00 00
1548953504.289762,can1 00111111 [8] 9A 1E 00 00 3C 16 00 00
1548953504.290332,can1 00111111 [8] 9B 1E 00 00 3D 16 00 00
1548953504.290873,can1 00111111 [8] A2 1E 00 00 41 16 00 00
1548953504.29138,can1 00111111 [8] AE 1E 00 00 48 16 00 00
1548953504.291863,can1 00111111 [8] AF 1E 00 00 48 16 00 00
1548953504.31488,can1 00111111 [8] B0 1E 00 00 49 16 00 00
1548953504.31586,can1 00111111 [8] BC 1E 00 00 4F 16 00 00
1548953504.316474,can1 00111111 [8] C3 1E 00 00 53 16 00 00
1548953504.317004,can1 00111111 [8] C4 1E 00 00 54 16 00 00
1548953504.332969,can1 00111111 [8] C5 1E 00 00 54 16 00 00
1548953504.334069,can1 00111111 [8] CC 1E 00 00 58 16 00 00
1548953504.33469,can1 00111111 [8] DA 1E 00 00 60 16 00 00
1548953504.352485,can1 00111111 [8] DC 1E 00 00 61 16 00 00
1548953504.364707,can1 00111111 [8] DD 1E 00 00 62 16 00 00
1548953504.3654,can1 00111111 [8] DE 1E 00 00 62 16 00 00
1548953504.36596,can1 00111111 [8] ED 1E 00 00 6B 16 00 00
1548953504.382101,can1 00111111 [8] EF 1E 00 00 6C 16 00 00
1548953504.383,can1 00111111 [8] F0 1E 00 00 6C 16 00 00
1548953504.383583,can1 00111111 [8] F1 1E 00 00 6D 16 00 00
1548953504.401322,can1 00111111 [8] F2 1E 00 00 6D 16 00 00
1548953504.402302,can1 00111111 [8] F3 1E 00 00 6E 16 00 00
1548953504.402901,can1 00111111 [8] F4 1E 00 00 6F 16 00 00
1548953504.403416,can1 00111111 [8] 0C 1F 00 00 7C 16 00 00
1548953504.423411,can1 00111111 [8] 11 1F 00 00 7F 16 00 00
1548953504.424138,can1 00111111 [8] 12 1F 00 00 7F 16 00 00
1548953504.424709,can1 00111111 [8] 13 1F 00 00 80 16 00 00
1548953504.43494,can1 00111111 [8] 14 1F 00 00 81 16 00 00
1548953504.435768,can1 00111111 [8] 15 1F 00 00 81 16 00 00
1548953504.436356,can1 00111111 [8] 16 1F 00 00 82 16 00 00
1548953504.461816,can1 00111111 [8] 22 1F 00 00 88 16 00 00
1548953504.462865,can1 00111111 [8] 30 1F 00 00 90 16 00 00
1548953504.463479,can1 00111111 [8] 31 1F 00 00 91 16 00 00
1548953504.482883,can1 00111111 [8] 32 1F 00 00 91 16 00 00
1548953504.485031,can1 00111111 [8] 33 1F 00 00 92 16 00 00
1548953504.490003,can1 00111111 [8] 34 1F 00 00 93 16 00 00
1548953504.490866,can1 00111111 [8] 35 1F 00 00 93 16 00 00
1548953504.504067,can1 00111111 [8] 3F 1F 00 00 99 16 00 00
1548953504.514873,can1 00111111 [8] 4C 1F 00 00 A0 16 00 00
1548953504.515665,can1 00111111 [8] 55 1F 00 00 A5 16 00 00
1548953504.516237,can1 00111111 [8] 56 1F 00 00 A6 16 00 00
1548953504.53688,can1 00111111 [8] 57 1F 00 00 A6 16 00 00
1548953504.537765,can1 00111111 [8] 5F 1F 00 00 AB 16 00 00
1548953504.555293,can1 00111111 [8] 69 1F 00 00 B0 16 00 00
1548953504.558045,can1 00111111 [8] 6A 1F 00 00 B1 16 00 00
1548953504.558759,can1 00111111 [8] 6B 1F 00 00 B1 16 00 00
1548953504.559301,can1 00111111 [8] 6C 1F 00 00 B2 16 00 00
1548953504.564171,can1 00111111 [8] 6D 1F 00 00 B3 16 00 00
1548953504.570101,can1 00111111 [8] 83 1F 00 00 BF 16 00 00
1548953504.570754,can1 00111111 [8] 85 1F 00 00 C0 16 00 00
1548953504.571309,can1 00111111 [8] 86 1F 00 00 C1 16 00 00
1548953504.571911,can1 00111111 [8] 87 1F 00 00 C1 16 00 00
1548953504.572426,can1 00111111 [8] 88 1F 00 00 C2 16 00 00
1548953504.572921,can1 00111111 [8] 89 1F 00 00 C2 16 00 00
1548953504.57865,can1 00111111 [8] 96 1F 00 00 CA 16 00 00
1548953504.590632,can1 00111111 [8] 9E 1F 00 00 CE 16 00 00
1548953504.591567,can1 00111111 [8] A0 1F 00 00 CF 16 00 00
1548953504.592165,can1 00111111 [8] A1 1F 00 00 D0 16 00 00
1548953504.592705,can1 00111111 [8] AB 1F 00 00 D5 16 00 00
1548953504.593298,can1 00111111 [8] B5 1F 00 00 DB 16 00 00
1548953504.593824,can1 00111111 [8] B6 1F 00 00 DC 16 00 00
1548953504.594319,can1 00111111 [8] B7 1F 00 00 DC 16 00 00
1548953504.594735,can1 00111111 [8] B8 1F 00 00 DD 16 00 00
1548953504.610646,can1 00111111 [8] B9 1F 00 00 DD 16 00 00
1548953504.611495,can1 00111111 [8] E6 1F 00 00 F6 16 00 00
1548953504.612108,can1 00111111 [8] F2 1F 00 00 FD 16 00 00
1548953504.612775,can1 00111111 [8] F3 1F 00 00 FE 16 00 00
1548953504.613327,can1 00111111 [8] F4 1F 00 00 FE 16 00 00
1548953504.613784,can1 00111111 [8] 12 20 00 00 0F 17 00 00
1548953504.614279,can1 00111111 [8] 19 20 00 00 13 17 00 00
1548953504.625496,can1 00111111 [8] 1A 20 00 00 14 17 00 00
1548953504.626405,can1 00111111 [8] 32 20 00 00 21 17 00 00
1548953504.627006,can1 00111111 [8] 3E 20 00 00 28 17 00 00
1548953504.627533,can1 00111111 [8] 3F 20 00 00 29 17 00 00
1548953504.628028,can1 00111111 [8] 40 20 00 00 29 17 00 00
1548953504.641676,can1 00111111 [8] 63 20 00 00 3D 17 00 00
1548953504.642595,can1 00111111 [8] 6B 20 00 00 41 17 00 00
1548953504.643183,can1 00111111 [8] 6D 20 00 00 42 17 00 00
1548953504.643779,can1 00111111 [8] 6E 20 00 00 43 17 00 00
1548953504.64433,can1 00111111 [8] 8C 20 00 00 54 17 00 00
1548953504.644832,can1 00111111 [8] 98 20 00 00 5B 17 00 00
1548953504.645318,can1 00111111 [8] 99 20 00 00 5B 17 00 00
1548953504.652446,can1 00111111 [8] 9A 20 00 00 5C 17 00 00
1548953504.660806,can1 00111111 [8] 9B 20 00 00 5C 17 00 00
1548953504.661662,can1 00111111 [8] C5 20 00 00 74 17 00 00
1548953504.662234,can1 00111111 [8] C7 20 00 00 75 17 00 00
1548953504.662747,can1 00111111 [8] C8 20 00 00 75 17 00 00
1548953504.66802,can1 00111111 [8] C9 20 00 00 76 17 00 00
1548953504.674695,can1 00111111 [8] F6 20 00 00 8F 17 00 00
1548953504.675537,can1 00111111 [8] F8 20 00 00 90 17 00 00
1548953504.676109,can1 00111111 [8] F9 20 00 00 91 17 00 00
1548953504.67662,can1 00111111 [8] 14 21 00 00 A0 17 00 00
1548953504.684737,can1 00111111 [8] 16 21 00 00 A1 17 00 00
1548953504.686904,can1 00111111 [8] 17 21 00 00 A2 17 00 00
1548953504.687529,can1 00111111 [8] 18 21 00 00 A2 17 00 00
1548953504.688074,can1 00111111 [8] 2B 21 00 00 AD 17 00 00
1548953504.688583,can1 00111111 [8] 36 21 00 00 B3 17 00 00
1548953504.69883,can1 00111111 [8] 38 21 00 00 B4 17 00 00
1548953504.699521,can1 00111111 [8] 39 21 00 00 B5 17 00 00
1548953504.700072,can1 00111111 [8] 57 21 00 00 C5 17 00 00
1548953504.705881,can1 00111111 [8] 6D 21 00 00 D2 17 00 00
1548953504.710305,can1 00111111 [8] 7F 21 00 00 DC 17 00 00
1548953504.710927,can1 00111111 [8] 80 21 00 00 DC 17 00 00
1548953504.711462,can1 00111111 [8] 81 21 00 00 DD 17 00 00
1548953504.71198,can1 00111111 [8] 82 21 00 00 DD 17 00 00
1548953504.722497,can1 00111111 [8] A4 21 00 00 F0 17 00 00
1548953504.723301,can1 00111111 [8] A5 21 00 00 F1 17 00 00
1548953504.723936,can1 00111111 [8] A6 21 00 00 F1 17 00 00
1548953504.724485,can1 00111111 [8] A7 21 00 00 F2 17 00 00
1548953504.724994,can1 00111111 [8] A8 21 00 00 F2 17 00 00
1548953504.725493,can1 00111111 [8] AF 21 00 00 F6 17 00 00
1548953504.732586,can1 00111111 [8] C4 21 00 00 02 18 00 00
1548953504.742908,can1 00111111 [8] C6 21 00 00 03 18 00 00
1548953504.743739,can1 00111111 [8] C7 21 00 00 04 18 00 00
1548953504.744412,can1 00111111 [8] C8 21 00 00 04 18 00 00
1548953504.744938,can1 00111111 [8] D1 21 00 00 09 18 00 00
1548953504.745505,can1 00111111 [8] DD 21 00 00 10 18 00 00
1548953504.74597,can1 00111111 [8] DF 21 00 00 11 18 00 00
1548953504.746465,can1 00111111 [8] E0 21 00 00 12 18 00 00
1548953504.746947,can1 00111111 [8] E1 21 00 00 12 18 00 00
1548953504.756579,can1 00111111 [8] F2 21 00 00 1C 18 00 00
1548953504.761538,can1 00111111 [8] F4 21 00 00 1D 18 00 00
1548953504.762163,can1 00111111 [8] F5 21 00 00 1D 18 00 00
1548953504.762721,can1 00111111 [8] F6 21 00 00 1E 18 00 00
1548953504.763389,can1 00111111 [8] 08 22 00 00 28 18 00 00
1548953504.763836,can1 00111111 [8] 09 22 00 00 29 18 00 00
1548953504.764321,can1 00111111 [8] 0B 22 00 00 2A 18 00 00
1548953504.770501,can1 00111111 [8] 0C 22 00 00 2A 18 00 00
1548953504.779006,can1 00111111 [8] 0D 22 00 00 2B 18 00 00
1548953504.779813,can1 00111111 [8] 0E 22 00 00 2B 18 00 00
1548953504.780452,can1 00111111 [8] 0F 22 00 00 2C 18 00 00
1548953504.781016,can1 00111111 [8] 26 22 00 00 39 18 00 00
1548953504.78152,can1 00111111 [8] 28 22 00 00 3A 18 00 00
1548953504.782009,can1 00111111 [8] 29 22 00 00 3B 18 00 00
1548953504.788502,can1 00111111 [8] 2A 22 00 00 3B 18 00 00
1548953504.812795,can1 00111111 [8] 35 22 00 00 41 18 00 00
1548953504.813803,can1 00111111 [8] 3F 22 00 00 47 18 00 00
1548953504.814426,can1 00111111 [8] 40 22 00 00 48 18 00 00
1548953504.814949,can1 00111111 [8] 41 22 00 00 48 18 00 00
1548953504.815455,can1 00111111 [8] 42 22 00 00 49 18 00 00
1548953504.848043,can1 00111111 [8] 51 22 00 00 51 18 00 00
1548953504.853567,can1 00111111 [8] 52 22 00 00 52 18 00 00
1548953504.854213,can1 00111111 [8] 53 22 00 00 52 18 00 00
1548953504.862352,can1 00111111 [8] 54 22 00 00 53 18 00 00
1548953504.863296,can1 00111111 [8] 55 22 00 00 53 18 00 00
1548953504.863878,can1 00111111 [8] 56 22 00 00 54 18 00 00
1548953504.874891,can1 00111111 [8] 57 22 00 00 54 18 00 00
1548953504.891264,can1 00111111 [8] 63 22 00 00 5B 18 00 00
1548953504.892087,can1 00111111 [8] 71 22 00 00 63 18 00 00
1548953504.892683,can1 00111111 [8] 72 22 00 00 63 18 00 00
1548953504.893208,can1 00111111 [8] 73 22 00 00 64 18 00 00
1548953504.912371,can1 00111111 [8] 74 22 00 00 65 18 00 00
1548953504.917283,can1 00111111 [8] 75 22 00 00 65 18 00 00
1548953504.917956,can1 00111111 [8] 76 22 00 00 66 18 00 00
1548953504.918516,can1 00111111 [8] 77 22 00 00 66 18 00 00
1548953504.91904,can1 00111111 [8] 93 22 00 00 76 18 00 00
1548953504.939671,can1 00111111 [8] 95 22 00 00 77 18 00 00
1548953504.94033,can1 00111111 [8] 96 22 00 00 78 18 00 00
1548953504.956105,can1 00111111 [8] A5 22 00 00 80 18 00 00
1548953504.956942,can1 00111111 [8] A6 22 00 00 80 18 00 00
1548953504.957521,can1 00111111 [8] A7 22 00 00 81 18 00 00
1548953504.958039,can1 00111111 [8] A9 22 00 00 82 18 00 00
1548953504.975699,can1 00111111 [8] AA 22 00 00 83 18 00 00
1548953504.976486,can1 00111111 [8] AB 22 00 00 83 18 00 00
1548953504.977044,can1 00111111 [8] AC 22 00 00 84 18 00 00
1548953504.977567,can1 00111111 [8] BB 22 00 00 8C 18 00 00
1548953505.000566,can1 00111111 [8] C5 22 00 00 92 18 00 00
1548953505.00138,can1 00111111 [8] C6 22 00 00 92 18 00 00
1548953505.00198,can1 00111111 [8] C7 22 00 00 93 18 00 00
1548953505.002507,can1 00111111 [8] D6 22 00 00 9B 18 00 00
1548953505.003005,can1 00111111 [8] D7 22 00 00 9C 18 00 00
1548953505.025223,can1 00111111 [8] D8 22 00 00 9C 18 00 00
1548953505.025923,can1 00111111 [8] DF 22 00 00 A0 18 00 00
1548953505.037607,can1 00111111 [8] E9 22 00 00 A6 18 00 00
1548953505.040372,can1 00111111 [8] EA 22 00 00 A6 18 00 00
1548953505.041091,can1 00111111 [8] EB 22 00 00 A7 18 00 00
1548953505.042097,can1 00111111 [8] EC 22 00 00 A8 18 00 00
1548953505.059478,can1 00111111 [8] ED 22 00 00 A8 18 00 00
1548953505.060299,can1 00111111 [8] F6 22 00 00 AD 18 00 00
1548953505.060872,can1 00111111 [8] 02 23 00 00 B4 18 00 00
1548953505.061386,can1 00111111 [8] 0A 23 00 00 B8 18 00 00
1548953505.067866,can1 00111111 [8] 0B 23 00 00 B9 18 00 00
1548953505.075091,can1 00111111 [8] 0C 23 00 00 B9 18 00 00
1548953505.075939,can1 00111111 [8] 0D 23 00 00 BA 18 00 00
1548953505.076512,can1 00111111 [8] 25 23 00 00 C7 18 00 00
1548953505.077036,can1 00111111 [8] 2D 23 00 00 CC 18 00 00
1548953505.085678,can1 00111111 [8] 2F 23 00 00 CD 18 00 00
1548953505.090873,can1 00111111 [8] 30 23 00 00 CE 18 00 00
1548953505.091612,can1 00111111 [8] 31 23 00 00 CE 18 00 00
1548953505.092162,can1 00111111 [8] 32 23 00 00 CF 18 00 00
1548953505.092666,can1 00111111 [8] 33 23 00 00 CF 18 00 00
1548953505.101739,can1 00111111 [8] 34 23 00 00 D0 18 00 00
1548953505.103887,can1 00111111 [8] 6E 23 00 00 F0 18 00 00
1548953505.104504,can1 00111111 [8] 70 23 00 00 F1 18 00 00
1548953505.105127,can1 00111111 [8] 71 23 00 00 F2 18 00 00
1548953505.105659,can1 00111111 [8] 72 23 00 00 F3 18 00 00
1548953505.106161,can1 00111111 [8] 82 23 00 00 FB 18 00 00
1548953505.112381,can1 00111111 [8] 83 23 00 00 FC 18 00 00
