1549255111.2335,can1 18F0010B [8] CF FF F0 FF FF DC FF FF
1549255111.246529,can1 18FEBF0B [8] 00 00 7D 7D 7D 7D FF FF
1549255111.31452,can1 18F0010B [8] CF FF F0 FF FF DC FF FF
1549255111.323896,can1 18FEBF0B [8] 00 00 7D 7D 7D 7D FF FF
1549255111.414168,can1 18F0010B [8] CF FF F0 FF FF DC FF FF
1549255111.42846,can1 18FEBF0B [8] 00 00 7D 7D 7D 7D FF FF
1549255111.514385,can1 18F0010B [8] CF FF F0 FF FF DC FF FF
1549255111.524282,can1 18FEBF0B [8] 00 00 7D 7D 7D 7D FF FF
1549255111.614459,can1 18F0010B [8] CF FF F0 FF FF DC FF FF
1549255111.624318,can1 18FEBF0B [8] 00 00 7D 7D 7D 7D FF FF
1549255111.714463,can1 18F0010B [8] CF FF F0 FF FF DC FF FF
1549255111.724419,can1 18FEBF0B [8] 00 00 7D 7D 7D 7D FF FF
1549255111.814634,can1 18F0010B [8] CF FF F0 FF FF DC FF FF
1549255111.824528,can1 18FEBF0B [8] 00 00 7D 7D 7D 7D FF FF
1549255111.840718,can1 18ECFFFA [8] 20 1D 00 05 FF EB FE 00
1549255111.844071,can1 18EBFFFA [8] 01 20 53 59 4E 45 52 2A
1549255111.845547,can1 18EBFFFA [8] 02 53 53 53 32 2D 30 35
1549255111.847,can1 18EBFFFA [8] 03 2A 30 30 38 31 2A 55
1549255111.858416,can1 18EBFFFA [8] 04 4E 49 56 45 52 53 41
1549255111.860131,can1 18EBFFFA [8] 05 4C FF FF FF FF FF FF
1549255111.914726,can1 18F0010B [8] CF FF F0 FF FF DC FF FF
1549255111.928305,can1 18FEBF0B [8] 00 00 7D 7D 7D 7D FF FF
1549255112.016406,can1 18F0010B [8] CF FF F0 FF FF DC FF FF
1549255112.024969,can1 18FEBF0B [8] 00 00 7D 7D 7D 7D FF FF
1549255112.114222,can1 18F0010B [8] CF FF F0 FF FF DC FF FF
1549255112.125366,can1 18FEBF0B [8] 00 00 7D 7D 7D 7D FF FF
1549255112.214342,can1 18F0010B [8] CF FF F0 FF FF DC FF FF
1549255112.225023,can1 18FEBF0B [8] 00 00 7D 7D 7D 7D FF FF
1549255112.315413,can1 18F0010B [8] CF FF F0 FF FF DC FF FF
1549255112.326875,can1 18FEBF0B [8] 00 00 7D 7D 7D 7D FF FF
1549255112.414536,can1 18F0010B [8] CF FF F0 FF FF DC FF FF
1549255112.432388,can1 18FEBF0B [8] 00 00 7D 7D 7D 7D FF FF
1549255112.516498,can1 18F0010B [8] CF FF F0 FF FF DC FF FF
1549255112.527934,can1 18FEBF0B [8] 00 00 7D 7D 7D 7D FF FF
1549255112.615679,can1 18F0010B [8] CF FF F0 FF FF DC FF FF
1549255112.625416,can1 18FEBF0B [8] 00 00 7D 7D 7D 7D FF FF
1549255112.714902,can1 18F0010B [8] CF FF F0 FF FF DC FF FF
1549255112.725733,can1 18FEBF0B [8] 00 00 7D 7D 7D 7D FF FF
1549255112.815598,can1 18F0010B [8] CF FF F0 FF FF DC FF FF
1549255112.825567,can1 18FEBF0B [8] 00 00 7D 7D 7D 7D FF FF
1549255112.861081,can1 18ECFFFA [8] 20 1C 00 04 FF EB FE 00
1549255112.862837,can1 18EBFFFA [8] 01 53 59 4E 45 52 2A 53
1549255112.866114,can1 18EBFFFA [8] 02 53 53 32 2D 30 32 2A
1549255112.868654,can1 18EBFFFA [8] 03 58 58 58 58 2A 55 4E
1549255112.870152,can1 18EBFFFA [8] 04 49 56 45 52 53 41 4C
1549255112.914358,can1 18F0010B [8] CF FF F0 FF FF DC FF FF
1549255112.930273,can1 18FEBF0B [8] 00 00 7D 7D 7D 7D FF FF
1549255112.948133,can1 00111111 [8] 00 00 00 00 14 05 00 00
1549255112.955485,can1 00111111 [8] 01 00 00 00 14 05 00 00
1549255112.985783,can1 00111111 [8] 02 00 00 00 14 05 00 00
1549255113.004472,can1 00111111 [8] 03 00 00 00 14 05 00 00
1549255113.007155,can1 00111111 [8] 04 00 00 00 15 05 00 00
1549255113.040185,can1 00111111 [8] 05 00 00 00 15 05 00 00
1549255113.062335,can1 00111111 [8] 06 00 00 00 16 05 00 00
1549255113.112575,can1 00111111 [8] 07 00 00 00 16 05 00 00
1549255113.138942,can1 00111111 [8] 08 00 00 00 17 05 00 00
1549255113.168878,can1 00111111 [8] 09 00 00 00 18 05 00 00
1549255113.190979,can1 00111111 [8] 0A 00 00 00 18 05 00 00
1549255113.198326,can1 00111111 [8] 0B 00 00 00 19 05 00 00
1549255113.23598,can1 00111111 [8] 0C 00 00 00 19 05 00 00
1549255113.279922,can1 00111111 [8] 0D 00 00 00 1A 05 00 00
1549255113.299786,can1 00111111 [8] 0E 00 00 00 1A 05 00 00
1549255113.332656,can1 00111111 [8] 0F 00 00 00 1B 05 00 00
1549255113.354898,can1 00111111 [8] 10 00 00 00 1C 05 00 00
1549255113.390393,can1 00111111 [8] 11 00 00 00 1C 05 00 00
1549255113.414694,can1 00111111 [8] 12 00 00 00 1D 05 00 00
1549255113.432839,can1 00111111 [8] 13 00 00 00 1D 05 00 00
1549255113.451448,can1 00111111 [8] 14 00 00 00 1E 05 00 00
1549255113.452295,can1 00111111 [8] 15 00 00 00 1E 05 00 00
1549255113.452951,can1 00111111 [8] 16 00 00 00 1F 05 00 00
1549255113.463828,can1 00111111 [8] 17 00 00 00 20 05 00 00
1549255113.464445,can1 00111111 [8] 18 00 00 00 20 05 00 00
1549255113.478166,can1 00111111 [8] 19 00 00 00 21 05 00 00
1549255113.479111,can1 00111111 [8] 1A 00 00 00 21 05 00 00
1549255113.479701,can1 00111111 [8] 1B 00 00 00 22 05 00 00
1549255113.480226,can1 00111111 [8] 1C 00 00 00 22 05 00 00
1549255113.507287,can1 00111111 [8] 1D 00 00 00 23 05 00 00
1549255113.52002,can1 00111111 [8] 1E 00 00 00 24 05 00 00
1549255113.520791,can1 00111111 [8] 1F 00 00 00 24 05 00 00
1549255113.538229,can1 00111111 [8] 20 00 00 00 25 05 00 00
1549255113.539391,can1 00111111 [8] 21 00 00 00 25 05 00 00
1549255113.54003,can1 00111111 [8] 22 00 00 00 26 05 00 00
1549255113.540568,can1 00111111 [8] 23 00 00 00 26 05 00 00
1549255113.567119,can1 00111111 [8] 24 00 00 00 27 05 00 00
1549255113.568052,can1 00111111 [8] 25 00 00 00 28 05 00 00
1549255113.568758,can1 00111111 [8] 26 00 00 00 28 05 00 00
1549255113.569292,can1 00111111 [8] 27 00 00 00 29 05 00 00
1549255113.569792,can1 00111111 [8] 28 00 00 00 29 05 00 00
1549255113.578532,can1 00111111 [8] 29 00 00 00 2A 05 00 00
1549255113.579459,can1 00111111 [8] 2A 00 00 00 2A 05 00 00
1549255113.580139,can1 00111111 [8] 2B 00 00 00 2B 05 00 00
1549255113.580702,can1 00111111 [8] 2C 00 00 00 2C 05 00 00
1549255113.581206,can1 00111111 [8] 2D 00 00 00 2C 05 00 00
1549255113.581687,can1 00111111 [8] 2E 00 00 00 2D 05 00 00
1549255113.592061,can1 00111111 [8] 2F 00 00 00 2D 05 00 00
1549255113.592897,can1 00111111 [8] 30 00 00 00 2E 05 00 00
1549255113.593457,can1 00111111 [8] 31 00 00 00 2E 05 00 00
1549255113.598216,can1 00111111 [8] 32 00 00 00 2F 05 00 00
1549255113.59889,can1 00111111 [8] 33 00 00 00 30 05 00 00
1549255113.599426,can1 00111111 [8] 34 00 00 00 30 05 00 00
1549255113.600021,can1 00111111 [8] 35 00 00 00 31 05 00 00
1549255113.600525,can1 00111111 [8] 36 00 00 00 31 05 00 00
1549255113.601006,can1 00111111 [8] 37 00 00 00 32 05 00 00
1549255113.611247,can1 00111111 [8] 38 00 00 00 32 05 00 00
1549255113.612248,can1 00111111 [8] 39 00 00 00 33 05 00 00
1549255113.612872,can1 00111111 [8] 3A 00 00 00 34 05 00 00
1549255113.61349,can1 00111111 [8] 3B 00 00 00 34 05 00 00
1549255113.61403,can1 00111111 [8] 3C 00 00 00 35 05 00 00
1549255113.614534,can1 00111111 [8] 3D 00 00 00 35 05 00 00
1549255113.61502,can1 00111111 [8] 3E 00 00 00 36 05 00 00
1549255113.629005,can1 00111111 [8] 3F 00 00 00 36 05 00 00
1549255113.629673,can1 00111111 [8] 40 00 00 00 37 05 00 00
1549255113.630226,can1 00111111 [8] 41 00 00 00 38 05 00 00
1549255113.637503,can1 00111111 [8] 42 00 00 00 38 05 00 00
1549255113.638513,can1 00111111 [8] 43 00 00 00 39 05 00 00
1549255113.639209,can1 00111111 [8] 44 00 00 00 39 05 00 00
1549255113.639747,can1 00111111 [8] 45 00 00 00 3A 05 00 00
1549255113.640249,can1 00111111 [8] 46 00 00 00 3A 05 00 00
1549255113.647798,can1 00111111 [8] 47 00 00 00 3B 05 00 00
1549255113.648728,can1 00111111 [8] 48 00 00 00 3C 05 00 00
1549255113.649324,can1 00111111 [8] 49 00 00 00 3C 05 00 00
1549255113.649854,can1 00111111 [8] 4A 00 00 00 3D 05 00 00
1549255113.65815,can1 00111111 [8] 4B 00 00 00 3D 05 00 00
1549255113.659058,can1 00111111 [8] 4C 00 00 00 3E 05 00 00
1549255113.659669,can1 00111111 [8] 4D 00 00 00 3E 05 00 00
1549255113.660353,can1 00111111 [8] 4E 00 00 00 3F 05 00 00
1549255113.660884,can1 00111111 [8] 4F 00 00 00 3F 05 00 00
1549255113.661333,can1 00111111 [8] 50 00 00 00 40 05 00 00
1549255113.661829,can1 00111111 [8] 51 00 00 00 41 05 00 00
1549255113.673667,can1 00111111 [8] 52 00 00 00 41 05 00 00
1549255113.674579,can1 00111111 [8] 53 00 00 00 42 05 00 00
1549255113.675156,can1 00111111 [8] 54 00 00 00 42 05 00 00
1549255113.675738,can1 00111111 [8] 55 00 00 00 43 05 00 00
1549255113.676271,can1 00111111 [8] 56 00 00 00 43 05 00 00
1549255113.676768,can1 00111111 [8] 57 00 00 00 44 05 00 00
1549255113.686894,can1 00111111 [8] 58 00 00 00 45 05 00 00
1549255113.695987,can1 00111111 [8] 59 00 00 00 45 05 00 00
1549255113.696792,can1 00111111 [8] 5A 00 00 00 46 05 00 00
1549255113.703612,can1 00111111 [8] 5B 00 00 00 46 05 00 00
1549255113.704411,can1 00111111 [8] 5C 00 00 00 47 05 00 00
1549255113.705076,can1 00111111 [8] 5D 00 00 00 47 05 00 00
1549255113.705625,can1 00111111 [8] 5E 00 00 00 48 05 00 00
1549255113.706138,can1 00111111 [8] 5F 00 00 00 49 05 00 00
1549255113.711768,can1 00111111 [8] 60 00 00 00 49 05 00 00
1549255113.717683,can1 00111111 [8] 61 00 00 00 4A 05 00 00
1549255113.718363,can1 00111111 [8] 62 00 00 00 4A 05 00 00
1549255113.718993,can1 00111111 [8] 63 00 00 00 4B 05 00 00
1549255113.719542,can1 00111111 [8] 64 00 00 00 4B 05 00 00
1549255113.720036,can1 00111111 [8] 65 00 00 00 4C 05 00 00
1549255113.720513,can1 00111111 [8] 66 00 00 00 4D 05 00 00
1549255113.732004,can1 00111111 [8] 67 00 00 00 4D 05 00 00
1549255113.738023,can1 00111111 [8] 68 00 00 00 4E 05 00 00
1549255113.738777,can1 00111111 [8] 69 00 00 00 4E 05 00 00
1549255113.739336,can1 00111111 [8] 6A 00 00 00 4F 05 00 00
1549255113.73985,can1 00111111 [8] 6B 00 00 00 4F 05 00 00
1549255113.750614,can1 00111111 [8] 6C 00 00 00 50 05 00 00
1549255113.752745,can1 00111111 [8] 6D 00 00 00 50 05 00 00
1549255113.75336,can1 00111111 [8] 6E 00 00 00 51 05 00 00
1549255113.753962,can1 00111111 [8] 6F 00 00 00 52 05 00 00
1549255113.754499,can1 00111111 [8] 70 00 00 00 52 05 00 00
1549255113.754993,can1 00111111 [8] 71 00 00 00 53 05 00 00
1549255113.755496,can1 00111111 [8] 72 00 00 00 53 05 00 00
1549255113.764638,can1 00111111 [8] 73 00 00 00 54 05 00 00
1549255113.771677,can1 00111111 [8] 74 00 00 00 54 05 00 00
1549255113.772393,can1 00111111 [8] 75 00 00 00 55 05 00 00
1549255113.772944,can1 00111111 [8] 76 00 00 00 56 05 00 00
1549255113.773521,can1 00111111 [8] 77 00 00 00 56 05 00 00
1549255113.774044,can1 00111111 [8] 78 00 00 00 57 05 00 00
1549255113.774545,can1 00111111 [8] 79 00 00 00 57 05 00 00
1549255113.77503,can1 00111111 [8] 7A 00 00 00 58 05 00 00
1549255113.787213,can1 00111111 [8] 7B 00 00 00 58 05 00 00
1549255113.788047,can1 00111111 [8] 7C 00 00 00 59 05 00 00
1549255113.788624,can1 00111111 [8] 7D 00 00 00 5A 05 00 00
1549255113.789219,can1 00111111 [8] 7E 00 00 00 5A 05 00 00
1549255113.789739,can1 00111111 [8] 7F 00 00 00 5B 05 00 00
1549255113.790233,can1 00111111 [8] 80 00 00 00 5B 05 00 00
1549255113.790718,can1 00111111 [8] 81 00 00 00 5C 05 00 00
1549255113.801782,can1 00111111 [8] 82 00 00 00 5C 05 00 00
1549255113.807273,can1 00111111 [8] 83 00 00 00 5D 05 00 00
1549255113.807898,can1 00111111 [8] 84 00 00 00 5E 05 00 00
1549255113.808429,can1 00111111 [8] 85 00 00 00 5E 05 00 00
1549255113.81676,can1 00111111 [8] 86 00 00 00 5F 05 00 00
1549255113.817431,can1 00111111 [8] 87 00 00 00 5F 05 00 00
1549255113.817984,can1 00111111 [8] 88 00 00 00 60 05 00 00
1549255113.827772,can1 00111111 [8] 89 00 00 00 60 05 00 00
1549255113.828806,can1 00111111 [8] 8A 00 00 00 61 05 00 00
1549255113.829411,can1 00111111 [8] 8B 00 00 00 62 05 00 00
1549255113.829995,can1 00111111 [8] 8C 00 00 00 62 05 00 00
1549255113.830533,can1 00111111 [8] 8D 00 00 00 63 05 00 00
1549255113.831031,can1 00111111 [8] 8E 00 00 00 63 05 00 00
1549255113.831521,can1 00111111 [8] 8F 00 00 00 64 05 00 00
1549255113.837381,can1 00111111 [8] 90 00 00 00 64 05 00 00
1549255113.844771,can1 00111111 [8] 91 00 00 00 65 05 00 00
1549255113.854921,can1 00111111 [8] 92 00 00 00 65 05 00 00
1549255113.85585,can1 00111111 [8] 93 00 00 00 66 05 00 00
1549255113.856443,can1 00111111 [8] 94 00 00 00 67 05 00 00
1549255113.856966,can1 00111111 [8] 95 00 00 00 67 05 00 00
1549255113.862768,can1 00111111 [8] 96 00 00 00 68 05 00 00
1549255113.867758,can1 00111111 [8] 97 00 00 00 68 05 00 00
1549255113.868384,can1 00111111 [8] 98 00 00 00 69 05 00 00
1549255113.868927,can1 00111111 [8] 99 00 00 00 69 05 00 00
1549255113.869514,can1 00111111 [8] 9A 00 00 00 6A 05 00 00
1549255113.870025,can1 00111111 [8] 9B 00 00 00 6B 05 00 00
1549255113.870517,can1 00111111 [8] 9C 00 00 00 6B 05 00 00
1549255113.875146,can1 00111111 [8] 9D 00 00 00 6C 05 00 00
1549255113.884585,can1 00111111 [8] 9E 00 00 00 6C 05 00 00
1549255113.885511,can1 00111111 [8] 9F 00 00 00 6D 05 00 00
1549255113.886109,can1 00111111 [8] A0 00 00 00 6D 05 00 00
1549255113.886713,can1 00111111 [8] A1 00 00 00 6E 05 00 00
1549255113.887246,can1 00111111 [8] A2 00 00 00 6F 05 00 00
1549255113.887752,can1 00111111 [8] A3 00 00 00 6F 05 00 00
1549255113.888234,can1 00111111 [8] A4 00 00 00 70 05 00 00
1549255113.895989,can1 00111111 [8] A5 00 00 00 70 05 00 00
1549255113.903076,can1 00111111 [8] A6 00 00 00 71 05 00 00
1549255113.903724,can1 00111111 [8] A7 00 00 00 71 05 00 00
1549255113.904342,can1 00111111 [8] A8 00 00 00 72 05 00 00
1549255113.90489,can1 00111111 [8] A9 00 00 00 73 05 00 00
1549255113.905409,can1 00111111 [8] AA 00 00 00 73 05 00 00
1549255113.905893,can1 00111111 [8] AB 00 00 00 74 05 00 00
1549255113.912829,can1 00111111 [8] AC 00 00 00 74 05 00 00
1549255113.944354,can1 00111111 [8] AD 00 00 00 75 05 00 00
1549255113.947193,can1 00111111 [8] AE 00 00 00 75 05 00 00
1549255113.947907,can1 00111111 [8] AF 00 00 00 76 05 00 00
1549255113.948455,can1 00111111 [8] B0 00 00 00 76 05 00 00
1549255113.948912,can1 00111111 [8] B1 00 00 00 77 05 00 00
1549255113.961197,can1 00111111 [8] B2 00 00 00 78 05 00 00
1549255113.96189,can1 00111111 [8] B3 00 00 00 78 05 00 00
1549255113.962446,can1 00111111 [8] B4 00 00 00 79 05 00 00
1549255113.978947,can1 00111111 [8] B5 00 00 00 79 05 00 00
1549255113.97974,can1 00111111 [8] B6 00 00 00 7A 05 00 00
1549255113.980312,can1 00111111 [8] B7 00 00 00 7A 05 00 00
1549255114.00905,can1 00111111 [8] B8 00 00 00 7B 05 00 00
1549255114.018986,can1 00111111 [8] B9 00 00 00 7C 05 00 00
1549255114.024495,can1 00111111 [8] BA 00 00 00 7C 05 00 00
1549255114.025239,can1 00111111 [8] BB 00 00 00 7D 05 00 00
1549255114.049486,can1 00111111 [8] BC 00 00 00 7D 05 00 00
1549255114.050347,can1 00111111 [8] BD 00 00 00 7E 05 00 00
1549255114.065299,can1 00111111 [8] BE 00 00 00 7E 05 00 00
1549255114.066123,can1 00111111 [8] BF 00 00 00 7F 05 00 00
1549255114.077357,can1 00111111 [8] C0 00 00 00 80 05 00 00
1549255114.09826,can1 00111111 [8] C1 00 00 00 80 05 00 00
1549255114.100412,can1 00111111 [8] C2 00 00 00 81 05 00 00
1549255114.101061,can1 00111111 [8] C3 00 00 00 81 05 00 00
1549255114.114645,can1 00111111 [8] C4 00 00 00 82 05 00 00
1549255114.121258,can1 00111111 [8] C5 00 00 00 82 05 00 00
1549255114.12192,can1 00111111 [8] C6 00 00 00 83 05 00 00
1549255114.122468,can1 00111111 [8] C7 00 00 00 84 05 00 00
1549255114.142112,can1 00111111 [8] C8 00 00 00 84 05 00 00
1549255114.150075,can1 00111111 [8] C9 00 00 00 85 05 00 00
1549255114.150834,can1 00111111 [8] CA 00 00 00 85 05 00 00
1549255114.151405,can1 00111111 [8] CB 00 00 00 86 05 00 00
1549255114.151921,can1 00111111 [8] CC 00 00 00 86 05 00 00
1549255114.167795,can1 00111111 [8] CD 00 00 00 87 05 00 00
1549255114.174335,can1 00111111 [8] CE 00 00 00 88 05 00 00
1549255114.175017,can1 00111111 [8] CF 00 00 00 88 05 00 00
1549255114.175569,can1 00111111 [8] D0 00 00 00 89 05 00 00
1549255114.196933,can1 00111111 [8] D1 00 00 00 89 05 00 00
1549255114.197844,can1 00111111 [8] D2 00 00 00 8A 05 00 00
1549255114.198431,can1 00111111 [8] D3 00 00 00 8A 05 00 00
1549255114.205028,can1 00111111 [8] D4 00 00 00 8B 05 00 00
1549255114.205758,can1 00111111 [8] D5 00 00 00 8B 05 00 00
1549255114.206319,can1 00111111 [8] D6 00 00 00 8C 05 00 00
1549255114.206838,can1 00111111 [8] D7 00 00 00 8D 05 00 00
1549255114.216557,can1 00111111 [8] D8 00 00 00 8D 05 00 00
1549255114.217419,can1 00111111 [8] D9 00 00 00 8E 05 00 00
1549255114.217981,can1 00111111 [8] DA 00 00 00 8E 05 00 00
1549255114.218502,can1 00111111 [8] DB 00 00 00 8F 05 00 00
1549255114.229877,can1 00111111 [8] DC 00 00 00 8F 05 00 00
1549255114.230644,can1 00111111 [8] DD 00 00 00 90 05 00 00
1549255114.231216,can1 00111111 [8] DE 00 00 00 91 05 00 00
1549255114.232249,can1 00111111 [8] DF 00 00 00 91 05 00 00
1549255114.246206,can1 00111111 [8] E0 00 00 00 92 05 00 00
1549255114.247026,can1 00111111 [8] E1 00 00 00 92 05 00 00
1549255114.247677,can1 00111111 [8] E2 00 00 00 93 05 00 00
1549255114.248303,can1 00111111 [8] E3 00 00 00 93 05 00 00
1549255114.248838,can1 00111111 [8] E4 00 00 00 94 05 00 00
1549255114.249281,can1 00111111 [8] E5 00 00 00 95 05 00 00
1549255114.249767,can1 00111111 [8] E6 00 00 00 95 05 00 00
1549255114.263328,can1 00111111 [8] E7 00 00 00 96 05 00 00
1549255114.265461,can1 00111111 [8] E8 00 00 00 96 05 00 00
1549255114.266165,can1 00111111 [8] E9 00 00 00 97 05 00 00
1549255114.26672,can1 00111111 [8] EA 00 00 00 97 05 00 00
1549255114.267227,can1 00111111 [8] EB 00 00 00 98 05 00 00
1549255114.274635,can1 00111111 [8] EC 00 00 00 98 05 00 00
1549255114.279563,can1 00111111 [8] ED 00 00 00 99 05 00 00
1549255114.280192,can1 00111111 [8] EE 00 00 00 9A 05 00 00
1549255114.280725,can1 00111111 [8] EF 00 00 00 9A 05 00 00
1549255114.288251,can1 00111111 [8] F0 00 00 00 9B 05 00 00
1549255114.289224,can1 00111111 [8] F1 00 00 00 9B 05 00 00
1549255114.289838,can1 00111111 [8] F2 00 00 00 9C 05 00 00
1549255114.290382,can1 00111111 [8] F3 00 00 00 9C 05 00 00
1549255114.294093,can1 00111111 [8] F4 00 00 00 9D 05 00 00
1549255114.30111,can1 00111111 [8] F5 00 00 00 9E 05 00 00
1549255114.301821,can1 00111111 [8] F6 00 00 00 9E 05 00 00
1549255114.302375,can1 00111111 [8] F7 00 00 00 9F 05 00 00
1549255114.311188,can1 00111111 [8] F8 00 00 00 9F 05 00 00
1549255114.312015,can1 00111111 [8] F9 00 00 00 A0 05 00 00
1549255114.312759,can1 00111111 [8] FA 00 00 00 A0 05 00 00
1549255114.31331,can1 00111111 [8] FB 00 00 00 A1 05 00 00
1549255114.313757,can1 00111111 [8] FC 00 00 00 A1 05 00 00
1549255114.318711,can1 00111111 [8] FD 00 00 00 A2 05 00 00
1549255114.33024,can1 00111111 [8] FE 00 00 00 A3 05 00 00
1549255114.33106,can1 00111111 [8] FF 00 00 00 A3 05 00 00
1549255114.331649,can1 00111111 [8] 00 01 00 00 A4 05 00 00
1549255114.332329,can1 00111111 [8] 01 01 00 00 A4 05 00 00
1549255114.332788,can1 00111111 [8] 02 01 00 00 A5 05 00 00
1549255114.333291,can1 00111111 [8] 03 01 00 00 A5 05 00 00
1549255114.333777,can1 00111111 [8] 04 01 00 00 A6 05 00 00
1549255114.345092,can1 00111111 [8] 05 01 00 00 A7 05 00 00
1549255114.345982,can1 00111111 [8] 06 01 00 00 A7 05 00 00
1549255114.346561,can1 00111111 [8] 07 01 00 00 A8 05 00 00
1549255114.347078,can1 00111111 [8] 08 01 00 00 A8 05 00 00
1549255114.351169,can1 00111111 [8] 09 01 00 00 A9 05 00 00
1549255114.360647,can1 00111111 [8] 0A 01 00 00 A9 05 00 00
1549255114.361522,can1 00111111 [8] 0B 01 00 00 AA 05 00 00
1549255114.362112,can1 00111111 [8] 0C 01 00 00 AB 05 00 00
1549255114.362624,can1 00111111 [8] 0D 01 00 00 AB 05 00 00
1549255114.363137,can1 00111111 [8] 0E 01 00 00 AC 05 00 00
1549255114.373161,can1 00111111 [8] 0F 01 00 00 AC 05 00 00
1549255114.373847,can1 00111111 [8] 10 01 00 00 AD 05 00 00
1549255114.374392,can1 00111111 [8] 11 01 00 00 AD 05 00 00
1549255114.379129,can1 00111111 [8] 12 01 00 00 AE 05 00 00
1549255114.384947,can1 00111111 [8] 13 01 00 00 AF 05 00 00
1549255114.385613,can1 00111111 [8] 14 01 00 00 AF 05 00 00
1549255114.386146,can1 00111111 [8] 15 01 00 00 B0 05 00 00
1549255114.392017,can1 00111111 [8] 16 01 00 00 B0 05 00 00
1549255114.394174,can1 00111111 [8] 17 01 00 00 B1 05 00 00
1549255114.394878,can1 00111111 [8] 18 01 00 00 B1 05 00 00
1549255114.395429,can1 00111111 [8] 19 01 00 00 B2 05 00 00
1549255114.395938,can1 00111111 [8] 1A 01 00 00 B2 05 00 00
1549255114.403886,can1 00111111 [8] 1B 01 00 00 B3 05 00 00
1549255114.407552,can1 00111111 [8] 1C 01 00 00 B4 05 00 00
1549255114.40826,can1 00111111 [8] 1D 01 00 00 B4 05 00 00
1549255114.408815,can1 00111111 [8] 1E 01 00 00 B5 05 00 00
1549255114.409332,can1 00111111 [8] 1F 01 00 00 B5 05 00 00
1549255114.409812,can1 00111111 [8] 20 01 00 00 B6 05 00 00
1549255114.439138,can1 00111111 [8] 21 01 00 00 B6 05 00 00
1549255114.440248,can1 00111111 [8] 22 01 00 00 B7 05 00 00
1549255114.440863,can1 00111111 [8] 23 01 00 00 B8 05 00 00
1549255114.454052,can1 00111111 [8] 24 01 00 00 B8 05 00 00
1549255114.455035,can1 00111111 [8] 25 01 00 00 B9 05 00 00
1549255114.455672,can1 00111111 [8] 26 01 00 00 B9 05 00 00
1549255114.456217,can1 00111111 [8] 27 01 00 00 BA 05 00 00
1549255114.456725,can1 00111111 [8] 28 01 00 00 BA 05 00 00
1549255114.478129,can1 00111111 [8] 29 01 00 00 BB 05 00 00
1549255114.478976,can1 00111111 [8] 2A 01 00 00 BC 05 00 00
1549255114.479563,can1 00111111 [8] 2B 01 00 00 BC 05 00 00
1549255114.480085,can1 00111111 [8] 2C 01 00 00 BD 05 00 00
1549255114.501441,can1 00111111 [8] 2D 01 00 00 BD 05 00 00
1549255114.50235,can1 00111111 [8] 2E 01 00 00 BE 05 00 00
1549255114.502926,can1 00111111 [8] 2F 01 00 00 BE 05 00 00
1549255114.503445,can1 00111111 [8] 30 01 00 00 BF 05 00 00
1549255114.521669,can1 00111111 [8] 31 01 00 00 C0 05 00 00
1549255114.52263,can1 00111111 [8] 32 01 00 00 C0 05 00 00
1549255114.523257,can1 00111111 [8] 33 01 00 00 C1 05 00 00
1549255114.536528,can1 00111111 [8] 34 01 00 00 C1 05 00 00
1549255114.537264,can1 00111111 [8] 35 01 00 00 C2 05 00 00
1549255114.537824,can1 00111111 [8] 36 01 00 00 C2 05 00 00
1549255114.538346,can1 00111111 [8] 37 01 00 00 C3 05 00 00
1549255114.538843,can1 00111111 [8] 38 01 00 00 C4 05 00 00
1549255114.560242,can1 00111111 [8] 39 01 00 00 C4 05 00 00
1549255114.561059,can1 00111111 [8] 3A 01 00 00 C5 05 00 00
1549255114.561626,can1 00111111 [8] 3B 01 00 00 C5 05 00 00
1549255114.562078,can1 00111111 [8] 3C 01 00 00 C6 05 00 00
1549255114.578885,can1 00111111 [8] 3D 01 00 00 C6 05 00 00
1549255114.579661,can1 00111111 [8] 3E 01 00 00 C7 05 00 00
1549255114.594982,can1 00111111 [8] 3F 01 00 00 C7 05 00 00
1549255114.607713,can1 00111111 [8] 40 01 00 00 C8 05 00 00
1549255114.608418,can1 00111111 [8] 41 01 00 00 C9 05 00 00
1549255114.60898,can1 00111111 [8] 42 01 00 00 C9 05 00 00
1549255114.624519,can1 00111111 [8] 43 01 00 00 CA 05 00 00
1549255114.628659,can1 00111111 [8] 44 01 00 00 CA 05 00 00
1549255114.629422,can1 00111111 [8] 45 01 00 00 CB 05 00 00
1549255114.629974,can1 00111111 [8] 46 01 00 00 CB 05 00 00
1549255114.630493,can1 00111111 [8] 47 01 00 00 CC 05 00 00
1549255114.652349,can1 00111111 [8] 5B 01 00 00 D7 05 00 00
1549255114.653297,can1 00111111 [8] 95 01 00 00 F8 05 00 00
1549255114.653913,can1 00111111 [8] BC 01 00 00 0E 06 00 00
1549255114.66617,can1 00111111 [8] C9 01 00 00 15 06 00 00
1549255114.666964,can1 00111111 [8] 0C 02 00 00 3B 06 00 00
1549255114.667549,can1 00111111 [8] 36 02 00 00 53 06 00 00
1549255114.675345,can1 00111111 [8] 7D 02 00 00 7B 06 00 00
1549255114.676277,can1 00111111 [8] 9B 02 00 00 8C 06 00 00
1549255114.676865,can1 00111111 [8] DF 02 00 00 B2 06 00 00
1549255114.677392,can1 00111111 [8] 03 03 00 00 C6 06 00 00
1549255114.687061,can1 00111111 [8] 22 03 00 00 D8 06 00 00
1549255114.687927,can1 00111111 [8] 69 03 00 00 00 07 00 00
1549255114.688595,can1 00111111 [8] 6B 03 00 00 01 07 00 00
1549255114.689062,can1 00111111 [8] 8C 03 00 00 14 07 00 00
1549255114.696381,can1 00111111 [8] 8D 03 00 00 14 07 00 00
1549255114.703427,can1 00111111 [8] A0 03 00 00 1F 07 00 00
1549255114.704081,can1 00111111 [8] A2 03 00 00 20 07 00 00
1549255114.704625,can1 00111111 [8] BA 03 00 00 2E 07 00 00
1549255114.705192,can1 00111111 [8] BC 03 00 00 2F 07 00 00
1549255114.70571,can1 00111111 [8] BD 03 00 00 2F 07 00 00
1549255114.706207,can1 00111111 [8] BE 03 00 00 30 07 00 00
1549255114.706689,can1 00111111 [8] EE 03 00 00 4B 07 00 00
1549255114.718669,can1 00111111 [8] 04 04 00 00 57 07 00 00
1549255114.719552,can1 00111111 [8] 06 04 00 00 58 07 00 00
1549255114.720155,can1 00111111 [8] 07 04 00 00 59 07 00 00
1549255114.720751,can1 00111111 [8] 26 04 00 00 6A 07 00 00
1549255114.721295,can1 00111111 [8] 28 04 00 00 6C 07 00 00
1549255114.7218,can1 00111111 [8] 29 04 00 00 6C 07 00 00
1549255114.722234,can1 00111111 [8] 57 04 00 00 86 07 00 00
1549255114.733446,can1 00111111 [8] 59 04 00 00 87 07 00 00
1549255114.740421,can1 00111111 [8] 5B 04 00 00 88 07 00 00
1549255114.74116,can1 00111111 [8] 5C 04 00 00 89 07 00 00
1549255114.741746,can1 00111111 [8] 5D 04 00 00 8A 07 00 00
1549255114.748206,can1 00111111 [8] 5E 04 00 00 8A 07 00 00
1549255114.754135,can1 00111111 [8] 6D 04 00 00 93 07 00 00
1549255114.754791,can1 00111111 [8] 6F 04 00 00 94 07 00 00
1549255114.755329,can1 00111111 [8] 70 04 00 00 94 07 00 00
1549255114.762257,can1 00111111 [8] 71 04 00 00 95 07 00 00
1549255114.764898,can1 00111111 [8] 72 04 00 00 95 07 00 00
1549255114.76561,can1 00111111 [8] 84 04 00 00 A0 07 00 00
1549255114.766176,can1 00111111 [8] 85 04 00 00 A0 07 00 00
1549255114.766695,can1 00111111 [8] 86 04 00 00 A1 07 00 00
1549255114.767196,can1 00111111 [8] 8F 04 00 00 A6 07 00 00
1549255114.775197,can1 00111111 [8] 90 04 00 00 A6 07 00 00
1549255114.782777,can1 00111111 [8] 91 04 00 00 A7 07 00 00
1549255114.783515,can1 00111111 [8] 92 04 00 00 A7 07 00 00
1549255114.784066,can1 00111111 [8] 93 04 00 00 A8 07 00 00
1549255114.784588,can1 00111111 [8] 94 04 00 00 A9 07 00 00
1549255114.791486,can1 00111111 [8] 95 04 00 00 A9 07 00 00
1549255114.794096,can1 00111111 [8] A8 04 00 00 B4 07 00 00
1549255114.794708,can1 00111111 [8] A9 04 00 00 B4 07 00 00
1549255114.795326,can1 00111111 [8] AA 04 00 00 B5 07 00 00
1549255114.795847,can1 00111111 [8] AB 04 00 00 B5 07 00 00
1549255114.796341,can1 00111111 [8] AC 04 00 00 B6 07 00 00
1549255114.803734,can1 00111111 [8] AD 04 00 00 B7 07 00 00
1549255114.810195,can1 00111111 [8] C5 04 00 00 C4 07 00 00
1549255114.810971,can1 00111111 [8] C7 04 00 00 C5 07 00 00
1549255114.811537,can1 00111111 [8] C8 04 00 00 C6 07 00 00
1549255114.81206,can1 00111111 [8] C9 04 00 00 C6 07 00 00
1549255114.821704,can1 00111111 [8] D6 04 00 00 CE 07 00 00
1549255114.823234,can1 00111111 [8] D8 04 00 00 CF 07 00 00
1549255114.823846,can1 00111111 [8] D9 04 00 00 CF 07 00 00
1549255114.824473,can1 00111111 [8] DA 04 00 00 D0 07 00 00
1549255114.82501,can1 00111111 [8] E7 04 00 00 D7 07 00 00
1549255114.825762,can1 00111111 [8] E9 04 00 00 D8 07 00 00
1549255114.832909,can1 00111111 [8] EA 04 00 00 D9 07 00 00
1549255114.840278,can1 00111111 [8] EB 04 00 00 D9 07 00 00
1549255114.847631,can1 00111111 [8] EC 04 00 00 DA 07 00 00
1549255114.854114,can1 00111111 [8] FB 04 00 00 E2 07 00 00
1549255114.854777,can1 00111111 [8] FC 04 00 00 E3 07 00 00
1549255114.855393,can1 00111111 [8] FD 04 00 00 E4 07 00 00
1549255114.855956,can1 00111111 [8] FE 04 00 00 E4 07 00 00
1549255114.856467,can1 00111111 [8] FF 04 00 00 E5 07 00 00
1549255114.856973,can1 00111111 [8] 00 05 00 00 E5 07 00 00
1549255114.868816,can1 00111111 [8] 15 05 00 00 F1 07 00 00
1549255114.869747,can1 00111111 [8] 16 05 00 00 F2 07 00 00
1549255114.87033,can1 00111111 [8] 17 05 00 00 F2 07 00 00
1549255114.870852,can1 00111111 [8] 18 05 00 00 F3 07 00 00
1549255114.881862,can1 00111111 [8] 19 05 00 00 F3 07 00 00
1549255114.882647,can1 00111111 [8] 1A 05 00 00 F4 07 00 00
1549255114.883862,can1 00111111 [8] 29 05 00 00 FD 07 00 00
1549255114.884575,can1 00111111 [8] 3C 05 00 00 07 08 00 00
1549255114.885511,can1 00111111 [8] 3D 05 00 00 08 08 00 00
1549255114.886783,can1 00111111 [8] 49 05 00 00 0F 08 00 00
1549255114.887749,can1 00111111 [8] 4B 05 00 00 10 08 00 00
1549255114.888464,can1 00111111 [8] 4C 05 00 00 10 08 00 00
1549255114.889378,can1 00111111 [8] 4D 05 00 00 11 08 00 00
1549255114.89004,can1 00111111 [8] 4E 05 00 00 12 08 00 00
1549255114.890753,can1 00111111 [8] 4F 05 00 00 12 08 00 00
1549255114.891834,can1 00111111 [8] 62 05 00 00 1D 08 00 00
1549255114.892813,can1 00111111 [8] 64 05 00 00 1E 08 00 00
1549255114.893715,can1 00111111 [8] 65 05 00 00 1F 08 00 00
1549255114.894439,can1 00111111 [8] 66 05 00 00 1F 08 00 00
1549255114.895126,can1 00111111 [8] 67 05 00 00 20 08 00 00
1549255114.903438,can1 00111111 [8] 68 05 00 00 20 08 00 00
1549255114.904557,can1 00111111 [8] 78 05 00 00 29 08 00 00
1549255114.905197,can1 00111111 [8] 86 05 00 00 31 08 00 00
1549255114.905731,can1 00111111 [8] 88 05 00 00 32 08 00 00
1549255114.906302,can1 00111111 [8] 89 05 00 00 33 08 00 00
1549255114.906834,can1 00111111 [8] 8A 05 00 00 33 08 00 00
1549255114.907331,can1 00111111 [8] 94 05 00 00 39 08 00 00
1549255114.907808,can1 00111111 [8] A1 05 00 00 40 08 00 00
1549255114.91972,can1 00111111 [8] A2 05 00 00 41 08 00 00
1549255114.92064,can1 00111111 [8] A3 05 00 00 41 08 00 00
1549255114.939364,can1 00111111 [8] A4 05 00 00 42 08 00 00
1549255114.946764,can1 00111111 [8] A5 05 00 00 43 08 00 00
1549255114.947546,can1 00111111 [8] A6 05 00 00 43 08 00 00
1549255114.948131,can1 00111111 [8] B2 05 00 00 4A 08 00 00
1549255114.948652,can1 00111111 [8] C2 05 00 00 53 08 00 00
1549255114.968019,can1 00111111 [8] C4 05 00 00 54 08 00 00
1549255114.970785,can1 00111111 [8] C5 05 00 00 55 08 00 00
1549255114.971434,can1 00111111 [8] C6 05 00 00 55 08 00 00
1549255114.97198,can1 00111111 [8] C7 05 00 00 56 08 00 00
1549255114.972494,can1 00111111 [8] C8 05 00 00 56 08 00 00
1549255114.993102,can1 00111111 [8] C9 05 00 00 57 08 00 00
1549255114.993803,can1 00111111 [8] DE 05 00 00 63 08 00 00
1549255115.011712,can1 00111111 [8] E0 05 00 00 64 08 00 00
1549255115.012458,can1 00111111 [8] E1 05 00 00 64 08 00 00
1549255115.013031,can1 00111111 [8] E2 05 00 00 65 08 00 00
1549255115.023109,can1 00111111 [8] E3 05 00 00 65 08 00 00
1549255115.024165,can1 00111111 [8] E4 05 00 00 66 08 00 00
1549255115.024853,can1 00111111 [8] E5 05 00 00 66 08 00 00
1549255115.048819,can1 00111111 [8] F4 05 00 00 6F 08 00 00
1549255115.049906,can1 00111111 [8] 02 06 00 00 77 08 00 00
1549255115.050582,can1 00111111 [8] 03 06 00 00 77 08 00 00
1549255115.056415,can1 00111111 [8] 04 06 00 00 78 08 00 00
1549255115.057143,can1 00111111 [8] 12 06 00 00 80 08 00 00
1549255115.057691,can1 00111111 [8] 14 06 00 00 81 08 00 00
1549255115.058195,can1 00111111 [8] 15 06 00 00 82 08 00 00
1549255115.080414,can1 00111111 [8] 1F 06 00 00 87 08 00 00
1549255115.081282,can1 00111111 [8] 28 06 00 00 8C 08 00 00
1549255115.081868,can1 00111111 [8] 29 06 00 00 8D 08 00 00
1549255115.103348,can1 00111111 [8] 2A 06 00 00 8D 08 00 00
1549255115.104273,can1 00111111 [8] 2B 06 00 00 8E 08 00 00
1549255115.104857,can1 00111111 [8] 2C 06 00 00 8F 08 00 00
1549255115.118162,can1 00111111 [8] 2D 06 00 00 8F 08 00 00
1549255115.125212,can1 00111111 [8] 2E 06 00 00 90 08 00 00
1549255115.125924,can1 00111111 [8] 40 06 00 00 9A 08 00 00
1549255115.126478,can1 00111111 [8] 56 06 00 00 A6 08 00 00
1549255115.144035,can1 00111111 [8] 58 06 00 00 A7 08 00 00
1549255115.144992,can1 00111111 [8] 59 06 00 00 A8 08 00 00
1549255115.145596,can1 00111111 [8] 5A 06 00 00 A9 08 00 00
1549255115.146128,can1 00111111 [8] 60 06 00 00 AC 08 00 00
1549255115.167943,can1 00111111 [8] 6D 06 00 00 B3 08 00 00
1549255115.16887,can1 00111111 [8] 6E 06 00 00 B4 08 00 00
1549255115.169466,can1 00111111 [8] 6F 06 00 00 B4 08 00 00
1549255115.175303,can1 00111111 [8] 70 06 00 00 B5 08 00 00
1549255115.176228,can1 00111111 [8] 71 06 00 00 B5 08 00 00
1549255115.1768,can1 00111111 [8] 72 06 00 00 B6 08 00 00
1549255115.17732,can1 00111111 [8] 73 06 00 00 B7 08 00 00
1549255115.183271,can1 00111111 [8] 84 06 00 00 C0 08 00 00
1549255115.187698,can1 00111111 [8] 8C 06 00 00 C5 08 00 00
1549255115.188372,can1 00111111 [8] 8D 06 00 00 C5 08 00 00
1549255115.18885,can1 00111111 [8] 8E 06 00 00 C6 08 00 00
1549255115.193874,can1 00111111 [8] 90 06 00 00 C7 08 00 00
1549255115.199292,can1 00111111 [8] 91 06 00 00 C8 08 00 00
1549255115.199952,can1 00111111 [8] 92 06 00 00 C8 08 00 00
1549255115.200523,can1 00111111 [8] 9C 06 00 00 CE 08 00 00
1549255115.204409,can1 00111111 [8] AC 06 00 00 D7 08 00 00
1549255115.210911,can1 00111111 [8] AD 06 00 00 D7 08 00 00
1549255115.211621,can1 00111111 [8] AE 06 00 00 D8 08 00 00
1549255115.212179,can1 00111111 [8] AF 06 00 00 D8 08 00 00
1549255115.212685,can1 00111111 [8] B0 06 00 00 D9 08 00 00
1549255115.224021,can1 00111111 [8] B1 06 00 00 D9 08 00 00
1549255115.224929,can1 00111111 [8] BA 06 00 00 DF 08 00 00
1549255115.226022,can1 00111111 [8] DB 06 00 00 F1 08 00 00
1549255115.238617,can1 00111111 [8] FA 06 00 00 03 09 00 00
1549255115.239516,can1 00111111 [8] FB 06 00 00 03 09 00 00
1549255115.240182,can1 00111111 [8] FC 06 00 00 04 09 00 00
1549255115.240752,can1 00111111 [8] FD 06 00 00 04 09 00 00
1549255115.241275,can1 00111111 [8] 13 07 00 00 11 09 00 00
1549255115.241769,can1 00111111 [8] 14 07 00 00 11 09 00 00
1549255115.24945,can1 00111111 [8] 15 07 00 00 12 09 00 00
1549255115.253946,can1 00111111 [8] 32 07 00 00 22 09 00 00
1549255115.254589,can1 00111111 [8] 34 07 00 00 23 09 00 00
1549255115.255149,can1 00111111 [8] 35 07 00 00 24 09 00 00
1549255115.255661,can1 00111111 [8] 68 07 00 00 41 09 00 00
1549255115.267587,can1 00111111 [8] 69 07 00 00 41 09 00 00
1549255115.26842,can1 00111111 [8] 83 07 00 00 50 09 00 00
1549255115.26899,can1 00111111 [8] 85 07 00 00 51 09 00 00
1549255115.269561,can1 00111111 [8] B0 07 00 00 69 09 00 00
1549255115.270083,can1 00111111 [8] B2 07 00 00 6A 09 00 00
1549255115.270578,can1 00111111 [8] CC 07 00 00 79 09 00 00
1549255115.271063,can1 00111111 [8] CE 07 00 00 7A 09 00 00
1549255115.277131,can1 00111111 [8] E2 07 00 00 85 09 00 00
1549255115.285224,can1 00111111 [8] E3 07 00 00 85 09 00 00
1549255115.285942,can1 00111111 [8] 0B 08 00 00 9C 09 00 00
1549255115.286495,can1 00111111 [8] 0C 08 00 00 9C 09 00 00
1549255115.292389,can1 00111111 [8] 20 08 00 00 A8 09 00 00
1549255115.296056,can1 00111111 [8] 30 08 00 00 B1 09 00 00
1549255115.29671,can1 00111111 [8] 31 08 00 00 B1 09 00 00
1549255115.297369,can1 00111111 [8] 32 08 00 00 B2 09 00 00
1549255115.297903,can1 00111111 [8] 33 08 00 00 B2 09 00 00
1549255115.29841,can1 00111111 [8] 63 08 00 00 CD 09 00 00
1549255115.306368,can1 00111111 [8] 65 08 00 00 CE 09 00 00
1549255115.311304,can1 00111111 [8] 66 08 00 00 CF 09 00 00
1549255115.311938,can1 00111111 [8] 67 08 00 00 D0 09 00 00
1549255115.312557,can1 00111111 [8] 7F 08 00 00 DD 09 00 00
1549255115.313095,can1 00111111 [8] 8F 08 00 00 E6 09 00 00
1549255115.3136,can1 00111111 [8] 90 08 00 00 E6 09 00 00
1549255115.314097,can1 00111111 [8] 91 08 00 00 E7 09 00 00
1549255115.323804,can1 00111111 [8] B7 08 00 00 FC 09 00 00
1549255115.328245,can1 00111111 [8] B9 08 00 00 FD 09 00 00
1549255115.328871,can1 00111111 [8] BA 08 00 00 FE 09 00 00
1549255115.329412,can1 00111111 [8] C5 08 00 00 04 0A 00 00
1549255115.329928,can1 00111111 [8] C7 08 00 00 05 0A 00 00
1549255115.340432,can1 00111111 [8] C8 08 00 00 06 0A 00 00
1549255115.341088,can1 00111111 [8] C9 08 00 00 06 0A 00 00
1549255115.341635,can1 00111111 [8] DA 08 00 00 10 0A 00 00
1549255115.350427,can1 00111111 [8] DC 08 00 00 11 0A 00 00
1549255115.351103,can1 00111111 [8] DD 08 00 00 12 0A 00 00
1549255115.351736,can1 00111111 [8] DE 08 00 00 12 0A 00 00
1549255115.352285,can1 00111111 [8] F2 08 00 00 1D 0A 00 00
1549255115.352794,can1 00111111 [8] F3 08 00 00 1E 0A 00 00
1549255115.353284,can1 00111111 [8] F4 08 00 00 1F 0A 00 00
1549255115.364703,can1 00111111 [8] F6 08 00 00 20 0A 00 00
1549255115.36565,can1 00111111 [8] 05 09 00 00 28 0A 00 00
1549255115.366246,can1 00111111 [8] 10 09 00 00 2E 0A 00 00
1549255115.366773,can1 00111111 [8] 11 09 00 00 2F 0A 00 00
1549255115.375881,can1 00111111 [8] 12 09 00 00 2F 0A 00 00
1549255115.376706,can1 00111111 [8] 13 09 00 00 30 0A 00 00
1549255115.377453,can1 00111111 [8] 14 09 00 00 31 0A 00 00
1549255115.377987,can1 00111111 [8] 15 09 00 00 31 0A 00 00
1549255115.378483,can1 00111111 [8] 24 09 00 00 3A 0A 00 00
1549255115.388226,can1 00111111 [8] 31 09 00 00 41 0A 00 00
1549255115.393163,can1 00111111 [8] 32 09 00 00 42 0A 00 00
1549255115.393868,can1 00111111 [8] 33 09 00 00 42 0A 00 00
1549255115.398727,can1 00111111 [8] 34 09 00 00 43 0A 00 00
1549255115.399686,can1 00111111 [8] 3E 09 00 00 48 0A 00 00
1549255115.411175,can1 00111111 [8] 4A 09 00 00 4F 0A 00 00
1549255115.415175,can1 00111111 [8] 4B 09 00 00 50 0A 00 00
1549255115.416138,can1 00111111 [8] 4C 09 00 00 50 0A 00 00
1549255115.416767,can1 00111111 [8] 4D 09 00 00 51 0A 00 00
1549255115.417291,can1 00111111 [8] 5B 09 00 00 58 0A 00 00
1549255115.417733,can1 00111111 [8] 5C 09 00 00 59 0A 00 00
1549255115.450705,can1 00111111 [8] 5D 09 00 00 5A 0A 00 00
1549255115.455897,can1 00111111 [8] 5E 09 00 00 5A 0A 00 00
1549255115.4566,can1 00111111 [8] 70 09 00 00 64 0A 00 00
1549255115.471821,can1 00111111 [8] 72 09 00 00 65 0A 00 00
1549255115.485367,can1 00111111 [8] 73 09 00 00 66 0A 00 00
1549255115.500539,can1 00111111 [8] 7E 09 00 00 6C 0A 00 00
1549255115.50705,can1 00111111 [8] 84 09 00 00 6F 0A 00 00
1549255115.51111,can1 00111111 [8] 85 09 00 00 70 0A 00 00
1549255115.512153,can1 00111111 [8] 86 09 00 00 71 0A 00 00
1549255115.512764,can1 00111111 [8] 87 09 00 00 71 0A 00 00
1549255115.513301,can1 00111111 [8] 88 09 00 00 72 0A 00 00
1549255115.532741,can1 00111111 [8] 9A 09 00 00 7C 0A 00 00
1549255115.5337,can1 00111111 [8] A6 09 00 00 82 0A 00 00
1549255115.534275,can1 00111111 [8] A7 09 00 00 83 0A 00 00
1549255115.534791,can1 00111111 [8] A8 09 00 00 84 0A 00 00
1549255115.558261,can1 00111111 [8] A9 09 00 00 84 0A 00 00
1549255115.560918,can1 00111111 [8] AA 09 00 00 85 0A 00 00
1549255115.561568,can1 00111111 [8] AB 09 00 00 85 0A 00 00
1549255115.562111,can1 00111111 [8] BF 09 00 00 90 0A 00 00
1549255115.586413,can1 00111111 [8] C1 09 00 00 92 0A 00 00
1549255115.587275,can1 00111111 [8] C2 09 00 00 92 0A 00 00
1549255115.603252,can1 00111111 [8] C3 09 00 00 93 0A 00 00
1549255115.604302,can1 00111111 [8] C4 09 00 00 93 0A 00 00
1549255115.60492,can1 00111111 [8] DB 09 00 00 A0 0A 00 00
1549255115.631595,can1 00111111 [8] DD 09 00 00 A1 0A 00 00
1549255115.63249,can1 00111111 [8] DE 09 00 00 A2 0A 00 00
1549255115.643536,can1 00111111 [8] DF 09 00 00 A2 0A 00 00
1549255115.644233,can1 00111111 [8] E0 09 00 00 A3 0A 00 00
1549255115.658649,can1 00111111 [8] F1 09 00 00 AC 0A 00 00
1549255115.659352,can1 00111111 [8] F3 09 00 00 AD 0A 00 00
1549255115.659909,can1 00111111 [8] F4 09 00 00 AE 0A 00 00
1549255115.68015,can1 00111111 [8] F5 09 00 00 AF 0A 00 00
1549255115.680967,can1 00111111 [8] 06 0A 00 00 B8 0A 00 00
1549255115.684642,can1 00111111 [8] 08 0A 00 00 B9 0A 00 00
1549255115.693368,can1 00111111 [8] 09 0A 00 00 BA 0A 00 00
1549255115.694026,can1 00111111 [8] 0A 0A 00 00 BA 0A 00 00
1549255115.694573,can1 00111111 [8] 17 0A 00 00 C2 0A 00 00
1549255115.695089,can1 00111111 [8] 18 0A 00 00 C2 0A 00 00
1549255115.703954,can1 00111111 [8] 19 0A 00 00 C3 0A 00 00
1549255115.70466,can1 00111111 [8] 1A 0A 00 00 C3 0A 00 00
1549255115.705305,can1 00111111 [8] 1B 0A 00 00 C4 0A 00 00
1549255115.705851,can1 00111111 [8] 2E 0A 00 00 CF 0A 00 00
1549255115.706353,can1 00111111 [8] 30 0A 00 00 D0 0A 00 00
1549255115.706831,can1 00111111 [8] 31 0A 00 00 D0 0A 00 00
1549255115.72025,can1 00111111 [8] 32 0A 00 00 D1 0A 00 00
1549255115.721203,can1 00111111 [8] 33 0A 00 00 D1 0A 00 00
1549255115.72179,can1 00111111 [8] 42 0A 00 00 DA 0A 00 00
1549255115.722325,can1 00111111 [8] 69 0A 00 00 F0 0A 00 00
1549255115.740035,can1 00111111 [8] 6A 0A 00 00 F0 0A 00 00
1549255115.740997,can1 00111111 [8] 6B 0A 00 00 F1 0A 00 00
1549255115.741578,can1 00111111 [8] 83 0A 00 00 FE 0A 00 00
1549255115.753343,can1 00111111 [8] 84 0A 00 00 FF 0A 00 00
1549255115.756776,can1 00111111 [8] 85 0A 00 00 FF 0A 00 00
1549255115.757489,can1 00111111 [8] 86 0A 00 00 00 0B 00 00
1549255115.758149,can1 00111111 [8] AC 0A 00 00 15 0B 00 00
1549255115.758701,can1 00111111 [8] AE 0A 00 00 16 0B 00 00
1549255115.759211,can1 00111111 [8] AF 0A 00 00 17 0B 00 00
1549255115.772894,can1 00111111 [8] B0 0A 00 00 18 0B 00 00
1549255115.773941,can1 00111111 [8] D6 0A 00 00 2D 0B 00 00
1549255115.774574,can1 00111111 [8] D8 0A 00 00 2E 0B 00 00
1549255115.775107,can1 00111111 [8] D9 0A 00 00 2E 0B 00 00
1549255115.785807,can1 00111111 [8] DA 0A 00 00 2F 0B 00 00
1549255115.786548,can1 00111111 [8] F1 0A 00 00 3C 0B 00 00
1549255115.796135,can1 00111111 [8] FC 0A 00 00 42 0B 00 00
1549255115.797161,can1 00111111 [8] FD 0A 00 00 43 0B 00 00
1549255115.798302,can1 00111111 [8] 15 0B 00 00 50 0B 00 00
1549255115.807639,can1 00111111 [8] 16 0B 00 00 51 0B 00 00
1549255115.80844,can1 00111111 [8] 17 0B 00 00 51 0B 00 00
1549255115.80914,can1 00111111 [8] 18 0B 00 00 52 0B 00 00
1549255115.80969,can1 00111111 [8] 19 0B 00 00 52 0B 00 00
1549255115.810203,can1 00111111 [8] 3F 0B 00 00 68 0B 00 00
1549255115.822519,can1 00111111 [8] 40 0B 00 00 68 0B 00 00
1549255115.823203,can1 00111111 [8] 41 0B 00 00 69 0B 00 00
1549255115.823757,can1 00111111 [8] 42 0B 00 00 69 0B 00 00
1549255115.836472,can1 00111111 [8] 60 0B 00 00 7A 0B 00 00
1549255115.837286,can1 00111111 [8] 62 0B 00 00 7B 0B 00 00
1549255115.845087,can1 00111111 [8] 79 0B 00 00 88 0B 00 00
1549255115.846133,can1 00111111 [8] 94 0B 00 00 97 0B 00 00
1549255115.84675,can1 00111111 [8] 95 0B 00 00 98 0B 00 00
1549255115.847296,can1 00111111 [8] 96 0B 00 00 98 0B 00 00
1549255115.856143,can1 00111111 [8] B2 0B 00 00 A8 0B 00 00
1549255115.856883,can1 00111111 [8] B9 0B 00 00 AC 0B 00 00
1549255115.86631,can1 00111111 [8] BB 0B 00 00 AD 0B 00 00
1549255115.867265,can1 00111111 [8] BC 0B 00 00 AE 0B 00 00
1549255115.867883,can1 00111111 [8] BD 0B 00 00 AE 0B 00 00
1549255115.868417,can1 00111111 [8] DB 0B 00 00 BF 0B 00 00
1549255115.868917,can1 00111111 [8] E5 0B 00 00 C4 0B 00 00
1549255115.880219,can1 00111111 [8] E6 0B 00 00 C5 0B 00 00
1549255115.88766,can1 00111111 [8] FC 0B 00 00 D1 0B 00 00
1549255115.888602,can1 00111111 [8] FE 0B 00 00 D2 0B 00 00
1549255115.889235,can1 00111111 [8] FF 0B 00 00 D3 0B 00 00
1549255115.88979,can1 00111111 [8] 0C 0C 00 00 DA 0B 00 00
1549255115.890287,can1 00111111 [8] 0E 0C 00 00 DB 0B 00 00
1549255115.90516,can1 00111111 [8] 0F 0C 00 00 DC 0B 00 00
1549255115.906002,can1 00111111 [8] 10 0C 00 00 DD 0B 00 00
1549255115.910616,can1 00111111 [8] 1E 0C 00 00 E4 0B 00 00
1549255115.911275,can1 00111111 [8] 23 0C 00 00 E7 0B 00 00
1549255115.911817,can1 00111111 [8] 24 0C 00 00 E8 0B 00 00
1549255115.94665,can1 00111111 [8] 25 0C 00 00 E8 0B 00 00
1549255115.947673,can1 00111111 [8] 2F 0C 00 00 EE 0B 00 00
1549255115.948303,can1 00111111 [8] 3F 0C 00 00 F7 0B 00 00
1549255115.948856,can1 00111111 [8] 40 0C 00 00 F8 0B 00 00
1549255115.968908,can1 00111111 [8] 41 0C 00 00 F8 0B 00 00
1549255115.969651,can1 00111111 [8] 42 0C 00 00 F9 0B 00 00
1549255115.970214,can1 00111111 [8] 43 0C 00 00 F9 0B 00 00
1549255115.98548,can1 00111111 [8] 44 0C 00 00 FA 0B 00 00
1549255115.986471,can1 00111111 [8] 45 0C 00 00 FA 0B 00 00
1549255115.987086,can1 00111111 [8] 52 0C 00 00 02 0C 00 00
1549255115.987617,can1 00111111 [8] 5B 0C 00 00 07 0C 00 00
1549255115.988111,can1 00111111 [8] 5C 0C 00 00 07 0C 00 00
1549255116.02562,can1 00111111 [8] 5D 0C 00 00 08 0C 00 00
1549255116.026548,can1 00111111 [8] 5E 0C 00 00 08 0C 00 00
1549255116.027162,can1 00111111 [8] 5F 0C 00 00 09 0C 00 00
1549255116.033496,can1 00111111 [8] 60 0C 00 00 0A 0C 00 00
1549255116.034145,can1 00111111 [8] 70 0C 00 00 13 0C 00 00
1549255116.034685,can1 00111111 [8] 80 0C 00 00 1C 0C 00 00
1549255116.055975,can1 00111111 [8] 82 0C 00 00 1D 0C 00 00
1549255116.057031,can1 00111111 [8] 83 0C 00 00 1D 0C 00 00
1549255116.05773,can1 00111111 [8] 8A 0C 00 00 21 0C 00 00
1549255116.058199,can1 00111111 [8] 99 0C 00 00 2A 0C 00 00
1549255116.086008,can1 00111111 [8] 9A 0C 00 00 2A 0C 00 00
1549255116.094839,can1 00111111 [8] 9B 0C 00 00 2B 0C 00 00
1549255116.095691,can1 00111111 [8] 9C 0C 00 00 2B 0C 00 00
1549255116.096285,can1 00111111 [8] AC 0C 00 00 34 0C 00 00
1549255116.096819,can1 00111111 [8] AD 0C 00 00 35 0C 00 00
1549255116.097316,can1 00111111 [8] AE 0C 00 00 36 0C 00 00
1549255116.118925,can1 00111111 [8] AF 0C 00 00 36 0C 00 00
1549255116.119876,can1 00111111 [8] B0 0C 00 00 37 0C 00 00
1549255116.120491,can1 00111111 [8] BA 0C 00 00 3C 0C 00 00
1549255116.135444,can1 00111111 [8] CB 0C 00 00 46 0C 00 00
1549255116.136417,can1 00111111 [8] CD 0C 00 00 47 0C 00 00
1549255116.137138,can1 00111111 [8] CE 0C 00 00 48 0C 00 00
1549255116.137682,can1 00111111 [8] CF 0C 00 00 48 0C 00 00
1549255116.138202,can1 00111111 [8] D0 0C 00 00 49 0C 00 00
1549255116.159997,can1 00111111 [8] E0 0C 00 00 52 0C 00 00
1549255116.160996,can1 00111111 [8] E1 0C 00 00 52 0C 00 00
1549255116.161589,can1 00111111 [8] E2 0C 00 00 53 0C 00 00
1549255116.178888,can1 00111111 [8] E3 0C 00 00 53 0C 00 00
1549255116.179908,can1 00111111 [8] E4 0C 00 00 54 0C 00 00
1549255116.180536,can1 00111111 [8] E5 0C 00 00 54 0C 00 00
1549255116.181072,can1 00111111 [8] FC 0C 00 00 61 0C 00 00
1549255116.185316,can1 00111111 [8] FE 0C 00 00 62 0C 00 00
1549255116.193387,can1 00111111 [8] FF 0C 00 00 63 0C 00 00
1549255116.194081,can1 00111111 [8] 00 0D 00 00 63 0C 00 00
1549255116.194635,can1 00111111 [8] 09 0D 00 00 69 0C 00 00
1549255116.195132,can1 00111111 [8] 14 0D 00 00 6F 0C 00 00
1549255116.204929,can1 00111111 [8] 15 0D 00 00 6F 0C 00 00
1549255116.205848,can1 00111111 [8] 16 0D 00 00 70 0C 00 00
1549255116.206534,can1 00111111 [8] 17 0D 00 00 70 0C 00 00
1549255116.207148,can1 00111111 [8] 18 0D 00 00 71 0C 00 00
1549255116.20769,can1 00111111 [8] 21 0D 00 00 76 0C 00 00
1549255116.20819,can1 00111111 [8] 2E 0D 00 00 7D 0C 00 00
1549255116.208632,can1 00111111 [8] 3B 0D 00 00 85 0C 00 00
1549255116.220486,can1 00111111 [8] 4A 0D 00 00 8D 0C 00 00
1549255116.221425,can1 00111111 [8] 4C 0D 00 00 8E 0C 00 00
1549255116.222092,can1 00111111 [8] 4D 0D 00 00 8F 0C 00 00
1549255116.22755,can1 00111111 [8] 4E 0D 00 00 8F 0C 00 00
1549255116.231882,can1 00111111 [8] 4F 0D 00 00 90 0C 00 00
1549255116.232671,can1 00111111 [8] 50 0D 00 00 90 0C 00 00
1549255116.233243,can1 00111111 [8] 65 0D 00 00 9C 0C 00 00
1549255116.233694,can1 00111111 [8] 67 0D 00 00 9D 0C 00 00
1549255116.234188,can1 00111111 [8] 68 0D 00 00 9E 0C 00 00
1549255116.248038,can1 00111111 [8] 69 0D 00 00 9E 0C 00 00
1549255116.248704,can1 00111111 [8] 7C 0D 00 00 A9 0C 00 00
1549255116.249252,can1 00111111 [8] 7E 0D 00 00 AA 0C 00 00
1549255116.249764,can1 00111111 [8] 80 0D 00 00 AB 0C 00 00
1549255116.259349,can1 00111111 [8] 81 0D 00 00 AC 0C 00 00
1549255116.270929,can1 00111111 [8] 83 0D 00 00 AD 0C 00 00
1549255116.271747,can1 00111111 [8] 85 0D 00 00 AE 0C 00 00
1549255116.272342,can1 00111111 [8] 86 0D 00 00 AF 0C 00 00
1549255116.27287,can1 00111111 [8] 88 0D 00 00 B0 0C 00 00
1549255116.282744,can1 00111111 [8] 89 0D 00 00 B0 0C 00 00
1549255116.283653,can1 00111111 [8] 8B 0D 00 00 B1 0C 00 00
1549255116.284334,can1 00111111 [8] 8C 0D 00 00 B2 0C 00 00
1549255116.284864,can1 00111111 [8] 8D 0D 00 00 B3 0C 00 00
1549255116.293352,can1 00111111 [8] 90 0D 00 00 B4 0C 00 00
1549255116.294045,can1 00111111 [8] 91 0D 00 00 B5 0C 00 00
1549255116.294595,can1 00111111 [8] 92 0D 00 00 B5 0C 00 00
1549255116.305539,can1 00111111 [8] 94 0D 00 00 B7 0C 00 00
1549255116.306384,can1 00111111 [8] 95 0D 00 00 B7 0C 00 00
1549255116.307137,can1 00111111 [8] A5 0D 00 00 C0 0C 00 00
1549255116.30767,can1 00111111 [8] A6 0D 00 00 C1 0C 00 00
1549255116.308115,can1 00111111 [8] A7 0D 00 00 C1 0C 00 00
1549255116.313672,can1 00111111 [8] A8 0D 00 00 C2 0C 00 00
1549255116.322001,can1 00111111 [8] A9 0D 00 00 C2 0C 00 00
1549255116.322872,can1 00111111 [8] AA 0D 00 00 C3 0C 00 00
1549255116.323444,can1 00111111 [8] AB 0D 00 00 C3 0C 00 00
1549255116.323966,can1 00111111 [8] C0 0D 00 00 CF 0C 00 00
1549255116.33364,can1 00111111 [8] C2 0D 00 00 D0 0C 00 00
1549255116.334568,can1 00111111 [8] C3 0D 00 00 D1 0C 00 00
1549255116.33515,can1 00111111 [8] F0 0D 00 00 EA 0C 00 00
1549255116.335663,can1 00111111 [8] F2 0D 00 00 EB 0C 00 00
1549255116.343899,can1 00111111 [8] F3 0D 00 00 EC 0C 00 00
1549255116.344616,can1 00111111 [8] F4 0D 00 00 EC 0C 00 00
1549255116.345182,can1 00111111 [8] F5 0D 00 00 ED 0C 00 00
1549255116.354446,can1 00111111 [8] 1B 0E 00 00 02 0D 00 00
1549255116.355473,can1 00111111 [8] 1C 0E 00 00 03 0D 00 00
1549255116.356151,can1 00111111 [8] 1D 0E 00 00 03 0D 00 00
1549255116.35669,can1 00111111 [8] 1E 0E 00 00 04 0D 00 00
1549255116.357136,can1 00111111 [8] 42 0E 00 00 18 0D 00 00
1549255116.369076,can1 00111111 [8] 44 0E 00 00 19 0D 00 00
1549255116.369845,can1 00111111 [8] 63 0E 00 00 2B 0D 00 00
1549255116.370418,can1 00111111 [8] 65 0E 00 00 2C 0D 00 00
1549255116.370949,can1 00111111 [8] 66 0E 00 00 2C 0D 00 00
1549255116.38181,can1 00111111 [8] 67 0E 00 00 2D 0D 00 00
1549255116.382521,can1 00111111 [8] 7A 0E 00 00 38 0D 00 00
1549255116.383168,can1 00111111 [8] 7B 0E 00 00 38 0D 00 00
1549255116.383711,can1 00111111 [8] 7C 0E 00 00 39 0D 00 00
1549255116.384211,can1 00111111 [8] A8 0E 00 00 51 0D 00 00
1549255116.390003,can1 00111111 [8] A9 0E 00 00 52 0D 00 00
1549255116.397005,can1 00111111 [8] B4 0E 00 00 58 0D 00 00
1549255116.397667,can1 00111111 [8] B5 0E 00 00 58 0D 00 00
1549255116.398212,can1 00111111 [8] B6 0E 00 00 59 0D 00 00
1549255116.398824,can1 00111111 [8] B7 0E 00 00 5A 0D 00 00
1549255116.399334,can1 00111111 [8] DE 0E 00 00 6F 0D 00 00
1549255116.399835,can1 00111111 [8] E0 0E 00 00 70 0D 00 00
1549255116.406764,can1 00111111 [8] E1 0E 00 00 71 0D 00 00
1549255116.414305,can1 00111111 [8] 04 0F 00 00 85 0D 00 00
1549255116.415022,can1 00111111 [8] 09 0F 00 00 87 0D 00 00
1549255116.415581,can1 00111111 [8] 0A 0F 00 00 88 0D 00 00
1549255116.43789,can1 00111111 [8] 0B 0F 00 00 89 0D 00 00
1549255116.438827,can1 00111111 [8] 2E 0F 00 00 9C 0D 00 00
1549255116.464643,can1 00111111 [8] 30 0F 00 00 9D 0D 00 00
1549255116.465673,can1 00111111 [8] 31 0F 00 00 9E 0D 00 00
1549255116.466289,can1 00111111 [8] 50 0F 00 00 AF 0D 00 00
1549255116.486376,can1 00111111 [8] 52 0F 00 00 B0 0D 00 00
1549255116.487315,can1 00111111 [8] 53 0F 00 00 B1 0D 00 00
1549255116.48793,can1 00111111 [8] 54 0F 00 00 B2 0D 00 00
1549255116.50628,can1 00111111 [8] 78 0F 00 00 C6 0D 00 00
1549255116.507134,can1 00111111 [8] 7C 0F 00 00 C8 0D 00 00
1549255116.520204,can1 00111111 [8] 7D 0F 00 00 C9 0D 00 00
1549255116.521082,can1 00111111 [8] 88 0F 00 00 CF 0D 00 00
1549255116.535549,can1 00111111 [8] 89 0F 00 00 CF 0D 00 00
1549255116.536269,can1 00111111 [8] 8B 0F 00 00 D0 0D 00 00
1549255116.536845,can1 00111111 [8] 8C 0F 00 00 D1 0D 00 00
1549255116.555679,can1 00111111 [8] 93 0F 00 00 D5 0D 00 00
1549255116.55636,can1 00111111 [8] 9E 0F 00 00 DB 0D 00 00
1549255116.577514,can1 00111111 [8] 9F 0F 00 00 DC 0D 00 00
1549255116.59548,can1 00111111 [8] A0 0F 00 00 DC 0D 00 00
1549255116.596432,can1 00111111 [8] A1 0F 00 00 DD 0D 00 00
1549255116.597022,can1 00111111 [8] B2 0F 00 00 E6 0D 00 00
1549255116.613013,can1 00111111 [8] B4 0F 00 00 E7 0D 00 00
1549255116.61406,can1 00111111 [8] B5 0F 00 00 E8 0D 00 00
1549255116.614685,can1 00111111 [8] B6 0F 00 00 E8 0D 00 00
1549255116.6309,can1 00111111 [8] C7 0F 00 00 F2 0D 00 00
1549255116.631813,can1 00111111 [8] C9 0F 00 00 F3 0D 00 00
1549255116.632408,can1 00111111 [8] CA 0F 00 00 F4 0D 00 00
1549255116.659492,can1 00111111 [8] CB 0F 00 00 F4 0D 00 00
1549255116.66613,can1 00111111 [8] DF 0F 00 00 FF 0D 00 00
1549255116.666977,can1 00111111 [8] E0 0F 00 00 00 0E 00 00
1549255116.667552,can1 00111111 [8] E2 0F 00 00 01 0E 00 00
1549255116.68624,can1 00111111 [8] F9 0F 00 00 0E 0E 00 00
1549255116.687128,can1 00111111 [8] FA 0F 00 00 0F 0E 00 00
1549255116.702877,can1 00111111 [8] FB 0F 00 00 0F 0E 00 00
1549255116.703836,can1 00111111 [8] FD 0F 00 00 10 0E 00 00
1549255116.71231,can1 00111111 [8] FE 0F 00 00 11 0E 00 00
1549255116.713311,can1 00111111 [8] FF 0F 00 00 11 0E 00 00
1549255116.713916,can1 00111111 [8] 09 10 00 00 17 0E 00 00
1549255116.714442,can1 00111111 [8] 14 10 00 00 1D 0E 00 00
1549255116.727243,can1 00111111 [8] 15 10 00 00 1E 0E 00 00
1549255116.728102,can1 00111111 [8] 16 10 00 00 1E 0E 00 00
1549255116.728879,can1 00111111 [8] 17 10 00 00 1F 0E 00 00
1549255116.729437,can1 00111111 [8] 2C 10 00 00 2B 0E 00 00
1549255116.729934,can1 00111111 [8] 2E 10 00 00 2C 0E 00 00
1549255116.734762,can1 00111111 [8] 2F 10 00 00 2D 0E 00 00
1549255116.742724,can1 00111111 [8] 30 10 00 00 2D 0E 00 00
1549255116.743444,can1 00111111 [8] 31 10 00 00 2E 0E 00 00
1549255116.743994,can1 00111111 [8] 32 10 00 00 2E 0E 00 00
1549255116.744603,can1 00111111 [8] 33 10 00 00 2F 0E 00 00
1549255116.745124,can1 00111111 [8] 39 10 00 00 32 0E 00 00
1549255116.745627,can1 00111111 [8] 4B 10 00 00 3C 0E 00 00
1549255116.751653,can1 00111111 [8] 4D 10 00 00 3D 0E 00 00
1549255116.761944,can1 00111111 [8] 4E 10 00 00 3E 0E 00 00
1549255116.762823,can1 00111111 [8] 4F 10 00 00 3F 0E 00 00
1549255116.76341,can1 00111111 [8] 5F 10 00 00 48 0E 00 00
1549255116.764023,can1 00111111 [8] 60 10 00 00 48 0E 00 00
1549255116.764535,can1 00111111 [8] 61 10 00 00 49 0E 00 00
1549255116.764963,can1 00111111 [8] 62 10 00 00 49 0E 00 00
1549255116.765446,can1 00111111 [8] 63 10 00 00 4A 0E 00 00
1549255116.778777,can1 00111111 [8] 6D 10 00 00 4F 0E 00 00
1549255116.779721,can1 00111111 [8] 7A 10 00 00 57 0E 00 00
1549255116.78031,can1 00111111 [8] 7B 10 00 00 57 0E 00 00
1549255116.780841,can1 00111111 [8] 7C 10 00 00 58 0E 00 00
1549255116.790724,can1 00111111 [8] 7D 10 00 00 58 0E 00 00
1549255116.792946,can1 00111111 [8] 7E 10 00 00 59 0E 00 00
1549255116.79365,can1 00111111 [8] 7F 10 00 00 5A 0E 00 00
1549255116.794204,can1 00111111 [8] 8C 10 00 00 61 0E 00 00
1549255116.794654,can1 00111111 [8] 98 10 00 00 68 0E 00 00
1549255116.804245,can1 00111111 [8] 99 10 00 00 68 0E 00 00
1549255116.808226,can1 00111111 [8] 9A 10 00 00 69 0E 00 00
1549255116.808993,can1 00111111 [8] 9B 10 00 00 69 0E 00 00
1549255116.809568,can1 00111111 [8] AD 10 00 00 73 0E 00 00
1549255116.810082,can1 00111111 [8] AF 10 00 00 75 0E 00 00
1549255116.81839,can1 00111111 [8] B0 10 00 00 75 0E 00 00
1549255116.81928,can1 00111111 [8] BF 10 00 00 7E 0E 00 00
1549255116.819864,can1 00111111 [8] C0 10 00 00 7E 0E 00 00
1549255116.8259,can1 00111111 [8] C2 10 00 00 7F 0E 00 00
1549255116.829535,can1 00111111 [8] C3 10 00 00 80 0E 00 00
1549255116.830246,can1 00111111 [8] C4 10 00 00 80 0E 00 00
1549255116.830817,can1 00111111 [8] C5 10 00 00 81 0E 00 00
1549255116.831343,can1 00111111 [8] D2 10 00 00 88 0E 00 00
1549255116.83183,can1 00111111 [8] DA 10 00 00 8D 0E 00 00
1549255116.842499,can1 00111111 [8] DB 10 00 00 8D 0E 00 00
1549255116.843183,can1 00111111 [8] DC 10 00 00 8E 0E 00 00
1549255116.84382,can1 00111111 [8] E7 10 00 00 94 0E 00 00
1549255116.844355,can1 00111111 [8] EE 10 00 00 98 0E 00 00
1549255116.844863,can1 00111111 [8] EF 10 00 00 99 0E 00 00
1549255116.845355,can1 00111111 [8] F0 10 00 00 99 0E 00 00
1549255116.852294,can1 00111111 [8] F1 10 00 00 9A 0E 00 00
1549255116.859739,can1 00111111 [8] FB 10 00 00 9F 0E 00 00
1549255116.860444,can1 00111111 [8] 0B 11 00 00 A8 0E 00 00
1549255116.860991,can1 00111111 [8] 0D 11 00 00 A9 0E 00 00
1549255116.861594,can1 00111111 [8] 0E 11 00 00 AA 0E 00 00
1549255116.86212,can1 00111111 [8] 17 11 00 00 AF 0E 00 00
1549255116.862623,can1 00111111 [8] 18 11 00 00 B0 0E 00 00
1549255116.863113,can1 00111111 [8] 2D 11 00 00 BB 0E 00 00
1549255116.878818,can1 00111111 [8] 34 11 00 00 BF 0E 00 00
1549255116.879697,can1 00111111 [8] 35 11 00 00 C0 0E 00 00
1549255116.880295,can1 00111111 [8] 36 11 00 00 C0 0E 00 00
1549255116.885131,can1 00111111 [8] 37 11 00 00 C1 0E 00 00
1549255116.891885,can1 00111111 [8] 72 11 00 00 E2 0E 00 00
1549255116.892703,can1 00111111 [8] 7B 11 00 00 E7 0E 00 00
1549255116.893291,can1 00111111 [8] 7D 11 00 00 E8 0E 00 00
1549255116.893808,can1 00111111 [8] 98 11 00 00 F7 0E 00 00
1549255116.894304,can1 00111111 [8] 99 11 00 00 F8 0E 00 00
1549255116.904617,can1 00111111 [8] B2 11 00 00 06 0F 00 00
1549255116.909511,can1 00111111 [8] D7 11 00 00 1A 0F 00 00
1549255116.910245,can1 00111111 [8] D8 11 00 00 1B 0F 00 00
1549255116.910815,can1 00111111 [8] E0 11 00 00 20 0F 00 00
1549255116.911334,can1 00111111 [8] E1 11 00 00 20 0F 00 00
1549255116.91184,can1 00111111 [8] E2 11 00 00 21 0F 00 00
1549255116.939185,can1 00111111 [8] 04 12 00 00 34 0F 00 00
1549255116.94449,can1 00111111 [8] 06 12 00 00 35 0F 00 00
1549255116.945151,can1 00111111 [8] 07 12 00 00 35 0F 00 00
1549255116.962906,can1 00111111 [8] 08 12 00 00 36 0F 00 00
1549255116.964152,can1 00111111 [8] 2D 12 00 00 4B 0F 00 00
1549255116.980601,can1 00111111 [8] 37 12 00 00 50 0F 00 00
1549255116.986652,can1 00111111 [8] 38 12 00 00 51 0F 00 00
1549255116.987337,can1 00111111 [8] 39 12 00 00 51 0F 00 00
1549255116.987903,can1 00111111 [8] 5D 12 00 00 66 0F 00 00
1549255117.010188,can1 00111111 [8] 66 12 00 00 6B 0F 00 00
1549255117.011053,can1 00111111 [8] 67 12 00 00 6B 0F 00 00
1549255117.018664,can1 00111111 [8] 84 12 00 00 7B 0F 00 00
1549255117.021879,can1 00111111 [8] 86 12 00 00 7C 0F 00 00
1549255117.022523,can1 00111111 [8] 87 12 00 00 7D 0F 00 00
1549255117.023068,can1 00111111 [8] B7 12 00 00 98 0F 00 00
1549255117.045516,can1 00111111 [8] CB 12 00 00 A3 0F 00 00
1549255117.056451,can1 00111111 [8] CC 12 00 00 A4 0F 00 00
1549255117.057192,can1 00111111 [8] E6 12 00 00 B2 0F 00 00
1549255117.057751,can1 00111111 [8] E7 12 00 00 B3 0F 00 00
1549255117.058271,can1 00111111 [8] E8 12 00 00 B3 0F 00 00
1549255117.077828,can1 00111111 [8] 0C 13 00 00 C7 0F 00 00
1549255117.078769,can1 00111111 [8] 0E 13 00 00 C9 0F 00 00
1549255117.079368,can1 00111111 [8] 0F 13 00 00 C9 0F 00 00
1549255117.079901,can1 00111111 [8] 23 13 00 00 D4 0F 00 00
1549255117.102907,can1 00111111 [8] 25 13 00 00 D5 0F 00 00
1549255117.103871,can1 00111111 [8] 26 13 00 00 D6 0F 00 00
1549255117.104476,can1 00111111 [8] 27 13 00 00 D7 0F 00 00
1549255117.105012,can1 00111111 [8] 36 13 00 00 DF 0F 00 00
1549255117.122453,can1 00111111 [8] 38 13 00 00 E0 0F 00 00
1549255117.123246,can1 00111111 [8] 39 13 00 00 E1 0F 00 00
1549255117.123837,can1 00111111 [8] 3A 13 00 00 E1 0F 00 00
1549255117.12436,can1 00111111 [8] 3B 13 00 00 E2 0F 00 00
1549255117.153991,can1 00111111 [8] 3C 13 00 00 E2 0F 00 00
1549255117.155185,can1 00111111 [8] 53 13 00 00 EF 0F 00 00
1549255117.155813,can1 00111111 [8] 55 13 00 00 F0 0F 00 00
1549255117.169762,can1 00111111 [8] 56 13 00 00 F1 0F 00 00
1549255117.170766,can1 00111111 [8] 57 13 00 00 F1 0F 00 00
1549255117.171361,can1 00111111 [8] 77 13 00 00 03 10 00 00
1549255117.18028,can1 00111111 [8] 79 13 00 00 05 10 00 00
1549255117.181165,can1 00111111 [8] 7A 13 00 00 05 10 00 00
1549255117.188634,can1 00111111 [8] 7B 13 00 00 06 10 00 00
1549255117.189487,can1 00111111 [8] 94 13 00 00 14 10 00 00
1549255117.190099,can1 00111111 [8] 96 13 00 00 15 10 00 00
1549255117.190628,can1 00111111 [8] 97 13 00 00 15 10 00 00
1549255117.191133,can1 00111111 [8] 98 13 00 00 16 10 00 00
1549255117.204341,can1 00111111 [8] 99 13 00 00 17 10 00 00
1549255117.205168,can1 00111111 [8] 9A 13 00 00 17 10 00 00
1549255117.213971,can1 00111111 [8] B3 13 00 00 25 10 00 00
1549255117.21976,can1 00111111 [8] B4 13 00 00 26 10 00 00
1549255117.225065,can1 00111111 [8] B5 13 00 00 26 10 00 00
1549255117.226032,can1 00111111 [8] C8 13 00 00 31 10 00 00
1549255117.233983,can1 00111111 [8] CA 13 00 00 32 10 00 00
1549255117.234964,can1 00111111 [8] CB 13 00 00 33 10 00 00
1549255117.235559,can1 00111111 [8] DD 13 00 00 3D 10 00 00
1549255117.236097,can1 00111111 [8] DF 13 00 00 3E 10 00 00
1549255117.249377,can1 00111111 [8] EF 13 00 00 47 10 00 00
1549255117.261546,can1 00111111 [8] F1 13 00 00 48 10 00 00
1549255117.264244,can1 00111111 [8] F2 13 00 00 48 10 00 00
1549255117.264933,can1 00111111 [8] F3 13 00 00 49 10 00 00
1549255117.265464,can1 00111111 [8] F4 13 00 00 4A 10 00 00
1549255117.273848,can1 00111111 [8] 0A 14 00 00 56 10 00 00
1549255117.274548,can1 00111111 [8] 0B 14 00 00 56 10 00 00
1549255117.275097,can1 00111111 [8] 0C 14 00 00 57 10 00 00
1549255117.284865,can1 00111111 [8] 22 14 00 00 63 10 00 00
1549255117.285686,can1 00111111 [8] 24 14 00 00 65 10 00 00
1549255117.28627,can1 00111111 [8] 25 14 00 00 65 10 00 00
1549255117.286797,can1 00111111 [8] 34 14 00 00 6E 10 00 00
1549255117.298924,can1 00111111 [8] 35 14 00 00 6E 10 00 00
1549255117.299652,can1 00111111 [8] 36 14 00 00 6F 10 00 00
1549255117.300222,can1 00111111 [8] 45 14 00 00 77 10 00 00
1549255117.312871,can1 00111111 [8] 47 14 00 00 78 10 00 00
1549255117.313999,can1 00111111 [8] 57 14 00 00 81 10 00 00
1549255117.319813,can1 00111111 [8] 59 14 00 00 82 10 00 00
1549255117.324946,can1 00111111 [8] 5A 14 00 00 83 10 00 00
1549255117.325669,can1 00111111 [8] 5B 14 00 00 84 10 00 00
1549255117.326315,can1 00111111 [8] 5C 14 00 00 84 10 00 00
1549255117.326866,can1 00111111 [8] 70 14 00 00 8F 10 00 00
1549255117.327378,can1 00111111 [8] 7D 14 00 00 97 10 00 00
1549255117.327868,can1 00111111 [8] 7F 14 00 00 98 10 00 00
1549255117.338698,can1 00111111 [8] 81 14 00 00 99 10 00 00
1549255117.339547,can1 00111111 [8] 82 14 00 00 99 10 00 00
1549255117.340235,can1 00111111 [8] 83 14 00 00 9A 10 00 00
1549255117.340774,can1 00111111 [8] 9D 14 00 00 A8 10 00 00
1549255117.341277,can1 00111111 [8] 9E 14 00 00 A9 10 00 00
1549255117.34546,can1 00111111 [8] A7 14 00 00 AE 10 00 00
1549255117.355493,can1 00111111 [8] A8 14 00 00 AF 10 00 00
1549255117.356308,can1 00111111 [8] A9 14 00 00 AF 10 00 00
1549255117.356885,can1 00111111 [8] E5 14 00 00 D1 10 00 00
1549255117.35747,can1 00111111 [8] E9 14 00 00 D3 10 00 00
1549255117.358016,can1 00111111 [8] EA 14 00 00 D4 10 00 00
1549255117.358522,can1 00111111 [8] EB 14 00 00 D4 10 00 00
1549255117.359007,can1 00111111 [8] 0E 15 00 00 E8 10 00 00
1549255117.368292,can1 00111111 [8] 10 15 00 00 E9 10 00 00
1549255117.373236,can1 00111111 [8] 11 15 00 00 EA 10 00 00
1549255117.373939,can1 00111111 [8] 2C 15 00 00 F9 10 00 00
1549255117.374418,can1 00111111 [8] 2E 15 00 00 FA 10 00 00
1549255117.382452,can1 00111111 [8] 2F 15 00 00 FA 10 00 00
1549255117.383412,can1 00111111 [8] 30 15 00 00 FB 10 00 00
1549255117.384036,can1 00111111 [8] 31 15 00 00 FC 10 00 00
1549255117.384576,can1 00111111 [8] 6B 15 00 00 1C 11 00 00
1549255117.394685,can1 00111111 [8] 75 15 00 00 22 11 00 00
1549255117.395428,can1 00111111 [8] 76 15 00 00 22 11 00 00
1549255117.396,can1 00111111 [8] 82 15 00 00 29 11 00 00
1549255117.396582,can1 00111111 [8] 83 15 00 00 29 11 00 00
1549255117.397104,can1 00111111 [8] 84 15 00 00 2A 11 00 00
1549255117.3976,can1 00111111 [8] A3 15 00 00 3B 11 00 00
1549255117.398081,can1 00111111 [8] AC 15 00 00 40 11 00 00
1549255117.408059,can1 00111111 [8] AD 15 00 00 41 11 00 00
1549255117.414081,can1 00111111 [8] AE 15 00 00 41 11 00 00
1549255117.414761,can1 00111111 [8] CE 15 00 00 53 11 00 00
1549255117.415317,can1 00111111 [8] F0 15 00 00 66 11 00 00
1549255117.415845,can1 00111111 [8] F1 15 00 00 67 11 00 00
1549255117.426408,can1 00111111 [8] F3 15 00 00 68 11 00 00
1549255117.427061,can1 00111111 [8] F4 15 00 00 68 11 00 00
1549255117.427683,can1 00111111 [8] F5 15 00 00 69 11 00 00
1549255117.428234,can1 00111111 [8] 1B 16 00 00 7E 11 00 00
1549255117.428738,can1 00111111 [8] 1D 16 00 00 7F 11 00 00
1549255117.429224,can1 00111111 [8] 1E 16 00 00 80 11 00 00
1549255117.435129,can1 00111111 [8] 1F 16 00 00 80 11 00 00
1549255117.457568,can1 00111111 [8] 3A 16 00 00 90 11 00 00
1549255117.458404,can1 00111111 [8] 3C 16 00 00 91 11 00 00
1549255117.473849,can1 00111111 [8] 3D 16 00 00 91 11 00 00
1549255117.481047,can1 00111111 [8] 3E 16 00 00 92 11 00 00
1549255117.481704,can1 00111111 [8] 3F 16 00 00 92 11 00 00
1549255117.482239,can1 00111111 [8] 66 16 00 00 A8 11 00 00
1549255117.497208,can1 00111111 [8] 68 16 00 00 A9 11 00 00
1549255117.497872,can1 00111111 [8] 69 16 00 00 AA 11 00 00
1549255117.512394,can1 00111111 [8] 88 16 00 00 BB 11 00 00
1549255117.513064,can1 00111111 [8] 8A 16 00 00 BC 11 00 00
1549255117.526607,can1 00111111 [8] 8B 16 00 00 BD 11 00 00
1549255117.531482,can1 00111111 [8] 8C 16 00 00 BD 11 00 00
1549255117.53215,can1 00111111 [8] A0 16 00 00 C8 11 00 00
1549255117.532705,can1 00111111 [8] A2 16 00 00 C9 11 00 00
1549255117.552063,can1 00111111 [8] A3 16 00 00 CA 11 00 00
1549255117.556283,can1 00111111 [8] A4 16 00 00 CB 11 00 00
1549255117.557009,can1 00111111 [8] A5 16 00 00 CB 11 00 00
1549255117.557563,can1 00111111 [8] B7 16 00 00 D5 11 00 00
1549255117.55808,can1 00111111 [8] B8 16 00 00 D6 11 00 00
1549255117.57679,can1 00111111 [8] B9 16 00 00 D6 11 00 00
1549255117.582295,can1 00111111 [8] BA 16 00 00 D7 11 00 00
1549255117.582987,can1 00111111 [8] BB 16 00 00 D7 11 00 00
1549255117.58355,can1 00111111 [8] BC 16 00 00 D8 11 00 00
1549255117.612064,can1 00111111 [8] C8 16 00 00 DF 11 00 00
1549255117.619598,can1 00111111 [8] D3 16 00 00 E5 11 00 00
1549255117.620298,can1 00111111 [8] D4 16 00 00 E5 11 00 00
1549255117.620855,can1 00111111 [8] D5 16 00 00 E6 11 00 00
1549255117.641092,can1 00111111 [8] E6 16 00 00 EF 11 00 00
1549255117.64193,can1 00111111 [8] E7 16 00 00 F0 11 00 00
1549255117.655735,can1 00111111 [8] E8 16 00 00 F0 11 00 00
1549255117.661203,can1 00111111 [8] E9 16 00 00 F1 11 00 00
1549255117.661849,can1 00111111 [8] EA 16 00 00 F1 11 00 00
1549255117.668445,can1 00111111 [8] 02 17 00 00 FF 11 00 00
1549255117.669097,can1 00111111 [8] 04 17 00 00 00 12 00 00
1549255117.669639,can1 00111111 [8] 05 17 00 00 01 12 00 00
1549255117.683025,can1 00111111 [8] 06 17 00 00 01 12 00 00
1549255117.683911,can1 00111111 [8] 17 17 00 00 0B 12 00 00
1549255117.684504,can1 00111111 [8] 2B 17 00 00 16 12 00 00
1549255117.685027,can1 00111111 [8] 2D 17 00 00 17 12 00 00
1549255117.689388,can1 00111111 [8] 2E 17 00 00 18 12 00 00
1549255117.697745,can1 00111111 [8] 2F 17 00 00 18 12 00 00
1549255117.698545,can1 00111111 [8] 30 17 00 00 19 12 00 00
1549255117.699174,can1 00111111 [8] 42 17 00 00 23 12 00 00
1549255117.699728,can1 00111111 [8] 43 17 00 00 23 12 00 00
1549255117.700241,can1 00111111 [8] 44 17 00 00 24 12 00 00
1549255117.700736,can1 00111111 [8] 53 17 00 00 2C 12 00 00
1549255117.70613,can1 00111111 [8] 55 17 00 00 2D 12 00 00
1549255117.714675,can1 00111111 [8] 56 17 00 00 2E 12 00 00
1549255117.715477,can1 00111111 [8] 63 17 00 00 35 12 00 00
1549255117.716042,can1 00111111 [8] 6B 17 00 00 3A 12 00 00
1549255117.716555,can1 00111111 [8] 6C 17 00 00 3A 12 00 00
1549255117.726963,can1 00111111 [8] 6D 17 00 00 3B 12 00 00
1549255117.727681,can1 00111111 [8] 6E 17 00 00 3B 12 00 00
1549255117.728242,can1 00111111 [8] 75 17 00 00 3F 12 00 00
1549255117.728843,can1 00111111 [8] 87 17 00 00 49 12 00 00
1549255117.729352,can1 00111111 [8] 88 17 00 00 4A 12 00 00
1549255117.729854,can1 00111111 [8] 8A 17 00 00 4B 12 00 00
1549255117.735046,can1 00111111 [8] 8B 17 00 00 4C 12 00 00
1549255117.743886,can1 00111111 [8] 9C 17 00 00 55 12 00 00
1549255117.744786,can1 00111111 [8] 9D 17 00 00 56 12 00 00
1549255117.745359,can1 00111111 [8] 9F 17 00 00 57 12 00 00
1549255117.745884,can1 00111111 [8] A0 17 00 00 57 12 00 00
1549255117.756714,can1 00111111 [8] AE 17 00 00 5F 12 00 00
1549255117.757527,can1 00111111 [8] B0 17 00 00 60 12 00 00
1549255117.758199,can1 00111111 [8] B1 17 00 00 61 12 00 00
1549255117.758749,can1 00111111 [8] B8 17 00 00 65 12 00 00
1549255117.759253,can1 00111111 [8] C3 17 00 00 6B 12 00 00
1549255117.765115,can1 00111111 [8] C4 17 00 00 6B 12 00 00
1549255117.771096,can1 00111111 [8] C5 17 00 00 6C 12 00 00
1549255117.771803,can1 00111111 [8] C6 17 00 00 6C 12 00 00
1549255117.772364,can1 00111111 [8] DB 17 00 00 78 12 00 00
1549255117.772873,can1 00111111 [8] DD 17 00 00 79 12 00 00
1549255117.77791,can1 00111111 [8] DE 17 00 00 7A 12 00 00
1549255117.783315,can1 00111111 [8] DF 17 00 00 7A 12 00 00
1549255117.783974,can1 00111111 [8] F2 17 00 00 85 12 00 00
1549255117.784525,can1 00111111 [8] F4 17 00 00 86 12 00 00
1549255117.78857,can1 00111111 [8] F5 17 00 00 87 12 00 00
1549255117.795947,can1 00111111 [8] F6 17 00 00 87 12 00 00
1549255117.796646,can1 00111111 [8] F7 17 00 00 88 12 00 00
1549255117.797319,can1 00111111 [8] F8 17 00 00 88 12 00 00
1549255117.797862,can1 00111111 [8] 0D 18 00 00 94 12 00 00
1549255117.798367,can1 00111111 [8] 0F 18 00 00 95 12 00 00
1549255117.804179,can1 00111111 [8] 10 18 00 00 96 12 00 00
1549255117.811173,can1 00111111 [8] 11 18 00 00 96 12 00 00
1549255117.811859,can1 00111111 [8] 12 18 00 00 97 12 00 00
1549255117.812491,can1 00111111 [8] 13 18 00 00 97 12 00 00
1549255117.813049,can1 00111111 [8] 14 18 00 00 98 12 00 00
1549255117.813562,can1 00111111 [8] 2C 18 00 00 A5 12 00 00
1549255117.814049,can1 00111111 [8] 2E 18 00 00 A6 12 00 00
1549255117.823234,can1 00111111 [8] 2F 18 00 00 A7 12 00 00
1549255117.829713,can1 00111111 [8] 4E 18 00 00 B8 12 00 00
1549255117.830438,can1 00111111 [8] 58 18 00 00 BE 12 00 00
1549255117.830999,can1 00111111 [8] 59 18 00 00 BE 12 00 00
1549255117.831524,can1 00111111 [8] 88 18 00 00 D9 12 00 00
1549255117.836695,can1 00111111 [8] 8A 18 00 00 DA 12 00 00
1549255117.847586,can1 00111111 [8] AE 18 00 00 EE 12 00 00
1549255117.848436,can1 00111111 [8] B0 18 00 00 EF 12 00 00
1549255117.849041,can1 00111111 [8] B1 18 00 00 EF 12 00 00
1549255117.849704,can1 00111111 [8] CD 18 00 00 FF 12 00 00
1549255117.850186,can1 00111111 [8] D3 18 00 00 02 13 00 00
1549255117.850701,can1 00111111 [8] D4 18 00 00 03 13 00 00
1549255117.8512,can1 00111111 [8] EC 18 00 00 10 13 00 00
1549255117.860792,can1 00111111 [8] 06 19 00 00 1F 13 00 00
1549255117.869514,can1 00111111 [8] 07 19 00 00 20 13 00 00
1549255117.87019,can1 00111111 [8] 08 19 00 00 20 13 00 00
1549255117.870741,can1 00111111 [8] 2A 19 00 00 33 13 00 00
1549255117.871335,can1 00111111 [8] 2B 19 00 00 34 13 00 00
1549255117.87186,can1 00111111 [8] 51 19 00 00 49 13 00 00
1549255117.872356,can1 00111111 [8] 71 19 00 00 5B 13 00 00
1549255117.872853,can1 00111111 [8] 73 19 00 00 5C 13 00 00
1549255117.887827,can1 00111111 [8] 74 19 00 00 5C 13 00 00
1549255117.888729,can1 00111111 [8] 75 19 00 00 5D 13 00 00
1549255117.88941,can1 00111111 [8] 92 19 00 00 6D 13 00 00
1549255117.88994,can1 00111111 [8] 94 19 00 00 6E 13 00 00
1549255117.890392,can1 00111111 [8] 95 19 00 00 6F 13 00 00
1549255117.901526,can1 00111111 [8] B2 19 00 00 7F 13 00 00
1549255117.902407,can1 00111111 [8] B3 19 00 00 7F 13 00 00
1549255117.903003,can1 00111111 [8] E4 19 00 00 9B 13 00 00
1549255117.903531,can1 00111111 [8] F0 19 00 00 A1 13 00 00
1549255117.90403,can1 00111111 [8] F2 19 00 00 A3 13 00 00
1549255117.912449,can1 00111111 [8] F3 19 00 00 A3 13 00 00
1549255117.913153,can1 00111111 [8] 14 1A 00 00 B5 13 00 00
1549255117.913712,can1 00111111 [8] 16 1A 00 00 B7 13 00 00
1549255117.939484,can1 00111111 [8] 31 1A 00 00 C6 13 00 00
1549255117.940391,can1 00111111 [8] 33 1A 00 00 C7 13 00 00
1549255117.940998,can1 00111111 [8] 3C 1A 00 00 CC 13 00 00
1549255117.951189,can1 00111111 [8] 44 1A 00 00 D0 13 00 00
1549255117.952052,can1 00111111 [8] 46 1A 00 00 D1 13 00 00
1549255117.952632,can1 00111111 [8] 47 1A 00 00 D2 13 00 00
1549255117.968353,can1 00111111 [8] 59 1A 00 00 DC 13 00 00
1549255117.969331,can1 00111111 [8] 5F 1A 00 00 DF 13 00 00
1549255117.969924,can1 00111111 [8] 60 1A 00 00 E0 13 00 00
1549255117.970449,can1 00111111 [8] 61 1A 00 00 E0 13 00 00
1549255117.994341,can1 00111111 [8] 62 1A 00 00 E1 13 00 00
1549255117.995211,can1 00111111 [8] 63 1A 00 00 E2 13 00 00
1549255117.995787,can1 00111111 [8] 79 1A 00 00 EE 13 00 00
1549255118.013116,can1 00111111 [8] 7B 1A 00 00 EF 13 00 00
1549255118.013924,can1 00111111 [8] 7C 1A 00 00 F0 13 00 00
1549255118.014513,can1 00111111 [8] 7D 1A 00 00 F0 13 00 00
1549255118.015034,can1 00111111 [8] 7E 1A 00 00 F1 13 00 00
1549255118.032607,can1 00111111 [8] 7F 1A 00 00 F1 13 00 00
1549255118.033647,can1 00111111 [8] 80 1A 00 00 F2 13 00 00
1549255118.034269,can1 00111111 [8] 94 1A 00 00 FD 13 00 00
1549255118.034801,can1 00111111 [8] 9D 1A 00 00 02 14 00 00
1549255118.058273,can1 00111111 [8] 9E 1A 00 00 02 14 00 00
1549255118.059198,can1 00111111 [8] 9F 1A 00 00 03 14 00 00
1549255118.059861,can1 00111111 [8] A0 1A 00 00 04 14 00 00
1549255118.060331,can1 00111111 [8] A1 1A 00 00 04 14 00 00
1549255118.080568,can1 00111111 [8] A2 1A 00 00 05 14 00 00
1549255118.081271,can1 00111111 [8] B4 1A 00 00 0F 14 00 00
1549255118.081825,can1 00111111 [8] BB 1A 00 00 13 14 00 00
1549255118.09569,can1 00111111 [8] BD 1A 00 00 14 14 00 00
1549255118.096409,can1 00111111 [8] BE 1A 00 00 14 14 00 00
1549255118.096976,can1 00111111 [8] CA 1A 00 00 1B 14 00 00
1549255118.097491,can1 00111111 [8] D3 1A 00 00 20 14 00 00
1549255118.120154,can1 00111111 [8] D4 1A 00 00 21 14 00 00
1549255118.120871,can1 00111111 [8] D5 1A 00 00 21 14 00 00
1549255118.142694,can1 00111111 [8] D6 1A 00 00 22 14 00 00
1549255118.143586,can1 00111111 [8] E7 1A 00 00 2B 14 00 00
1549255118.144166,can1 00111111 [8] EE 1A 00 00 2F 14 00 00
1549255118.161726,can1 00111111 [8] F0 1A 00 00 30 14 00 00
1549255118.162669,can1 00111111 [8] F1 1A 00 00 31 14 00 00
1549255118.163266,can1 00111111 [8] F2 1A 00 00 31 14 00 00
1549255118.16379,can1 00111111 [8] FD 1A 00 00 38 14 00 00
1549255118.174403,can1 00111111 [8] 02 1B 00 00 3A 14 00 00
1549255118.175249,can1 00111111 [8] 03 1B 00 00 3B 14 00 00
1549255118.175893,can1 00111111 [8] 09 1B 00 00 3E 14 00 00
1549255118.176449,can1 00111111 [8] 14 1B 00 00 45 14 00 00
1549255118.176955,can1 00111111 [8] 16 1B 00 00 46 14 00 00
1549255118.177445,can1 00111111 [8] 17 1B 00 00 46 14 00 00
1549255118.186719,can1 00111111 [8] 18 1B 00 00 47 14 00 00
1549255118.192211,can1 00111111 [8] 19 1B 00 00 47 14 00 00
1549255118.192851,can1 00111111 [8] 2C 1B 00 00 52 14 00 00
1549255118.193482,can1 00111111 [8] 2D 1B 00 00 53 14 00 00
1549255118.194025,can1 00111111 [8] 2E 1B 00 00 53 14 00 00
1549255118.194536,can1 00111111 [8] 2F 1B 00 00 54 14 00 00
1549255118.195029,can1 00111111 [8] 30 1B 00 00 54 14 00 00
1549255118.205651,can1 00111111 [8] 31 1B 00 00 55 14 00 00
1549255118.212636,can1 00111111 [8] 3A 1B 00 00 5A 14 00 00
1549255118.213355,can1 00111111 [8] 4A 1B 00 00 63 14 00 00
1549255118.213915,can1 00111111 [8] 4C 1B 00 00 64 14 00 00
1549255118.214444,can1 00111111 [8] 4D 1B 00 00 64 14 00 00
1549255118.223292,can1 00111111 [8] 4E 1B 00 00 65 14 00 00
1549255118.224152,can1 00111111 [8] 4F 1B 00 00 66 14 00 00
1549255118.224804,can1 00111111 [8] 50 1B 00 00 66 14 00 00
1549255118.225367,can1 00111111 [8] 51 1B 00 00 67 14 00 00
1549255118.22587,can1 00111111 [8] 66 1B 00 00 72 14 00 00
1549255118.226356,can1 00111111 [8] 6E 1B 00 00 77 14 00 00
1549255118.23856,can1 00111111 [8] 6F 1B 00 00 77 14 00 00
1549255118.239308,can1 00111111 [8] 70 1B 00 00 78 14 00 00
1549255118.239879,can1 00111111 [8] 84 1B 00 00 83 14 00 00
1549255118.240488,can1 00111111 [8] 85 1B 00 00 84 14 00 00
1549255118.241023,can1 00111111 [8] 87 1B 00 00 85 14 00 00
1549255118.241517,can1 00111111 [8] 88 1B 00 00 85 14 00 00
1549255118.242003,can1 00111111 [8] 89 1B 00 00 86 14 00 00
1549255118.258483,can1 00111111 [8] 9B 1B 00 00 90 14 00 00
1549255118.259249,can1 00111111 [8] A4 1B 00 00 95 14 00 00
1549255118.25988,can1 00111111 [8] A5 1B 00 00 95 14 00 00
1549255118.260432,can1 00111111 [8] A6 1B 00 00 96 14 00 00
1549255118.260936,can1 00111111 [8] A7 1B 00 00 97 14 00 00
1549255118.26138,can1 00111111 [8] A8 1B 00 00 97 14 00 00
1549255118.273446,can1 00111111 [8] B9 1B 00 00 A1 14 00 00
1549255118.274361,can1 00111111 [8] E2 1B 00 00 B7 14 00 00
1549255118.274968,can1 00111111 [8] E4 1B 00 00 B9 14 00 00
1549255118.275574,can1 00111111 [8] 03 1C 00 00 CA 14 00 00
1549255118.27611,can1 00111111 [8] 06 1C 00 00 CC 14 00 00
1549255118.276607,can1 00111111 [8] 07 1C 00 00 CC 14 00 00
1549255118.277032,can1 00111111 [8] 2E 1C 00 00 E2 14 00 00
1549255118.286583,can1 00111111 [8] 2F 1C 00 00 E3 14 00 00
1549255118.293706,can1 00111111 [8] 30 1C 00 00 E3 14 00 00
1549255118.294331,can1 00111111 [8] 58 1C 00 00 F9 14 00 00
1549255118.29495,can1 00111111 [8] 59 1C 00 00 FA 14 00 00
1549255118.295492,can1 00111111 [8] 5B 1C 00 00 FB 14 00 00
1549255118.296007,can1 00111111 [8] 6D 1C 00 00 05 15 00 00
1549255118.296498,can1 00111111 [8] 6E 1C 00 00 06 15 00 00
1549255118.307794,can1 00111111 [8] 6F 1C 00 00 06 15 00 00
1549255118.311029,can1 00111111 [8] 91 1C 00 00 19 15 00 00
1549255118.311652,can1 00111111 [8] AA 1C 00 00 27 15 00 00
1549255118.312191,can1 00111111 [8] AC 1C 00 00 29 15 00 00
1549255118.312787,can1 00111111 [8] AD 1C 00 00 29 15 00 00
1549255118.313307,can1 00111111 [8] AE 1C 00 00 2A 15 00 00
1549255118.313811,can1 00111111 [8] D0 1C 00 00 3D 15 00 00
1549255118.314289,can1 00111111 [8] D2 1C 00 00 3E 15 00 00
1549255118.329342,can1 00111111 [8] D3 1C 00 00 3E 15 00 00
1549255118.330306,can1 00111111 [8] D4 1C 00 00 3F 15 00 00
1549255118.330908,can1 00111111 [8] F7 1C 00 00 52 15 00 00
1549255118.331435,can1 00111111 [8] FF 1C 00 00 57 15 00 00
1549255118.337837,can1 00111111 [8] 01 1D 00 00 58 15 00 00
1549255118.341036,can1 00111111 [8] 02 1D 00 00 59 15 00 00
1549255118.341732,can1 00111111 [8] 20 1D 00 00 69 15 00 00
1549255118.342305,can1 00111111 [8] 22 1D 00 00 6A 15 00 00
1549255118.342829,can1 00111111 [8] 23 1D 00 00 6B 15 00 00
1549255118.343323,can1 00111111 [8] 24 1D 00 00 6C 15 00 00
1549255118.351176,can1 00111111 [8] 25 1D 00 00 6C 15 00 00
1549255118.357174,can1 00111111 [8] 5B 1D 00 00 8A 15 00 00
1549255118.357873,can1 00111111 [8] 5C 1D 00 00 8B 15 00 00
1549255118.358435,can1 00111111 [8] 75 1D 00 00 99 15 00 00
1549255118.358943,can1 00111111 [8] 77 1D 00 00 9A 15 00 00
1549255118.36771,can1 00111111 [8] 78 1D 00 00 9A 15 00 00
1549255118.368579,can1 00111111 [8] 79 1D 00 00 9B 15 00 00
1549255118.369238,can1 00111111 [8] 8A 1D 00 00 A4 15 00 00
1549255118.369793,can1 00111111 [8] 97 1D 00 00 AC 15 00 00
1549255118.370306,can1 00111111 [8] 99 1D 00 00 AD 15 00 00
1549255118.370795,can1 00111111 [8] 9A 1D 00 00 AD 15 00 00
1549255118.378463,can1 00111111 [8] 9B 1D 00 00 AE 15 00 00
1549255118.386386,can1 00111111 [8] 9C 1D 00 00 AE 15 00 00
1549255118.387145,can1 00111111 [8] B3 1D 00 00 BB 15 00 00
1549255118.387716,can1 00111111 [8] B5 1D 00 00 BC 15 00 00
1549255118.388226,can1 00111111 [8] C5 1D 00 00 C5 15 00 00
1549255118.397571,can1 00111111 [8] C6 1D 00 00 C6 15 00 00
1549255118.398483,can1 00111111 [8] D1 1D 00 00 CC 15 00 00
1549255118.399162,can1 00111111 [8] DB 1D 00 00 D2 15 00 00
1549255118.399637,can1 00111111 [8] E9 1D 00 00 D9 15 00 00
1549255118.400129,can1 00111111 [8] EB 1D 00 00 DA 15 00 00
1549255118.412768,can1 00111111 [8] EC 1D 00 00 DB 15 00 00
1549255118.413602,can1 00111111 [8] ED 1D 00 00 DC 15 00 00
1549255118.414347,can1 00111111 [8] 04 1E 00 00 E8 15 00 00
1549255118.414892,can1 00111111 [8] 1A 1E 00 00 F5 15 00 00
1549255118.415386,can1 00111111 [8] 1F 1E 00 00 F7 15 00 00
1549255118.415815,can1 00111111 [8] 20 1E 00 00 F8 15 00 00
1549255118.446102,can1 00111111 [8] 21 1E 00 00 F9 15 00 00
1549255118.446869,can1 00111111 [8] 30 1E 00 00 01 16 00 00
1549255118.453367,can1 00111111 [8] 31 1E 00 00 02 16 00 00
1549255118.454095,can1 00111111 [8] 32 1E 00 00 02 16 00 00
1549255118.454666,can1 00111111 [8] 43 1E 00 00 0C 16 00 00
1549255118.472852,can1 00111111 [8] 45 1E 00 00 0D 16 00 00
1549255118.473625,can1 00111111 [8] 46 1E 00 00 0D 16 00 00
1549255118.474203,can1 00111111 [8] 47 1E 00 00 0E 16 00 00
1549255118.489813,can1 00111111 [8] 5C 1E 00 00 1A 16 00 00
1549255118.490741,can1 00111111 [8] 5E 1E 00 00 1B 16 00 00
1549255118.491325,can1 00111111 [8] 5F 1E 00 00 1B 16 00 00
1549255118.491855,can1 00111111 [8] 60 1E 00 00 1C 16 00 00
1549255118.510003,can1 00111111 [8] 78 1E 00 00 29 16 00 00
1549255118.510806,can1 00111111 [8] 82 1E 00 00 2F 16 00 00
1549255118.511388,can1 00111111 [8] 8B 1E 00 00 34 16 00 00
1549255118.530895,can1 00111111 [8] 8D 1E 00 00 35 16 00 00
1549255118.531827,can1 00111111 [8] 8E 1E 00 00 36 16 00 00
1549255118.532417,can1 00111111 [8] 8F 1E 00 00 36 16 00 00
1549255118.532945,can1 00111111 [8] 90 1E 00 00 37 16 00 00
1549255118.555741,can1 00111111 [8] 91 1E 00 00 37 16 00 00
1549255118.564598,can1 00111111 [8] A4 1E 00 00 42 16 00 00
1549255118.565279,can1 00111111 [8] A5 1E 00 00 43 16 00 00
1549255118.565833,can1 00111111 [8] A7 1E 00 00 44 16 00 00
1549255118.587284,can1 00111111 [8] A8 1E 00 00 44 16 00 00
1549255118.588299,can1 00111111 [8] A9 1E 00 00 45 16 00 00
1549255118.588935,can1 00111111 [8] AA 1E 00 00 45 16 00 00
1549255118.589472,can1 00111111 [8] C2 1E 00 00 53 16 00 00
1549255118.606395,can1 00111111 [8] C3 1E 00 00 53 16 00 00
1549255118.616677,can1 00111111 [8] C5 1E 00 00 54 16 00 00
1549255118.617477,can1 00111111 [8] C6 1E 00 00 55 16 00 00
1549255118.618571,can1 00111111 [8] C7 1E 00 00 55 16 00 00
1549255118.642268,can1 00111111 [8] C8 1E 00 00 56 16 00 00
1549255118.643216,can1 00111111 [8] C9 1E 00 00 57 16 00 00
1549255118.643904,can1 00111111 [8] D5 1E 00 00 5D 16 00 00
1549255118.65759,can1 00111111 [8] E2 1E 00 00 65 16 00 00
1549255118.671317,can1 00111111 [8] E3 1E 00 00 65 16 00 00
1549255118.672165,can1 00111111 [8] E4 1E 00 00 66 16 00 00
1549255118.672751,can1 00111111 [8] E5 1E 00 00 66 16 00 00
1549255118.673267,can1 00111111 [8] F4 1E 00 00 6F 16 00 00
1549255118.691035,can1 00111111 [8] F5 1E 00 00 6F 16 00 00
1549255118.692095,can1 00111111 [8] F6 1E 00 00 70 16 00 00
1549255118.692723,can1 00111111 [8] 08 1F 00 00 7A 16 00 00
1549255118.693334,can1 00111111 [8] 0A 1F 00 00 7B 16 00 00
1549255118.693866,can1 00111111 [8] 0B 1F 00 00 7B 16 00 00
1549255118.694365,can1 00111111 [8] 0C 1F 00 00 7C 16 00 00
1549255118.694848,can1 00111111 [8] 0D 1F 00 00 7D 16 00 00
1549255118.702293,can1 00111111 [8] 0E 1F 00 00 7D 16 00 00
1549255118.711735,can1 00111111 [8] 0F 1F 00 00 7E 16 00 00
1549255118.712518,can1 00111111 [8] 1B 1F 00 00 84 16 00 00
1549255118.713168,can1 00111111 [8] 2A 1F 00 00 8D 16 00 00
1549255118.713711,can1 00111111 [8] 2C 1F 00 00 8E 16 00 00
1549255118.714214,can1 00111111 [8] 2D 1F 00 00 8F 16 00 00
1549255118.714649,can1 00111111 [8] 2E 1F 00 00 8F 16 00 00
1549255118.727073,can1 00111111 [8] 40 1F 00 00 99 16 00 00
1549255118.727798,can1 00111111 [8] 42 1F 00 00 9B 16 00 00
1549255118.728356,can1 00111111 [8] 43 1F 00 00 9B 16 00 00
1549255118.728986,can1 00111111 [8] 44 1F 00 00 9C 16 00 00
1549255118.729505,can1 00111111 [8] 45 1F 00 00 9C 16 00 00
1549255118.729999,can1 00111111 [8] 46 1F 00 00 9D 16 00 00
1549255118.736804,can1 00111111 [8] 47 1F 00 00 9D 16 00 00
1549255118.745139,can1 00111111 [8] 78 1F 00 00 B9 16 00 00
1549255118.750191,can1 00111111 [8] 7A 1F 00 00 BA 16 00 00
1549255118.750836,can1 00111111 [8] 7B 1F 00 00 BA 16 00 00
1549255118.751374,can1 00111111 [8] A2 1F 00 00 D0 16 00 00
1549255118.760354,can1 00111111 [8] A3 1F 00 00 D1 16 00 00
1549255118.761284,can1 00111111 [8] A4 1F 00 00 D1 16 00 00
1549255118.762057,can1 00111111 [8] BF 1F 00 00 E1 16 00 00
1549255118.762613,can1 00111111 [8] C0 1F 00 00 E1 16 00 00
1549255118.763123,can1 00111111 [8] DA 1F 00 00 F0 16 00 00
1549255118.76903,can1 00111111 [8] DB 1F 00 00 F0 16 00 00
1549255118.777547,can1 00111111 [8] DC 1F 00 00 F1 16 00 00
1549255118.778284,can1 00111111 [8] FC 1F 00 00 03 17 00 00
1549255118.778839,can1 00111111 [8] FD 1F 00 00 03 17 00 00
1549255118.77943,can1 00111111 [8] FE 1F 00 00 04 17 00 00
1549255118.779956,can1 00111111 [8] 1B 20 00 00 14 17 00 00
1549255118.780453,can1 00111111 [8] 27 20 00 00 1B 17 00 00
1549255118.780934,can1 00111111 [8] 29 20 00 00 1C 17 00 00
1549255118.790789,can1 00111111 [8] 2A 20 00 00 1D 17 00 00
1549255118.79879,can1 00111111 [8] 2B 20 00 00 1D 17 00 00
1549255118.799484,can1 00111111 [8] 2C 20 00 00 1E 17 00 00
1549255118.800036,can1 00111111 [8] 56 20 00 00 36 17 00 00
1549255118.800542,can1 00111111 [8] 57 20 00 00 36 17 00 00
1549255118.808219,can1 00111111 [8] 58 20 00 00 37 17 00 00
1549255118.808988,can1 00111111 [8] 87 20 00 00 51 17 00 00
1549255118.8147,can1 00111111 [8] 98 20 00 00 5B 17 00 00
1549255118.815333,can1 00111111 [8] 9A 20 00 00 5C 17 00 00
1549255118.815878,can1 00111111 [8] 9B 20 00 00 5C 17 00 00
1549255118.823713,can1 00111111 [8] BF 20 00 00 70 17 00 00
1549255118.826443,can1 00111111 [8] C0 20 00 00 71 17 00 00
1549255118.827087,can1 00111111 [8] C1 20 00 00 71 17 00 00
1549255118.827637,can1 00111111 [8] E3 20 00 00 85 17 00 00
1549255118.836126,can1 00111111 [8] E4 20 00 00 85 17 00 00
1549255118.838268,can1 00111111 [8] F0 20 00 00 8C 17 00 00
1549255118.838891,can1 00111111 [8] F1 20 00 00 8C 17 00 00
1549255118.839442,can1 00111111 [8] F2 20 00 00 8D 17 00 00
1549255118.850114,can1 00111111 [8] 0A 21 00 00 9A 17 00 00
1549255118.853735,can1 00111111 [8] 0B 21 00 00 9B 17 00 00
1549255118.854382,can1 00111111 [8] 0C 21 00 00 9C 17 00 00
1549255118.854915,can1 00111111 [8] 0D 21 00 00 9C 17 00 00
1549255118.862383,can1 00111111 [8] 0E 21 00 00 9D 17 00 00
1549255118.863426,can1 00111111 [8] 24 21 00 00 A9 17 00 00
1549255118.864052,can1 00111111 [8] 25 21 00 00 AA 17 00 00
1549255118.864584,can1 00111111 [8] 26 21 00 00 AA 17 00 00
1549255118.86509,can1 00111111 [8] 28 21 00 00 AB 17 00 00
1549255118.877295,can1 00111111 [8] 29 21 00 00 AC 17 00 00
1549255118.878126,can1 00111111 [8] 2A 21 00 00 AC 17 00 00
1549255118.878699,can1 00111111 [8] 30 21 00 00 B0 17 00 00
1549255118.879316,can1 00111111 [8] 42 21 00 00 BA 17 00 00
1549255118.879831,can1 00111111 [8] 44 21 00 00 BB 17 00 00
1549255118.880318,can1 00111111 [8] 45 21 00 00 BB 17 00 00
1549255118.884567,can1 00111111 [8] 46 21 00 00 BC 17 00 00
1549255118.891911,can1 00111111 [8] 58 21 00 00 C6 17 00 00
1549255118.899878,can1 00111111 [8] 5A 21 00 00 C7 17 00 00
1549255118.900633,can1 00111111 [8] 5B 21 00 00 C8 17 00 00
1549255118.9012,can1 00111111 [8] 5C 21 00 00 C8 17 00 00
1549255118.90171,can1 00111111 [8] 5D 21 00 00 C9 17 00 00
1549255118.912311,can1 00111111 [8] 5E 21 00 00 C9 17 00 00
1549255118.913349,can1 00111111 [8] 5F 21 00 00 CA 17 00 00
1549255118.914035,can1 00111111 [8] 77 21 00 00 D7 17 00 00
1549255118.914617,can1 00111111 [8] 78 21 00 00 D8 17 00 00
1549255118.915128,can1 00111111 [8] 7A 21 00 00 D9 17 00 00
1549255118.915634,can1 00111111 [8] 7B 21 00 00 D9 17 00 00
1549255118.944216,can1 00111111 [8] 8E 21 00 00 E4 17 00 00
1549255118.95119,can1 00111111 [8] 8F 21 00 00 E5 17 00 00
1549255118.951901,can1 00111111 [8] 91 21 00 00 E6 17 00 00
1549255118.952462,can1 00111111 [8] 92 21 00 00 E6 17 00 00
1549255118.952978,can1 00111111 [8] 93 21 00 00 E7 17 00 00
1549255118.977145,can1 00111111 [8] 94 21 00 00 E7 17 00 00
1549255118.977952,can1 00111111 [8] A8 21 00 00 F2 17 00 00
1549255118.991955,can1 00111111 [8] A9 21 00 00 F3 17 00 00
1549255118.992976,can1 00111111 [8] AA 21 00 00 F4 17 00 00
1549255118.993572,can1 00111111 [8] AB 21 00 00 F4 17 00 00
1549255119.007947,can1 00111111 [8] AC 21 00 00 F5 17 00 00
1549255119.02119,can1 00111111 [8] BE 21 00 00 FF 17 00 00
1549255119.022117,can1 00111111 [8] BF 21 00 00 FF 17 00 00
1549255119.022701,can1 00111111 [8] C0 21 00 00 00 18 00 00
1549255119.02323,can1 00111111 [8] C1 21 00 00 00 18 00 00
1549255119.04905,can1 00111111 [8] D4 21 00 00 0B 18 00 00
1549255119.049913,can1 00111111 [8] D6 21 00 00 0C 18 00 00
1549255119.050485,can1 00111111 [8] D7 21 00 00 0D 18 00 00
1549255119.066845,can1 00111111 [8] D8 21 00 00 0D 18 00 00
1549255119.067706,can1 00111111 [8] D9 21 00 00 0E 18 00 00
1549255119.081547,can1 00111111 [8] DF 21 00 00 11 18 00 00
1549255119.091955,can1 00111111 [8] EF 21 00 00 1A 18 00 00
1549255119.09271,can1 00111111 [8] F1 21 00 00 1B 18 00 00
1549255119.093285,can1 00111111 [8] F2 21 00 00 1C 18 00 00
1549255119.111406,can1 00111111 [8] F3 21 00 00 1C 18 00 00
1549255119.112345,can1 00111111 [8] F4 21 00 00 1D 18 00 00
1549255119.112971,can1 00111111 [8] F5 21 00 00 1D 18 00 00
1549255119.130658,can1 00111111 [8] 01 22 00 00 24 18 00 00
1549255119.142144,can1 00111111 [8] 11 22 00 00 2D 18 00 00
1549255119.142989,can1 00111111 [8] 12 22 00 00 2E 18 00 00
1549255119.143573,can1 00111111 [8] 13 22 00 00 2E 18 00 00
1549255119.144103,can1 00111111 [8] 14 22 00 00 2F 18 00 00
1549255119.156361,can1 00111111 [8] 1A 22 00 00 32 18 00 00
1549255119.157217,can1 00111111 [8] 28 22 00 00 3A 18 00 00
1549255119.157801,can1 00111111 [8] 32 22 00 00 40 18 00 00
1549255119.163032,can1 00111111 [8] 33 22 00 00 40 18 00 00
1549255119.163854,can1 00111111 [8] 34 22 00 00 41 18 00 00
1549255119.164523,can1 00111111 [8] 35 22 00 00 41 18 00 00
1549255119.165048,can1 00111111 [8] 36 22 00 00 42 18 00 00
1549255119.165561,can1 00111111 [8] 37 22 00 00 42 18 00 00
1549255119.175245,can1 00111111 [8] 44 22 00 00 4A 18 00 00
1549255119.176806,can1 00111111 [8] 58 22 00 00 55 18 00 00
1549255119.17742,can1 00111111 [8] 59 22 00 00 55 18 00 00
1549255119.17856,can1 00111111 [8] 5A 22 00 00 56 18 00 00
1549255119.179198,can1 00111111 [8] 5B 22 00 00 57 18 00 00
1549255119.186944,can1 00111111 [8] 5C 22 00 00 57 18 00 00
1549255119.194424,can1 00111111 [8] 5D 22 00 00 58 18 00 00
1549255119.195109,can1 00111111 [8] 5E 22 00 00 58 18 00 00
1549255119.201303,can1 00111111 [8] 6E 22 00 00 61 18 00 00
1549255119.202177,can1 00111111 [8] 7A 22 00 00 68 18 00 00
1549255119.20276,can1 00111111 [8] 7B 22 00 00 68 18 00 00
1549255119.203369,can1 00111111 [8] 7C 22 00 00 69 18 00 00
1549255119.203907,can1 00111111 [8] 7D 22 00 00 6A 18 00 00
1549255119.204409,can1 00111111 [8] 91 22 00 00 75 18 00 00
1549255119.204891,can1 00111111 [8] 92 22 00 00 75 18 00 00
1549255119.215244,can1 00111111 [8] 94 22 00 00 76 18 00 00
1549255119.215899,can1 00111111 [8] 95 22 00 00 77 18 00 00
1549255119.216451,can1 00111111 [8] 96 22 00 00 78 18 00 00
1549255119.217055,can1 00111111 [8] A4 22 00 00 7F 18 00 00
1549255119.217573,can1 00111111 [8] A6 22 00 00 80 18 00 00
1549255119.218087,can1 00111111 [8] A7 22 00 00 81 18 00 00
1549255119.218578,can1 00111111 [8] D5 22 00 00 9B 18 00 00
1549255119.231885,can1 00111111 [8] D7 22 00 00 9C 18 00 00
1549255119.237769,can1 00111111 [8] D8 22 00 00 9C 18 00 00
1549255119.238543,can1 00111111 [8] EA 22 00 00 A6 18 00 00
1549255119.239115,can1 00111111 [8] EB 22 00 00 A7 18 00 00
1549255119.239641,can1 00111111 [8] ED 22 00 00 A8 18 00 00
1549255119.24585,can1 00111111 [8] 05 23 00 00 B5 18 00 00
1549255119.248511,can1 00111111 [8] 0A 23 00 00 B8 18 00 00
1549255119.249151,can1 00111111 [8] 0C 23 00 00 B9 18 00 00
1549255119.249701,can1 00111111 [8] 0D 23 00 00 BA 18 00 00
1549255119.257806,can1 00111111 [8] 37 23 00 00 D2 18 00 00
1549255119.258525,can1 00111111 [8] 38 23 00 00 D2 18 00 00
1549255119.267501,can1 00111111 [8] 3A 23 00 00 D3 18 00 00
1549255119.26828,can1 00111111 [8] 58 23 00 00 E4 18 00 00
1549255119.268858,can1 00111111 [8] 5A 23 00 00 E5 18 00 00
1549255119.269386,can1 00111111 [8] 5B 23 00 00 E6 18 00 00
1549255119.277598,can1 00111111 [8] 5C 23 00 00 E6 18 00 00
1549255119.278257,can1 00111111 [8] 5D 23 00 00 E7 18 00 00
1549255119.278807,can1 00111111 [8] 7D 23 00 00 F9 18 00 00
1549255119.286902,can1 00111111 [8] 7E 23 00 00 F9 18 00 00
1549255119.287811,can1 00111111 [8] 7F 23 00 00 FA 18 00 00
1549255119.288412,can1 00111111 [8] A5 23 00 00 0F 19 00 00
1549255119.294174,can1 00111111 [8] AB 23 00 00 12 19 00 00
1549255119.295099,can1 00111111 [8] AC 23 00 00 13 19 00 00
1549255119.295784,can1 00111111 [8] AD 23 00 00 14 19 00 00
1549255119.296325,can1 00111111 [8] D1 23 00 00 28 19 00 00
1549255119.302845,can1 00111111 [8] D3 23 00 00 29 19 00 00
1549255119.30757,can1 00111111 [8] D4 23 00 00 29 19 00 00
1549255119.308211,can1 00111111 [8] EC 23 00 00 37 19 00 00
1549255119.308831,can1 00111111 [8] EE 23 00 00 38 19 00 00
1549255119.309359,can1 00111111 [8] EF 23 00 00 38 19 00 00
1549255119.309858,can1 00111111 [8] F0 23 00 00 39 19 00 00
1549255119.317229,can1 00111111 [8] 18 24 00 00 4F 19 00 00
1549255119.323726,can1 00111111 [8] 1A 24 00 00 50 19 00 00
1549255119.324489,can1 00111111 [8] 40 24 00 00 65 19 00 00
1549255119.325061,can1 00111111 [8] 42 24 00 00 67 19 00 00
1549255119.325586,can1 00111111 [8] 43 24 00 00 67 19 00 00
1549255119.331323,can1 00111111 [8] 63 24 00 00 79 19 00 00
1549255119.338252,can1 00111111 [8] 65 24 00 00 7A 19 00 00
1549255119.338936,can1 00111111 [8] 66 24 00 00 7B 19 00 00
1549255119.339488,can1 00111111 [8] 67 24 00 00 7B 19 00 00
1549255119.347371,can1 00111111 [8] 79 24 00 00 85 19 00 00
1549255119.348298,can1 00111111 [8] 7B 24 00 00 86 19 00 00
1549255119.348879,can1 00111111 [8] 7C 24 00 00 87 19 00 00
1549255119.349402,can1 00111111 [8] 7D 24 00 00 87 19 00 00
1549255119.359859,can1 00111111 [8] 7E 24 00 00 88 19 00 00
1549255119.360652,can1 00111111 [8] 7F 24 00 00 89 19 00 00
1549255119.361272,can1 00111111 [8] 8C 24 00 00 90 19 00 00
1549255119.361833,can1 00111111 [8] 9A 24 00 00 98 19 00 00
1549255119.362336,can1 00111111 [8] 9B 24 00 00 98 19 00 00
1549255119.362831,can1 00111111 [8] 9C 24 00 00 99 19 00 00
1549255119.369892,can1 00111111 [8] 9D 24 00 00 99 19 00 00
1549255119.378484,can1 00111111 [8] 9E 24 00 00 9A 19 00 00
1549255119.379283,can1 00111111 [8] 9F 24 00 00 9A 19 00 00
1549255119.379869,can1 00111111 [8] AE 24 00 00 A3 19 00 00
1549255119.380405,can1 00111111 [8] BE 24 00 00 AC 19 00 00
1549255119.389268,can1 00111111 [8] C0 24 00 00 AD 19 00 00
1549255119.390082,can1 00111111 [8] C1 24 00 00 AD 19 00 00
1549255119.39082,can1 00111111 [8] C2 24 00 00 AE 19 00 00
1549255119.39138,can1 00111111 [8] CF 24 00 00 B5 19 00 00
1549255119.391827,can1 00111111 [8] D3 24 00 00 B7 19 00 00
1549255119.392316,can1 00111111 [8] D5 24 00 00 B8 19 00 00
1549255119.404511,can1 00111111 [8] D6 24 00 00 B9 19 00 00
1549255119.405356,can1 00111111 [8] D7 24 00 00 B9 19 00 00
1549255119.405938,can1 00111111 [8] D8 24 00 00 BA 19 00 00
1549255119.406563,can1 00111111 [8] ED 24 00 00 C6 19 00 00
1549255119.407085,can1 00111111 [8] EF 24 00 00 C7 19 00 00
1549255119.407586,can1 00111111 [8] F0 24 00 00 C7 19 00 00
1549255119.408012,can1 00111111 [8] F1 24 00 00 C8 19 00 00
1549255119.420089,can1 00111111 [8] F2 24 00 00 C8 19 00 00
1549255119.42077,can1 00111111 [8] F3 24 00 00 C9 19 00 00
1549255119.438371,can1 00111111 [8] F4 24 00 00 CA 19 00 00
1549255119.439506,can1 00111111 [8] 11 25 00 00 DA 19 00 00
1549255119.440158,can1 00111111 [8] 12 25 00 00 DA 19 00 00
1549255119.440696,can1 00111111 [8] 13 25 00 00 DB 19 00 00
1549255119.441197,can1 00111111 [8] 14 25 00 00 DB 19 00 00
1549255119.476499,can1 00111111 [8] 15 25 00 00 DC 19 00 00
1549255119.477445,can1 00111111 [8] 16 25 00 00 DD 19 00 00
1549255119.478033,can1 00111111 [8] 23 25 00 00 E4 19 00 00
1549255119.494932,can1 00111111 [8] 2D 25 00 00 E9 19 00 00
1549255119.495842,can1 00111111 [8] 2E 25 00 00 EA 19 00 00
1549255119.501328,can1 00111111 [8] 2F 25 00 00 EB 19 00 00
1549255119.50206,can1 00111111 [8] 30 25 00 00 EB 19 00 00
1549255119.502628,can1 00111111 [8] 31 25 00 00 EC 19 00 00
1549255119.503158,can1 00111111 [8] 32 25 00 00 EC 19 00 00
1549255119.503668,can1 00111111 [8] 40 25 00 00 F4 19 00 00
1549255119.524143,can1 00111111 [8] 50 25 00 00 FD 19 00 00
1549255119.524861,can1 00111111 [8] 51 25 00 00 FE 19 00 00
1549255119.543301,can1 00111111 [8] 52 25 00 00 FE 19 00 00
1549255119.54423,can1 00111111 [8] 53 25 00 00 FF 19 00 00
1549255119.55413,can1 00111111 [8] 54 25 00 00 FF 19 00 00
1549255119.556828,can1 00111111 [8] 55 25 00 00 00 1A 00 00
1549255119.557473,can1 00111111 [8] 61 25 00 00 06 1A 00 00
1549255119.558026,can1 00111111 [8] 6F 25 00 00 0E 1A 00 00
1549255119.571502,can1 00111111 [8] 70 25 00 00 0F 1A 00 00
1549255119.591404,can1 00111111 [8] 71 25 00 00 0F 1A 00 00
1549255119.592221,can1 00111111 [8] 72 25 00 00 10 1A 00 00
1549255119.592803,can1 00111111 [8] 73 25 00 00 11 1A 00 00
1549255119.593321,can1 00111111 [8] 74 25 00 00 11 1A 00 00
1549255119.612687,can1 00111111 [8] 75 25 00 00 12 1A 00 00
1549255119.61768,can1 00111111 [8] 86 25 00 00 1B 1A 00 00
1549255119.618383,can1 00111111 [8] 91 25 00 00 21 1A 00 00
1549255119.618872,can1 00111111 [8] 93 25 00 00 22 1A 00 00
1549255119.634331,can1 00111111 [8] 94 25 00 00 23 1A 00 00
1549255119.635087,can1 00111111 [8] 95 25 00 00 23 1A 00 00
1549255119.63572,can1 00111111 [8] A5 25 00 00 2C 1A 00 00
1549255119.636177,can1 00111111 [8] A6 25 00 00 2D 1A 00 00
1549255119.651478,can1 00111111 [8] A7 25 00 00 2D 1A 00 00
1549255119.652432,can1 00111111 [8] A8 25 00 00 2E 1A 00 00
1549255119.653147,can1 00111111 [8] A9 25 00 00 2F 1A 00 00
1549255119.653705,can1 00111111 [8] B3 25 00 00 34 1A 00 00
1549255119.669149,can1 00111111 [8] C2 25 00 00 3C 1A 00 00
1549255119.671357,can1 00111111 [8] C3 25 00 00 3D 1A 00 00
1549255119.672158,can1 00111111 [8] C4 25 00 00 3E 1A 00 00
1549255119.672725,can1 00111111 [8] C5 25 00 00 3E 1A 00 00
1549255119.673249,can1 00111111 [8] D4 25 00 00 47 1A 00 00
1549255119.673681,can1 00111111 [8] D6 25 00 00 48 1A 00 00
1549255119.689056,can1 00111111 [8] D7 25 00 00 48 1A 00 00
1549255119.689913,can1 00111111 [8] D9 25 00 00 49 1A 00 00
1549255119.690497,can1 00111111 [8] DA 25 00 00 4A 1A 00 00
1549255119.691016,can1 00111111 [8] DB 25 00 00 4A 1A 00 00
1549255119.704381,can1 00111111 [8] E5 25 00 00 50 1A 00 00
1549255119.707834,can1 00111111 [8] F6 25 00 00 59 1A 00 00
1549255119.708598,can1 00111111 [8] F8 25 00 00 5A 1A 00 00
1549255119.715809,can1 00111111 [8] F9 25 00 00 5B 1A 00 00
1549255119.716544,can1 00111111 [8] FA 25 00 00 5C 1A 00 00
1549255119.724237,can1 00111111 [8] 02 26 00 00 60 1A 00 00
1549255119.724986,can1 00111111 [8] 0C 26 00 00 66 1A 00 00
1549255119.725618,can1 00111111 [8] 0D 26 00 00 66 1A 00 00
1549255119.726073,can1 00111111 [8] 0E 26 00 00 67 1A 00 00
1549255119.738801,can1 00111111 [8] 0F 26 00 00 67 1A 00 00
1549255119.739737,can1 00111111 [8] 22 26 00 00 72 1A 00 00
1549255119.747754,can1 00111111 [8] 27 26 00 00 75 1A 00 00
1549255119.750972,can1 00111111 [8] 28 26 00 00 75 1A 00 00
1549255119.751617,can1 00111111 [8] 29 26 00 00 76 1A 00 00
1549255119.760761,can1 00111111 [8] 2A 26 00 00 76 1A 00 00
1549255119.76677,can1 00111111 [8] 2B 26 00 00 77 1A 00 00
1549255119.770244,can1 00111111 [8] 61 26 00 00 95 1A 00 00
1549255119.771073,can1 00111111 [8] 63 26 00 00 96 1A 00 00
