1524597049.83359,can0 08FF0001 [8] 00 00 00 00 00 00 00 00
1524597049.854663,can0 0CF00203 [8] 00 00 00 00 00 00 00 00
1524597049.857017,can0 08FF0303 [8] 00 00 00 00 00 00 00 00
1524597049.869577,can0 08FF0001 [8] 00 00 00 00 00 00 00 00
1524597049.881492,can0 0CF00203 [8] 00 00 00 00 00 00 00 00
1524597049.891362,can0 08FF0303 [8] 00 00 00 00 00 00 00 00
1524597049.893302,can0 08FF0001 [8] 00 00 00 00 00 00 00 00
1524597049.894685,can0 0CF00203 [8] 00 00 00 00 00 00 00 00
1524597049.904768,can0 08FF0303 [8] 00 00 00 00 00 00 00 00
1524597049.912852,can0 08FF0001 [8] 00 00 00 00 00 00 00 00
1524597049.914771,can0 0CF00203 [8] 00 00 00 00 00 00 00 00
1524597049.921029,can0 08FF0303 [8] 00 00 00 00 00 00 00 00
1524597049.922648,can0 18F00503 [8] 00 00 00 00 00 00 00 00
1524597049.923943,can0 08FF0001 [8] 00 00 00 00 00 00 00 00
1524597049.933327,can0 0CF00203 [8] 00 00 00 00 00 00 00 00
1524597049.934787,can0 08FF0303 [8] 00 00 00 00 00 00 00 00
1524597049.940426,can0 08FF0001 [8] 00 00 00 00 00 00 00 00
1524597049.942179,can0 0CF00203 [8] 00 00 00 00 00 00 00 00
1524597049.943508,can0 08FF0303 [8] 00 00 00 00 00 00 00 00
1524597049.958863,can0 08FF0001 [8] 00 00 00 00 00 00 00 00
1524597049.960318,can0 0CF00203 [8] 00 00 00 00 00 00 00 00
1524597049.969652,can0 08FF0303 [8] 00 00 00 00 00 00 00 00
1524597049.971199,can0 08FF0001 [8] 00 00 00 00 00 00 00 00
1524597049.976505,can0 0CF00203 [8] 00 00 00 00 00 00 00 00
1524597049.982324,can0 08FF0303 [8] 00 00 00 00 00 00 00 00
1524597049.991794,can0 08FF0001 [8] 00 00 00 00 00 00 00 00
1524597049.993273,can0 0CF00203 [8] 00 00 00 00 00 00 00 00
1524597050.002564,can0 08FF0303 [8] 00 00 00 00 00 00 00 00
1524597050.003997,can0 08FF0001 [8] 00 00 00 00 00 00 00 00
1524597050.005425,can0 0CF00203 [8] 00 00 00 00 00 00 00 00
1524597050.015048,can0 08FF0303 [8] 00 00 00 00 00 00 00 00
1524597050.016921,can0 08FF0001 [8] 00 00 00 00 00 00 00 00
1524597050.026622,can0 0CF00203 [8] 00 00 00 00 00 00 00 00
1524597050.028276,can0 08FF0303 [8] 00 00 00 00 00 00 00 00
1524597050.038517,can0 08FF0001 [8] 00 00 00 00 00 00 00 00
1524597050.040213,can0 0CF00203 [8] 00 00 00 00 00 00 00 00
1524597050.0498,can0 08FF0303 [8] 00 00 00 00 00 00 00 00
1524597050.051743,can0 08FF0001 [8] 00 00 00 00 00 00 00 00
1524597050.061336,can0 0CF00203 [8] 00 00 00 00 00 00 00 00
1524597050.062857,can0 08FF0303 [8] 00 00 00 00 00 00 00 00
1524597050.064151,can0 08FF0001 [8] 00 00 00 00 00 00 00 00
1524597050.072973,can0 0CF00203 [8] 00 00 00 00 00 00 00 00
1524597050.074354,can0 08FF0303 [8] 00 00 00 00 00 00 00 00
1524597050.076634,can0 18F00503 [8] 00 00 00 00 00 00 00 00
1524597050.078069,can0 08FF0001 [8] 00 00 00 00 00 00 00 00
1524597050.091438,can0 0CF00203 [8] 00 00 00 00 00 00 00 00
1524597050.092944,can0 08FF0303 [8] 00 00 00 00 00 00 00 00
1524597050.102273,can0 08FF0001 [8] 00 00 00 00 00 00 00 00
1524597050.103789,can0 0CF00203 [8] 00 00 00 00 00 00 00 00
1524597050.105081,can0 08FF0303 [8] 00 00 00 00 00 00 00 00
1524597050.11446,can0 08FF0001 [8] 00 00 00 00 00 00 00 00
1524597050.116086,can0 0CF00203 [8] 00 00 00 00 00 00 00 00
1524597050.125917,can0 08FF0303 [8] 00 00 00 00 00 00 00 00
1524597050.127703,can0 08FF0001 [8] 00 00 00 00 00 00 00 00
1524597050.137166,can0 0CF00203 [8] 00 00 00 00 00 00 00 00
1524597050.138678,can0 08FF0303 [8] 00 00 00 00 00 00 00 00
1524597050.140112,can0 08FF0001 [8] 00 00 00 00 00 00 00 00
1524597050.149583,can0 0CF00203 [8] 00 00 00 00 00 00 00 00
1524597050.151578,can0 08FF0303 [8] 00 00 00 00 00 00 00 00
1524597050.161037,can0 08FF0001 [8] 00 00 00 00 00 00 00 00
1524597050.162537,can0 0CF00203 [8] 00 00 00 00 00 00 00 00
1524597050.163814,can0 08FF0303 [8] 00 00 00 00 00 00 00 00
1524597050.175397,can0 08FF0001 [8] 00 00 00 00 00 00 00 00
1524597050.17748,can0 0CF00203 [8] 00 00 00 00 00 00 00 00
1524597050.186458,can0 08FF0303 [8] 00 00 00 00 00 00 00 00
1524597050.187099,can0 08FF0001 [8] 00 00 00 00 00 00 00 00
1524597050.187563,can0 0CF00203 [8] 00 00 00 00 00 00 00 00
1524597050.196142,can0 08FF0303 [8] 00 00 00 00 00 00 00 00
1524597050.196738,can0 08FF0001 [8] 00 00 00 00 00 00 00 00
1524597050.197258,can0 0CF00203 [8] 00 00 00 00 00 00 00 00
1524597050.197766,can0 08FF0303 [8] 00 00 00 00 00 00 00 00
1524597050.198185,can0 08FF0001 [8] 00 00 00 00 00 00 00 00
1524597050.198581,can0 0CF00203 [8] 00 00 00 00 00 00 00 00
1524597050.198971,can0 08FF0303 [8] 00 00 00 00 00 00 00 00
1524597050.199353,can0 18F00503 [8] 00 00 00 00 00 00 00 00
1524597050.207885,can0 08FF0001 [8] 00 00 00 00 00 00 00 00
1524597050.208367,can0 0CF00203 [8] 00 00 00 00 00 00 00 00
1524597050.20878,can0 08FF0303 [8] 00 00 00 00 00 00 00 00
1524597050.209243,can0 08FF0001 [8] 00 00 00 00 00 00 00 00
1524597050.209671,can0 0CF00203 [8] 00 00 00 00 00 00 00 00
1524597050.21007,can0 08FF0303 [8] 00 00 00 00 00 00 00 00
1524597050.210456,can0 08FF0001 [8] 00 00 00 00 00 00 00 00
1524597050.210841,can0 0CF00203 [8] 00 00 00 00 00 00 00 00
1524597050.216063,can0 08FF0303 [8] 00 00 00 00 00 00 00 00
1524597050.216734,can0 08FF0001 [8] 00 00 00 00 00 00 00 00
1524597050.217357,can0 0CF00203 [8] 00 00 00 00 00 00 00 00
1524597050.217797,can0 08FF0303 [8] 00 00 00 00 00 00 00 00
1524597050.218202,can0 08FF0001 [8] 00 00 00 00 00 00 00 00
1524597050.218595,can0 0CF00203 [8] 00 00 00 00 00 00 00 00
1524597050.219922,can0 08FF0303 [8] 00 00 00 00 00 00 00 00
1524597050.220385,can0 08FF0001 [8] 00 00 00 00 00 00 00 00
1524597050.220805,can0 0CF00203 [8] 00 00 00 00 00 00 00 00
1524597050.221303,can0 08FF0303 [8] 00 00 00 00 00 00 00 00
1524597050.221719,can0 08FF0001 [8] 00 00 00 00 00 00 00 00
1524597050.222106,can0 0CF00203 [8] 00 00 00 00 00 00 00 00
1524597050.222492,can0 08FF0303 [8] 00 00 00 00 00 00 00 00
1524597050.222922,can0 08FF0001 [8] 00 00 00 00 00 00 00 00
1524597050.223331,can0 0CF00203 [8] 00 00 00 00 00 00 00 00
1524597050.223724,can0 08FF0303 [8] 00 00 00 00 00 00 00 00
1524597050.224103,can0 08FF0001 [8] 00 00 00 00 00 00 00 00
1524597050.224483,can0 0CF00203 [8] 00 00 00 00 00 00 00 00
1524597050.224903,can0 08FF0303 [8] 00 00 00 00 00 00 00 00
1524597050.225301,can0 08FF0001 [8] 00 00 00 00 00 00 00 00
1524597050.226555,can0 0CF00203 [8] 00 00 00 00 00 00 00 00
1524597050.2272,can0 08FF0303 [8] 00 00 00 00 00 00 00 00
1524597050.227698,can0 18F00503 [8] 00 00 00 00 00 00 00 00
1524597050.228118,can0 08FF0001 [8] 00 00 00 00 00 00 00 00
1524597050.22852,can0 0CF00203 [8] 00 00 00 00 00 00 00 00
1524597050.22976,can0 08FF0303 [8] 00 00 00 00 00 00 00 00
1524597050.230239,can0 08FF0001 [8] 00 00 00 00 00 00 00 00
1524597050.230719,can0 0CF00203 [8] 00 00 00 00 00 00 00 00
1524597050.231158,can0 08FF0303 [8] 00 00 00 00 00 00 00 00
1524597050.231562,can0 08FF0001 [8] 00 00 00 00 00 00 00 00
1524597050.231953,can0 0CF00203 [8] 00 00 00 00 00 00 00 00
1524597050.232342,can0 08FF0303 [8] 00 00 00 00 00 00 00 00
1524597050.232781,can0 08FF0001 [8] 00 00 00 00 00 00 00 00
1524597050.233181,can0 0CF00203 [8] 00 00 00 00 00 00 00 00
1524597050.233573,can0 08FF0303 [8] 00 00 00 00 00 00 00 00
1524597050.233957,can0 08FF0001 [8] 00 00 00 00 00 00 00 00
1524597050.234338,can0 0CF00203 [8] 00 00 00 00 00 00 00 00
1524597050.234773,can0 08FF0303 [8] 00 00 00 00 00 00 00 00
1524597050.235172,can0 08FF0001 [8] 00 00 00 00 00 00 00 00
1524597050.235557,can0 0CF00203 [8] 00 00 00 00 00 00 00 00
1524597050.23605,can0 08FF0303 [8] 00 00 00 00 00 00 00 00
1524597050.236558,can0 08FF0001 [8] 00 00 00 00 00 00 00 00
1524597050.237031,can0 0CF00203 [8] 00 00 00 00 00 00 00 00
1524597050.237442,can0 08FF0303 [8] 00 00 00 00 00 00 00 00
1524597050.237838,can0 08FF0001 [8] 00 00 00 00 00 00 00 00
1524597050.238226,can0 0CF00203 [8] 00 00 00 00 00 00 00 00
1524597050.238655,can0 08FF0303 [8] 00 00 00 00 00 00 00 00
1524597050.239052,can0 08FF0001 [8] 00 00 00 00 00 00 00 00
1524597050.239437,can0 0CF00203 [8] 00 00 00 00 00 00 00 00
1524597050.239817,can0 08FF0303 [8] 00 00 00 00 00 00 00 00
1524597050.249897,can0 08FF0001 [8] 00 00 00 00 00 00 00 00
1524597050.250559,can0 0CF00203 [8] 00 00 00 00 00 00 00 00
1524597049.884273,can1 0CFE6E0B [8] 00 00 00 00 00 00 00 00
1524597049.897461,can1 0CFE6E0B [8] 00 00 00 00 00 00 00 00
1524597049.907648,can1 0CFE6E0B [8] 00 00 00 00 00 00 00 00
1524597049.919107,can1 18F0010B [8] CF FF F0 FF FF DC FF FF
1524597049.926676,can1 0CFE6E0B [8] 00 00 00 00 00 00 00 00
1524597049.930504,can1 18FEBF0B [8] 00 00 7D 7D FE FE FF FF
1524597049.946681,can1 0CFE6E0B [8] 00 00 00 00 00 00 00 00
1524597049.948963,can1 18F00131 [8] 00 00 00 00 00 00 00 00
1524597049.954959,can1 18F0010B [8] 00 00 00 00 00 00 00 00
1524597049.956912,can1 18FEF117 [8] 00 00 00 00 00 00 00 00
1524597049.967114,can1 18FEF128 [8] 00 00 00 00 00 00 00 00
1524597049.968559,can1 18FEF121 [8] 00 00 00 00 00 00 00 00
1524597049.978117,can1 18FEF131 [8] 00 00 00 00 00 00 00 00
1524597049.987816,can1 18E00017 [8] 00 00 00 00 00 00 00 00
1524597049.98944,can1 18E00019 [8] 00 00 00 00 00 00 00 00
1524597049.998814,can1 18E00021 [8] 00 00 00 00 00 00 00 00
1524597050.00049,can1 18E00028 [8] 00 00 00 00 00 00 00 00
1524597050.001878,can1 18E00031 [8] 00 00 00 00 00 00 00 00
1524597050.011434,can1 18FEF017 [8] 00 00 00 00 00 00 00 00
1524597050.012958,can1 18FEF021 [8] 00 00 00 00 00 00 00 00
1524597050.022369,can1 18FEF028 [8] 00 00 00 00 00 00 00 00
1524597050.024012,can1 18FEF031 [8] 00 00 00 00 00 00 00 00
1524597050.025329,can1 0CFE6E0B [8] 00 00 00 00 00 00 00 00
1524597050.034864,can1 0CFE6E0B [8] 00 00 00 00 00 00 00 00
1524597050.036678,can1 0CFE6E0B [8] 00 00 00 00 00 00 00 00
1524597050.046734,can1 18F0010B [8] CF FF F0 FF FF DC FF FF
1524597050.048952,can1 0CFE6E0B [8] 00 00 00 00 00 00 00 00
1524597050.058627,can1 18FEBF0B [8] 00 00 7D 7D FE FE FF FF
1524597050.060118,can1 0CFE6E0B [8] 00 00 00 00 00 00 00 00
1524597050.069529,can1 18F00131 [8] 00 00 00 00 00 00 00 00
1524597050.071105,can1 18F0010B [8] 00 00 00 00 00 00 00 00
1524597050.081293,can1 18FEF117 [8] 00 00 00 00 00 00 00 00
1524597050.087198,can1 18FEF128 [8] 00 00 00 00 00 00 00 00
1524597050.088815,can1 18FEF121 [8] 00 00 00 00 00 00 00 00
1524597050.098117,can1 18FEF131 [8] 00 00 00 00 00 00 00 00
1524597050.099653,can1 18E00017 [8] 00 00 00 00 00 00 00 00
1524597050.101123,can1 18E00019 [8] 00 00 00 00 00 00 00 00
1524597050.110521,can1 18E00021 [8] 00 00 00 00 00 00 00 00
1524597050.112079,can1 18E00028 [8] 00 00 00 00 00 00 00 00
1524597050.113358,can1 18E00031 [8] 00 00 00 00 00 00 00 00
1524597050.122937,can1 18FEF017 [8] 00 00 00 00 00 00 00 00
1524597050.124429,can1 18FEF021 [8] 00 00 00 00 00 00 00 00
1524597050.133774,can1 18FEF028 [8] 00 00 00 00 00 00 00 00
1524597050.135356,can1 18FEF031 [8] 00 00 00 00 00 00 00 00
1524597050.145082,can1 0CFE6E0B [8] 00 00 00 00 00 00 00 00
1524597050.147544,can1 0CFE6E0B [8] 00 00 00 00 00 00 00 00
1524597050.15732,can1 0CFE6E0B [8] 00 00 00 00 00 00 00 00
1524597050.158905,can1 18F0010B [8] CF FF F0 FF FF DC FF FF
1524597050.160218,can1 0CFE6E0B [8] 00 00 00 00 00 00 00 00
1524597050.169806,can1 18FEBF0B [8] 00 00 7D 7D FE FE FF FF
1524597050.178811,can1 0CFE6E0B [8] 00 00 00 00 00 00 00 00
1524597050.184851,can1 18F00131 [8] 00 00 00 00 00 00 00 00
1524597050.191649,can1 18F0010B [8] 00 00 00 00 00 00 00 00
1524597050.192473,can1 18FEF117 [8] 00 00 00 00 00 00 00 00
1524597050.192982,can1 18FEF128 [8] 00 00 00 00 00 00 00 00
1524597050.193456,can1 18FEF121 [8] 00 00 00 00 00 00 00 00
1524597050.194006,can1 18FEF131 [8] 00 00 00 00 00 00 00 00
1524597050.194433,can1 18E00017 [8] 00 00 00 00 00 00 00 00
1524597050.194834,can1 18E00019 [8] 00 00 00 00 00 00 00 00
1524597050.19523,can1 18E00021 [8] 00 00 00 00 00 00 00 00
1524597050.203729,can1 18E00028 [8] 00 00 00 00 00 00 00 00
1524597050.20442,can1 18E00031 [8] 00 00 00 00 00 00 00 00
1524597050.204899,can1 18FEF017 [8] 00 00 00 00 00 00 00 00
1524597050.205407,can1 18FEF021 [8] 00 00 00 00 00 00 00 00
1524597050.205999,can1 18FEF028 [8] 00 00 00 00 00 00 00 00
1524597050.206504,can1 18FEF031 [8] 00 00 00 00 00 00 00 00
1524597050.206985,can1 0CFE6E0B [8] 00 00 00 00 00 00 00 00
1524597050.214544,can1 0CFE6E0B [8] 00 00 00 00 00 00 00 00
1524597050.215322,can1 0CFE6E0B [8] 00 00 00 00 00 00 00 00
1524597050.219045,can1 18F0010B [8] CF FF F0 FF FF DC FF FF
1524597050.225941,can1 0CFE6E0B [8] 00 00 00 00 00 00 00 00
1524597050.229012,can1 18FEBF0B [8] 00 00 7D 7D FE FE FF FF
1524597050.245974,can1 0CFE6E0B [8] 00 00 00 00 00 00 00 00
1524597050.246701,can1 18F00131 [8] 00 00 00 00 00 00 00 00
1524597050.24728,can1 18F0010B [8] 00 00 00 00 00 00 00 00
1524597050.247813,can1 18FEF117 [8] 00 00 00 00 00 00 00 00
1524597050.248351,can1 18FEF128 [8] 00 00 00 00 00 00 00 00
1524597050.248841,can1 18FEF121 [8] 00 00 00 00 00 00 00 00
1524597050.249305,can1 18FEF131 [8] 00 00 00 00 00 00 00 00
1524597050.253292,can1 18E00017 [8] 00 00 00 00 00 00 00 00
1524597050.253946,can1 18E00019 [8] 00 00 00 00 00 00 00 00
1524597050.254559,can1 18E00021 [8] 00 00 00 00 00 00 00 00
1524597050.255054,can1 18E00028 [8] 00 00 00 00 00 00 00 00
1524597050.255484,can1 18E00031 [8] 00 00 00 00 00 00 00 00
1524597050.255999,can1 18FEF017 [8] 00 00 00 00 00 00 00 00
1524597050.258332,can1 18FEF021 [8] 00 00 00 00 00 00 00 00
1524597050.258788,can1 18FEF028 [8] 00 00 00 00 00 00 00 00
1524597050.259202,can1 18FEF031 [8] 00 00 00 00 00 00 00 00
1524597050.259595,can1 18FEF521 [8] 00 00 00 00 00 00 00 00
1524597050.271978,can1 0CFE6E0B [8] 00 00 00 00 00 00 00 00
1524597050.286084,can1 0CFE6E0B [8] 00 00 00 00 00 00 00 00
1524597050.306091,can1 0CFE6E0B [8] 00 00 00 00 00 00 00 00
1524597050.319132,can1 18F0010B [8] CF FF F0 FF FF DC FF FF
1524597050.32594,can1 0CFE6E0B [8] 00 00 00 00 00 00 00 00
1524597050.329164,can1 18FEBF0B [8] 00 00 7D 7D FE FE FF FF
1524597050.345988,can1 0CFE6E0B [8] 00 00 00 00 00 00 00 00
1524597050.346635,can1 18F00131 [8] 00 00 00 00 00 00 00 00
1524597050.347192,can1 18F0010B [8] 00 00 00 00 00 00 00 00
1524597050.347724,can1 18FEF117 [8] 00 00 00 00 00 00 00 00
1524597050.348285,can1 18FEF128 [8] 00 00 00 00 00 00 00 00
1524597050.348765,can1 18FEF121 [8] 00 00 00 00 00 00 00 00
1524597050.351602,can1 18FEF131 [8] 00 00 00 00 00 00 00 00
1524597050.352241,can1 18E00017 [8] 00 00 00 00 00 00 00 00
1524597050.35275,can1 18E00019 [8] 00 00 00 00 00 00 00 00
1524597050.353181,can1 18E00021 [8] 00 00 00 00 00 00 00 00
1524597050.353758,can1 18E00028 [8] 00 00 00 00 00 00 00 00
1524597050.354265,can1 18E00031 [8] 00 00 00 00 00 00 00 00
1524597050.35475,can1 18FEF017 [8] 00 00 00 00 00 00 00 00
1524597050.355156,can1 18FEF021 [8] 00 00 00 00 00 00 00 00
1524597050.355548,can1 18FEF028 [8] 00 00 00 00 00 00 00 00
1524597050.357915,can1 18FEF031 [8] 00 00 00 00 00 00 00 00
1524597050.367638,can1 0CFE6E0B [8] 00 00 00 00 00 00 00 00
1524597050.386134,can1 0CFE6E0B [8] 00 00 00 00 00 00 00 00
1524597050.40597,can1 0CFE6E0B [8] 00 00 00 00 00 00 00 00
1524597050.419257,can1 18F0010B [8] CF FF F0 FF FF DC FF FF
1524597050.425982,can1 0CFE6E0B [8] 00 00 00 00 00 00 00 00
1524597050.429269,can1 18FEBF0B [8] 00 00 7D 7D FE FE FF FF
1524597050.445946,can1 0CFE6E0B [8] 00 00 00 00 00 00 00 00
1524597050.446572,can1 18F00131 [8] 00 00 00 00 00 00 00 00
1524597050.447117,can1 18F0010B [8] 00 00 00 00 00 00 00 00
1524597050.447703,can1 18FEF117 [8] 00 00 00 00 00 00 00 00
1524597050.448205,can1 18FEF128 [8] 00 00 00 00 00 00 00 00
1524597050.451022,can1 18FEF121 [8] 00 00 00 00 00 00 00 00
1524597050.451656,can1 18FEF131 [8] 00 00 00 00 00 00 00 00
1524597050.452173,can1 18E00017 [8] 00 00 00 00 00 00 00 00
1524597050.452601,can1 18E00019 [8] 00 00 00 00 00 00 00 00
1524597050.453084,can1 18E00021 [8] 00 00 00 00 00 00 00 00
1524597050.453625,can1 18E00028 [8] 00 00 00 00 00 00 00 00
1524597050.454112,can1 18E00031 [8] 00 00 00 00 00 00 00 00
1524597050.454586,can1 18FEF017 [8] 00 00 00 00 00 00 00 00
1524597050.454997,can1 18FEF021 [8] 00 00 00 00 00 00 00 00
1524597050.455442,can1 18FEF028 [8] 00 00 00 00 00 00 00 00
1524597050.457719,can1 18FEF031 [8] 00 00 00 00 00 00 00 00
1524597050.467661,can1 0CFE6E0B [8] 00 00 00 00 00 00 00 00
1524597050.486125,can1 0CFE6E0B [8] 00 00 00 00 00 00 00 00
1524597050.251821,can0 08FF0303 [8] 00 00 00 00 00 00 00 00
1524597050.252546,can0 18F00503 [8] 00 00 00 00 00 00 00 00
1524597050.256334,can0 08FF0001 [8] 00 00 00 00 00 00 00 00
1524597050.256943,can0 0CF00203 [8] 00 00 00 00 00 00 00 00
1524597050.257399,can0 08FF0303 [8] 00 00 00 00 00 00 00 00
1524597050.266123,can0 08FF0001 [8] 00 00 00 00 00 00 00 00
1524597050.266944,can0 0CF00203 [8] 00 00 00 00 00 00 00 00
1524597050.267433,can0 08FF0303 [8] 00 00 00 00 00 00 00 00
1524597050.275996,can0 08FF0001 [8] 00 00 00 00 00 00 00 00
1524597050.276758,can0 0CF00203 [8] 00 00 00 00 00 00 00 00
1524597050.277322,can0 08FF0303 [8] 00 00 00 00 00 00 00 00
1524597050.287169,can0 08FF0001 [8] 00 00 00 00 00 00 00 00
1524597050.287886,can0 0CF00203 [8] 00 00 00 00 00 00 00 00
1524597050.288357,can0 08FF0303 [8] 00 00 00 00 00 00 00 00
1524597050.296006,can0 08FF0001 [8] 00 00 00 00 00 00 00 00
1524597050.29675,can0 0CF00203 [8] 00 00 00 00 00 00 00 00
1524597050.297397,can0 08FF0303 [8] 00 00 00 00 00 00 00 00
1524597050.307114,can0 08FF0001 [8] 00 00 00 00 00 00 00 00
1524597050.307729,can0 0CF00203 [8] 00 00 00 00 00 00 00 00
1524597050.308183,can0 08FF0303 [8] 00 00 00 00 00 00 00 00
1524597050.315903,can0 08FF0001 [8] 00 00 00 00 00 00 00 00
1524597050.316451,can0 0CF00203 [8] 00 00 00 00 00 00 00 00
1524597050.317022,can0 08FF0303 [8] 00 00 00 00 00 00 00 00
1524597050.326646,can0 08FF0001 [8] 00 00 00 00 00 00 00 00
1524597050.327268,can0 0CF00203 [8] 00 00 00 00 00 00 00 00
1524597050.327713,can0 08FF0303 [8] 00 00 00 00 00 00 00 00
1524597050.335918,can0 08FF0001 [8] 00 00 00 00 00 00 00 00
1524597050.336571,can0 0CF00203 [8] 00 00 00 00 00 00 00 00
1524597050.337093,can0 08FF0303 [8] 00 00 00 00 00 00 00 00
1524597050.349353,can0 08FF0001 [8] 00 00 00 00 00 00 00 00
1524597050.349999,can0 0CF00203 [8] 00 00 00 00 00 00 00 00
1524597050.350533,can0 08FF0303 [8] 00 00 00 00 00 00 00 00
1524597050.351022,can0 18F00503 [8] 00 00 00 00 00 00 00 00
1524597050.35595,can0 08FF0001 [8] 00 00 00 00 00 00 00 00
1524597050.356549,can0 0CF00203 [8] 00 00 00 00 00 00 00 00
1524597050.357058,can0 08FF0303 [8] 00 00 00 00 00 00 00 00
1524597050.365957,can0 08FF0001 [8] 00 00 00 00 00 00 00 00
1524597050.366551,can0 0CF00203 [8] 00 00 00 00 00 00 00 00
1524597050.367058,can0 08FF0303 [8] 00 00 00 00 00 00 00 00
1524597050.375919,can0 08FF0001 [8] 00 00 00 00 00 00 00 00
1524597050.376534,can0 0CF00203 [8] 00 00 00 00 00 00 00 00
1524597050.377044,can0 08FF0303 [8] 00 00 00 00 00 00 00 00
1524597050.38715,can0 08FF0001 [8] 00 00 00 00 00 00 00 00
1524597050.38776,can0 0CF00203 [8] 00 00 00 00 00 00 00 00
1524597050.388209,can0 08FF0303 [8] 00 00 00 00 00 00 00 00
1524597050.395909,can0 08FF0001 [8] 00 00 00 00 00 00 00 00
1524597050.396452,can0 0CF00203 [8] 00 00 00 00 00 00 00 00
1524597050.397032,can0 08FF0303 [8] 00 00 00 00 00 00 00 00
1524597050.406745,can0 08FF0001 [8] 00 00 00 00 00 00 00 00
1524597050.407359,can0 0CF00203 [8] 00 00 00 00 00 00 00 00
1524597050.4078,can0 08FF0303 [8] 00 00 00 00 00 00 00 00
1524597050.415892,can0 08FF0001 [8] 00 00 00 00 00 00 00 00
1524597050.416473,can0 0CF00203 [8] 00 00 00 00 00 00 00 00
1524597050.417046,can0 08FF0303 [8] 00 00 00 00 00 00 00 00
1524597050.426641,can0 08FF0001 [8] 00 00 00 00 00 00 00 00
1524597050.427249,can0 0CF00203 [8] 00 00 00 00 00 00 00 00
1524597050.427692,can0 08FF0303 [8] 00 00 00 00 00 00 00 00
1524597050.435925,can0 08FF0001 [8] 00 00 00 00 00 00 00 00
1524597050.436517,can0 0CF00203 [8] 00 00 00 00 00 00 00 00
1524597050.43704,can0 08FF0303 [8] 00 00 00 00 00 00 00 00
1524597050.448793,can0 08FF0001 [8] 00 00 00 00 00 00 00 00
1524597050.449435,can0 0CF00203 [8] 00 00 00 00 00 00 00 00
1524597050.449972,can0 08FF0303 [8] 00 00 00 00 00 00 00 00
1524597050.450453,can0 18F00503 [8] 00 00 00 00 00 00 00 00
1524597050.455917,can0 08FF0001 [8] 00 00 00 00 00 00 00 00
1524597050.456508,can0 0CF00203 [8] 00 00 00 00 00 00 00 00
1524597050.457015,can0 08FF0303 [8] 00 00 00 00 00 00 00 00
1524597050.465955,can0 08FF0001 [8] 00 00 00 00 00 00 00 00
1524597050.466553,can0 0CF00203 [8] 00 00 00 00 00 00 00 00
1524597050.46712,can0 08FF0303 [8] 00 00 00 00 00 00 00 00
1524597050.47592,can0 08FF0001 [8] 00 00 00 00 00 00 00 00
1524597050.476545,can0 0CF00203 [8] 00 00 00 00 00 00 00 00
1524597050.477132,can0 08FF0303 [8] 00 00 00 00 00 00 00 00
1524597050.487888,can0 08FF0001 [8] 00 00 00 00 00 00 00 00
1524597050.488738,can0 0CF00203 [8] 00 00 00 00 00 00 00 00
1524597050.489327,can0 08FF0303 [8] 00 00 00 00 00 00 00 00
1524597050.495973,can0 08FF0001 [8] 00 00 00 00 00 00 00 00
1524597050.496712,can0 0CF00203 [8] 00 00 00 00 00 00 00 00
1524597050.497346,can0 08FF0303 [8] 00 00 00 00 00 00 00 00
1524597050.507013,can0 08FF0001 [8] 00 00 00 00 00 00 00 00
1524597050.507625,can0 0CF00203 [8] 00 00 00 00 00 00 00 00
1524597050.508241,can0 08FF0303 [8] 00 00 00 00 00 00 00 00
1524597050.51597,can0 08FF0001 [8] 00 00 00 00 00 00 00 00
1524597050.516619,can0 0CF00203 [8] 00 00 00 00 00 00 00 00
1524597050.517213,can0 08FF0303 [8] 00 00 00 00 00 00 00 00
1524597050.526751,can0 08FF0001 [8] 00 00 00 00 00 00 00 00
1524597050.52746,can0 0CF00203 [8] 00 00 00 00 00 00 00 00
1524597050.528098,can0 08FF0303 [8] 00 00 00 00 00 00 00 00
1524597050.535971,can0 08FF0001 [8] 00 00 00 00 00 00 00 00
1524597050.536664,can0 0CF00203 [8] 00 00 00 00 00 00 00 00
1524597050.537337,can0 08FF0303 [8] 00 00 00 00 00 00 00 00
1524597050.549353,can0 08FF0001 [8] 00 00 00 00 00 00 00 00
1524597050.550078,can0 0CF00203 [8] 00 00 00 00 00 00 00 00
1524597050.550689,can0 08FF0303 [8] 00 00 00 00 00 00 00 00
1524597050.551346,can0 18F00503 [8] 00 00 00 00 00 00 00 00
1524597050.555951,can0 08FF0001 [8] 00 00 00 00 00 00 00 00
1524597050.556641,can0 0CF00203 [8] 00 00 00 00 00 00 00 00
1524597050.557329,can0 08FF0303 [8] 00 00 00 00 00 00 00 00
1524597050.566015,can0 08FF0001 [8] 00 00 00 00 00 00 00 00
1524597050.566786,can0 0CF00203 [8] 00 00 00 00 00 00 00 00
1524597050.567426,can0 08FF0303 [8] 00 00 00 00 00 00 00 00
1524597050.576044,can0 08FF0001 [8] 00 00 00 00 00 00 00 00
1524597050.576891,can0 0CF00203 [8] 00 00 00 00 00 00 00 00
1524597050.577469,can0 08FF0303 [8] 00 00 00 00 00 00 00 00
1524597050.587397,can0 08FF0001 [8] 00 00 00 00 00 00 00 00
1524597050.588171,can0 0CF00203 [8] 00 00 00 00 00 00 00 00
1524597050.588752,can0 08FF0303 [8] 00 00 00 00 00 00 00 00
1524597050.596009,can0 08FF0001 [8] 00 00 00 00 00 00 00 00
1524597050.596687,can0 0CF00203 [8] 00 00 00 00 00 00 00 00
1524597050.597301,can0 08FF0303 [8] 00 00 00 00 00 00 00 00
1524597050.606933,can0 08FF0001 [8] 00 00 00 00 00 00 00 00
1524597050.607561,can0 0CF00203 [8] 00 00 00 00 00 00 00 00
1524597050.608188,can0 08FF0303 [8] 00 00 00 00 00 00 00 00
1524597050.615945,can0 08FF0001 [8] 00 00 00 00 00 00 00 00
1524597050.616572,can0 0CF00203 [8] 00 00 00 00 00 00 00 00
1524597050.617153,can0 08FF0303 [8] 00 00 00 00 00 00 00 00
1524597050.626738,can0 08FF0001 [8] 00 00 00 00 00 00 00 00
1524597050.627508,can0 0CF00203 [8] 00 00 00 00 00 00 00 00
1524597050.628041,can0 08FF0303 [8] 00 00 00 00 00 00 00 00
1524597050.635974,can0 08FF0001 [8] 00 00 00 00 00 00 00 00
1524597050.636672,can0 0CF00203 [8] 00 00 00 00 00 00 00 00
1524597050.637357,can0 08FF0303 [8] 00 00 00 00 00 00 00 00
1524597050.650834,can0 08FF0001 [8] 00 00 00 00 00 00 00 00
1524597050.651618,can0 0CF00203 [8] 00 00 00 00 00 00 00 00
1524597050.652227,can0 08FF0303 [8] 00 00 00 00 00 00 00 00
1524597050.652873,can0 18F00503 [8] 00 00 00 00 00 00 00 00
1524597050.655957,can0 08FF0001 [8] 00 00 00 00 00 00 00 00
1524597050.656699,can0 0CF00203 [8] 00 00 00 00 00 00 00 00
1524597050.657322,can0 08FF0303 [8] 00 00 00 00 00 00 00 00
1524597050.666008,can0 08FF0001 [8] 00 00 00 00 00 00 00 00
1524597050.666756,can0 0CF00203 [8] 00 00 00 00 00 00 00 00
1524597050.667374,can0 08FF0303 [8] 00 00 00 00 00 00 00 00
1524597050.676129,can0 08FF0001 [8] 00 00 00 00 00 00 00 00
1524597050.676921,can0 0CF00203 [8] 00 00 00 00 00 00 00 00
1524597050.677478,can0 08FF0303 [8] 00 00 00 00 00 00 00 00
1524597050.687084,can0 08FF0001 [8] 00 00 00 00 00 00 00 00
1524597050.687814,can0 0CF00203 [8] 00 00 00 00 00 00 00 00
1524597050.688384,can0 08FF0303 [8] 00 00 00 00 00 00 00 00
1524597050.696058,can0 08FF0001 [8] 00 00 00 00 00 00 00 00
1524597050.696995,can0 0CF00203 [8] 00 00 00 00 00 00 00 00
