1506533518.644132,can0 08FF0001 [8] 00 00 00 00 00 00 00 00
1506533518.657504,can0 0CF00203 [8] 00 00 00 00 00 00 00 00
1506533518.667568,can0 08FF0303 [8] 00 00 00 00 00 00 00 00
1506533518.675464,can0 08FF0001 [8] 00 00 00 00 00 00 00 00
1506533518.67735,can0 0CF00203 [8] 00 00 00 00 00 00 00 00
1506533518.693097,can0 08FF0303 [8] 00 00 00 00 00 00 00 00
1506533518.695125,can0 08FF0001 [8] 00 00 00 00 00 00 00 00
1506533518.704595,can0 0CF00203 [8] 00 00 00 00 00 00 00 00
1506533518.706208,can0 08FF0303 [8] 00 00 00 00 00 00 00 00
1506533518.707599,can0 08FF0001 [8] 00 00 00 00 00 00 00 00
1506533518.715102,can0 0CF00203 [8] 00 00 00 00 00 00 00 00
1506533518.720627,can0 08FF0303 [8] 00 00 00 00 00 00 00 00
1506533518.722093,can0 08FF0001 [8] 00 00 00 00 00 00 00 00
1506533518.73172,can0 0CF00203 [8] 00 00 00 00 00 00 00 00
1506533518.733778,can0 08FF0303 [8] 00 00 00 00 00 00 00 00
1506533518.743255,can0 18F00503 [8] 00 00 00 00 00 00 00 00
1506533518.745015,can0 08FF0001 [8] 00 00 00 00 00 00 00 00
1506533518.746362,can0 0CF00203 [8] 00 00 00 00 00 00 00 00
1506533518.756167,can0 08FF0303 [8] 00 00 00 00 00 00 00 00
1506533518.758056,can0 08FF0001 [8] 00 00 00 00 00 00 00 00
1506533518.767858,can0 0CF00203 [8] 00 00 00 00 00 00 00 00
1506533518.76937,can0 08FF0303 [8] 00 00 00 00 00 00 00 00
1506533518.778678,can0 08FF0001 [8] 00 00 00 00 00 00 00 00
1506533518.780214,can0 0CF00203 [8] 00 00 00 00 00 00 00 00
1506533518.785207,can0 08FF0303 [8] 00 00 00 00 00 00 00 00
1506533518.786751,can0 08FF0001 [8] 00 00 00 00 00 00 00 00
1506533518.796122,can0 0CF00203 [8] 00 00 00 00 00 00 00 00
1506533518.797791,can0 08FF0303 [8] 00 00 00 00 00 00 00 00
1506533518.799131,can0 08FF0001 [8] 00 00 00 00 00 00 00 00
1506533518.808642,can0 0CF00203 [8] 00 00 00 00 00 00 00 00
1506533518.810219,can0 08FF0303 [8] 00 00 00 00 00 00 00 00
1506533518.821503,can0 08FF0001 [8] 00 00 00 00 00 00 00 00
1506533518.823352,can0 0CF00203 [8] 00 00 00 00 00 00 00 00
1506533518.824833,can0 08FF0303 [8] 00 00 00 00 00 00 00 00
1506533518.834585,can0 08FF0001 [8] 00 00 00 00 00 00 00 00
1506533518.836042,can0 0CF00203 [8] 00 00 00 00 00 00 00 00
1506533518.845402,can0 08FF0303 [8] 00 00 00 00 00 00 00 00
1506533518.846931,can0 08FF0001 [8] 00 00 00 00 00 00 00 00
1506533518.848217,can0 0CF00203 [8] 00 00 00 00 00 00 00 00
1506533518.858194,can0 08FF0303 [8] 00 00 00 00 00 00 00 00
1506533518.859921,can0 08FF0001 [8] 00 00 00 00 00 00 00 00
1506533518.869408,can0 0CF00203 [8] 00 00 00 00 00 00 00 00
1506533518.870843,can0 08FF0303 [8] 00 00 00 00 00 00 00 00
1506533518.880159,can0 08FF0001 [8] 00 00 00 00 00 00 00 00
1506533518.88169,can0 0CF00203 [8] 00 00 00 00 00 00 00 00
1506533518.883293,can0 08FF0303 [8] 00 00 00 00 00 00 00 00
1506533518.89309,can0 18F00503 [8] 00 00 00 00 00 00 00 00
1506533518.894728,can0 08FF0001 [8] 00 00 00 00 00 00 00 00
1506533518.904355,can0 0CF00203 [8] 00 00 00 00 00 00 00 00
1506533518.905872,can0 08FF0303 [8] 00 00 00 00 00 00 00 00
1506533518.914396,can0 08FF0001 [8] 00 00 00 00 00 00 00 00
1506533518.916031,can0 0CF00203 [8] 00 00 00 00 00 00 00 00
1506533518.925496,can0 08FF0303 [8] 00 00 00 00 00 00 00 00
1506533518.927107,can0 08FF0001 [8] 00 00 00 00 00 00 00 00
1506533518.936408,can0 0CF00203 [8] 00 00 00 00 00 00 00 00
1506533518.938049,can0 08FF0303 [8] 00 00 00 00 00 00 00 00
1506533518.939646,can0 08FF0001 [8] 00 00 00 00 00 00 00 00
1506533518.94916,can0 0CF00203 [8] 00 00 00 00 00 00 00 00
1506533518.950755,can0 08FF0303 [8] 00 00 00 00 00 00 00 00
1506533518.960413,can0 08FF0001 [8] 00 00 00 00 00 00 00 00
1506533518.962558,can0 0CF00203 [8] 00 00 00 00 00 00 00 00
1506533518.972096,can0 08FF0303 [8] 00 00 00 00 00 00 00 00
1506533518.974205,can0 08FF0001 [8] 00 00 00 00 00 00 00 00
1506533518.983739,can0 0CF00203 [8] 00 00 00 00 00 00 00 00
1506533518.985453,can0 08FF0303 [8] 00 00 00 00 00 00 00 00
1506533518.986813,can0 08FF0001 [8] 00 00 00 00 00 00 00 00
1506533518.996353,can0 0CF00203 [8] 00 00 00 00 00 00 00 00
1506533518.997862,can0 08FF0303 [8] 00 00 00 00 00 00 00 00
1506533519.00721,can0 08FF0001 [8] 00 00 00 00 00 00 00 00
1506533519.00882,can0 0CF00203 [8] 00 00 00 00 00 00 00 00
1506533519.010119,can0 08FF0303 [8] 00 00 00 00 00 00 00 00
1506533519.017639,can0 08FF0001 [8] 00 00 00 00 00 00 00 00
1506533519.019175,can0 0CF00203 [8] 00 00 00 00 00 00 00 00
1506533519.0285,can0 08FF0303 [8] 00 00 00 00 00 00 00 00
1506533519.0299,can0 08FF0001 [8] 00 00 00 00 00 00 00 00
1506533519.031321,can0 0CF00203 [8] 00 00 00 00 00 00 00 00
1506533519.042091,can0 08FF0303 [8] 00 00 00 00 00 00 00 00
1506533519.042727,can0 18F00503 [8] 00 00 00 00 00 00 00 00
1506533519.043253,can0 08FF0001 [8] 00 00 00 00 00 00 00 00
1506533519.043809,can0 0CF00203 [8] 00 00 00 00 00 00 00 00
1506533519.044263,can0 08FF0303 [8] 00 00 00 00 00 00 00 00
1506533519.04467,can0 08FF0001 [8] 00 00 00 00 00 00 00 00
1506533519.045065,can0 0CF00203 [8] 00 00 00 00 00 00 00 00
1506533519.045451,can0 08FF0303 [8] 00 00 00 00 00 00 00 00
1506533519.054028,can0 08FF0001 [8] 00 00 00 00 00 00 00 00
1506533519.05469,can0 0CF00203 [8] 00 00 00 00 00 00 00 00
1506533519.055221,can0 08FF0303 [8] 00 00 00 00 00 00 00 00
1506533519.05583,can0 08FF0001 [8] 00 00 00 00 00 00 00 00
1506533519.056342,can0 0CF00203 [8] 00 00 00 00 00 00 00 00
1506533519.056826,can0 08FF0303 [8] 00 00 00 00 00 00 00 00
1506533519.065189,can0 08FF0001 [8] 00 00 00 00 00 00 00 00
1506533519.065838,can0 0CF00203 [8] 00 00 00 00 00 00 00 00
1506533519.066312,can0 08FF0303 [8] 00 00 00 00 00 00 00 00
1506533519.066736,can0 08FF0001 [8] 00 00 00 00 00 00 00 00
1506533519.067226,can0 0CF00203 [8] 00 00 00 00 00 00 00 00
1506533519.067668,can0 08FF0303 [8] 00 00 00 00 00 00 00 00
1506533519.06808,can0 08FF0001 [8] 00 00 00 00 00 00 00 00
1506533519.068479,can0 0CF00203 [8] 00 00 00 00 00 00 00 00
1506533519.068862,can0 08FF0303 [8] 00 00 00 00 00 00 00 00
1506533519.077287,can0 08FF0001 [8] 00 00 00 00 00 00 00 00
1506533519.077823,can0 0CF00203 [8] 00 00 00 00 00 00 00 00
1506533519.078257,can0 08FF0303 [8] 00 00 00 00 00 00 00 00
1506533519.07867,can0 08FF0001 [8] 00 00 00 00 00 00 00 00
1506533519.07917,can0 0CF00203 [8] 00 00 00 00 00 00 00 00
1506533519.079595,can0 08FF0303 [8] 00 00 00 00 00 00 00 00
1506533519.079991,can0 08FF0001 [8] 00 00 00 00 00 00 00 00
1506533519.080459,can0 0CF00203 [8] 00 00 00 00 00 00 00 00
1506533519.088893,can0 08FF0303 [8] 00 00 00 00 00 00 00 00
1506533519.089439,can0 18F00503 [8] 00 00 00 00 00 00 00 00
1506533519.089873,can0 08FF0001 [8] 00 00 00 00 00 00 00 00
1506533519.090281,can0 0CF00203 [8] 00 00 00 00 00 00 00 00
1506533519.090769,can0 08FF0303 [8] 00 00 00 00 00 00 00 00
1506533519.091195,can0 08FF0001 [8] 00 00 00 00 00 00 00 00
1506533519.091595,can0 0CF00203 [8] 00 00 00 00 00 00 00 00
1506533519.091991,can0 08FF0303 [8] 00 00 00 00 00 00 00 00
1506533519.092372,can0 08FF0001 [8] 00 00 00 00 00 00 00 00
1506533519.098253,can0 0CF00203 [8] 00 00 00 00 00 00 00 00
1506533519.098846,can0 08FF0303 [8] 00 00 00 00 00 00 00 00
1506533519.099289,can0 08FF0001 [8] 00 00 00 00 00 00 00 00
1506533519.099704,can0 0CF00203 [8] 00 00 00 00 00 00 00 00
1506533519.1001,can0 08FF0303 [8] 00 00 00 00 00 00 00 00
1506533519.10057,can0 08FF0001 [8] 00 00 00 00 00 00 00 00
1506533519.100981,can0 0CF00203 [8] 00 00 00 00 00 00 00 00
1506533519.101376,can0 08FF0303 [8] 00 00 00 00 00 00 00 00
1506533519.101765,can0 08FF0001 [8] 00 00 00 00 00 00 00 00
1506533519.102147,can0 0CF00203 [8] 00 00 00 00 00 00 00 00
1506533519.110764,can0 08FF0303 [8] 00 00 00 00 00 00 00 00
1506533519.111321,can0 08FF0001 [8] 00 00 00 00 00 00 00 00
1506533519.111768,can0 0CF00203 [8] 00 00 00 00 00 00 00 00
1506533519.11231,can0 08FF0303 [8] 00 00 00 00 00 00 00 00
1506533519.113904,can0 08FF0001 [8] 00 00 00 00 00 00 00 00
1506533519.116733,can0 0CF00203 [8] 00 00 00 00 00 00 00 00
1506533519.117337,can0 08FF0303 [8] 00 00 00 00 00 00 00 00
1506533519.117792,can0 08FF0001 [8] 00 00 00 00 00 00 00 00
1506533519.11834,can0 0CF00203 [8] 00 00 00 00 00 00 00 00
1506533518.688766,can1 18FEF128 [8] 00 00 00 00 00 00 00 00
1506533518.701369,can1 18FEF121 [8] 00 00 00 00 00 00 00 00
1506533518.703446,can1 18FEF131 [8] 00 00 00 00 00 00 00 00
1506533518.716328,can1 18E00017 [8] 00 00 00 00 00 00 00 00
1506533518.717869,can1 18E00019 [8] 00 00 00 00 00 00 00 00
1506533518.719292,can1 18E00021 [8] 00 00 00 00 00 00 00 00
1506533518.729391,can1 18E00028 [8] 00 00 00 00 00 00 00 00
1506533518.730778,can1 18E00031 [8] 00 00 00 00 00 00 00 00
1506533518.740348,can1 18FEF017 [8] 00 00 00 00 00 00 00 00
1506533518.742011,can1 18FEF021 [8] 00 00 00 00 00 00 00 00
1506533518.75187,can1 18FEF028 [8] 00 00 00 00 00 00 00 00
1506533518.754088,can1 18FEF031 [8] 00 00 00 00 00 00 00 00
1506533518.764245,can1 18FEBF0B [8] 00 00 7D 7D FE FE FF FF
1506533518.765887,can1 0CFE6E0B [8] 00 00 00 00 00 00 00 00
1506533518.775392,can1 0CFE6E0B [8] 00 00 00 00 00 00 00 00
1506533518.776947,can1 0CFE6E0B [8] 00 00 00 00 00 00 00 00
1506533518.788256,can1 0CFE6E0B [8] 00 00 00 00 00 00 00 00
1506533518.78983,can1 18F0010B [8] CF FF F0 FF FF DC FF FF
1506533518.791155,can1 0CFE6E0B [8] 00 00 00 00 00 00 00 00
1506533518.800493,can1 18F00131 [8] 00 00 00 00 00 00 00 00
1506533518.801972,can1 18F0010B [8] 00 00 00 00 00 00 00 00
1506533518.811587,can1 18FEF117 [8] 00 00 00 00 00 00 00 00
1506533518.817496,can1 18FEF128 [8] 00 00 00 00 00 00 00 00
1506533518.819202,can1 18FEF121 [8] 00 00 00 00 00 00 00 00
1506533518.82053,can1 18FEF131 [8] 00 00 00 00 00 00 00 00
1506533518.82999,can1 18E00017 [8] 00 00 00 00 00 00 00 00
1506533518.831562,can1 18E00019 [8] 00 00 00 00 00 00 00 00
1506533518.841189,can1 18E00021 [8] 00 00 00 00 00 00 00 00
1506533518.843115,can1 18E00028 [8] 00 00 00 00 00 00 00 00
1506533518.852817,can1 18E00031 [8] 00 00 00 00 00 00 00 00
1506533518.855192,can1 18FEF017 [8] 00 00 00 00 00 00 00 00
1506533518.864904,can1 18FEF021 [8] 00 00 00 00 00 00 00 00
1506533518.866493,can1 18FEF028 [8] 00 00 00 00 00 00 00 00
1506533518.867773,can1 18FEF031 [8] 00 00 00 00 00 00 00 00
1506533518.877325,can1 18FEBF0B [8] 00 00 7D 7D FE FE FF FF
1506533518.87881,can1 0CFE6E0B [8] 00 00 00 00 00 00 00 00
1506533518.888194,can1 0CFE6E0B [8] 00 00 00 00 00 00 00 00
1506533518.889813,can1 0CFE6E0B [8] 00 00 00 00 00 00 00 00
1506533518.891133,can1 0CFE6E0B [8] 00 00 00 00 00 00 00 00
1506533518.900722,can1 18F0010B [8] CF FF F0 FF FF DC FF FF
1506533518.902231,can1 0CFE6E0B [8] 00 00 00 00 00 00 00 00
1506533518.911845,can1 18F00131 [8] 00 00 00 00 00 00 00 00
1506533518.917119,can1 18F0010B [8] 00 00 00 00 00 00 00 00
1506533518.918519,can1 18FEF117 [8] 00 00 00 00 00 00 00 00
1506533518.919929,can1 18FEF128 [8] 00 00 00 00 00 00 00 00
1506533518.929238,can1 18FEF121 [8] 00 00 00 00 00 00 00 00
1506533518.93074,can1 18FEF131 [8] 00 00 00 00 00 00 00 00
1506533518.932006,can1 18E00017 [8] 00 00 00 00 00 00 00 00
1506533518.941422,can1 18E00019 [8] 00 00 00 00 00 00 00 00
1506533518.943158,can1 18E00021 [8] 00 00 00 00 00 00 00 00
1506533518.952897,can1 18E00028 [8] 00 00 00 00 00 00 00 00
1506533518.955113,can1 18E00031 [8] 00 00 00 00 00 00 00 00
1506533518.964748,can1 18FEF017 [8] 00 00 00 00 00 00 00 00
1506533518.966241,can1 18FEF021 [8] 00 00 00 00 00 00 00 00
1506533518.975494,can1 18FEF028 [8] 00 00 00 00 00 00 00 00
1506533518.976949,can1 18FEF031 [8] 00 00 00 00 00 00 00 00
1506533518.978466,can1 18FEBF0B [8] 00 00 7D 7D FE FE FF FF
1506533518.987803,can1 0CFE6E0B [8] 00 00 00 00 00 00 00 00
1506533518.989338,can1 0CFE6E0B [8] 00 00 00 00 00 00 00 00
1506533518.990647,can1 0CFE6E0B [8] 00 00 00 00 00 00 00 00
1506533519.000041,can1 0CFE6E0B [8] 00 00 00 00 00 00 00 00
1506533519.001463,can1 18F0010B [8] CF FF F0 FF FF DC FF FF
1506533519.01091,can1 0CFE6E0B [8] 00 00 00 00 00 00 00 00
1506533519.0123,can1 18F00131 [8] 00 00 00 00 00 00 00 00
1506533519.024545,can1 18F0010B [8] 00 00 00 00 00 00 00 00
1506533519.026165,can1 18FEF117 [8] 00 00 00 00 00 00 00 00
1506533519.027514,can1 18FEF128 [8] 00 00 00 00 00 00 00 00
1506533519.039433,can1 18FEF121 [8] 00 00 00 00 00 00 00 00
1506533519.040121,can1 18FEF131 [8] 00 00 00 00 00 00 00 00
1506533519.040603,can1 18E00017 [8] 00 00 00 00 00 00 00 00
1506533519.041028,can1 18E00019 [8] 00 00 00 00 00 00 00 00
1506533519.04143,can1 18E00021 [8] 00 00 00 00 00 00 00 00
1506533519.049997,can1 18E00028 [8] 00 00 00 00 00 00 00 00
1506533519.050749,can1 18E00031 [8] 00 00 00 00 00 00 00 00
1506533519.051241,can1 18FEF017 [8] 00 00 00 00 00 00 00 00
1506533519.05178,can1 18FEF021 [8] 00 00 00 00 00 00 00 00
1506533519.05234,can1 18FEF028 [8] 00 00 00 00 00 00 00 00
1506533519.052886,can1 18FEF031 [8] 00 00 00 00 00 00 00 00
1506533519.061389,can1 18FEBF0B [8] 00 00 7D 7D FE FE FF FF
1506533519.062231,can1 0CFE6E0B [8] 00 00 00 00 00 00 00 00
1506533519.062838,can1 0CFE6E0B [8] 00 00 00 00 00 00 00 00
1506533519.063445,can1 0CFE6E0B [8] 00 00 00 00 00 00 00 00
1506533519.063956,can1 0CFE6E0B [8] 00 00 00 00 00 00 00 00
1506533519.064371,can1 18F0010B [8] CF FF F0 FF FF DC FF FF
1506533519.064767,can1 0CFE6E0B [8] 00 00 00 00 00 00 00 00
1506533519.073171,can1 18F00131 [8] 00 00 00 00 00 00 00 00
1506533519.07392,can1 18F0010B [8] 00 00 00 00 00 00 00 00
1506533519.074423,can1 18FEF117 [8] 00 00 00 00 00 00 00 00
1506533519.07486,can1 18FEF128 [8] 00 00 00 00 00 00 00 00
1506533519.075392,can1 18FEF121 [8] 00 00 00 00 00 00 00 00
1506533519.075804,can1 18FEF131 [8] 00 00 00 00 00 00 00 00
1506533519.076201,can1 18E00017 [8] 00 00 00 00 00 00 00 00
1506533519.076588,can1 18E00019 [8] 00 00 00 00 00 00 00 00
1506533519.085012,can1 18E00021 [8] 00 00 00 00 00 00 00 00
1506533519.085655,can1 18E00028 [8] 00 00 00 00 00 00 00 00
1506533519.086119,can1 18E00031 [8] 00 00 00 00 00 00 00 00
1506533519.086536,can1 18FEF017 [8] 00 00 00 00 00 00 00 00
1506533519.087055,can1 18FEF021 [8] 00 00 00 00 00 00 00 00
1506533519.087461,can1 18FEF028 [8] 00 00 00 00 00 00 00 00
1506533519.087849,can1 18FEF031 [8] 00 00 00 00 00 00 00 00
1506533519.088225,can1 18FEBF0B [8] 00 00 7D 7D FE FE FF FF
1506533519.096573,can1 0CFE6E0B [8] 00 00 00 00 00 00 00 00
1506533519.097248,can1 0CFE6E0B [8] 00 00 00 00 00 00 00 00
1506533519.112784,can1 0CFE6E0B [8] 00 00 00 00 00 00 00 00
1506533519.132797,can1 0CFE6E0B [8] 00 00 00 00 00 00 00 00
1506533519.152338,can1 18F0010B [8] CF FF F0 FF FF DC FF FF
1506533519.153358,can1 0CFE6E0B [8] 00 00 00 00 00 00 00 00
1506533519.154044,can1 18F00131 [8] 00 00 00 00 00 00 00 00
1506533519.154619,can1 18F0010B [8] 00 00 00 00 00 00 00 00
1506533519.155174,can1 18FEF117 [8] 00 00 00 00 00 00 00 00
1506533519.155671,can1 18FEF128 [8] 00 00 00 00 00 00 00 00
1506533519.156277,can1 18FEF121 [8] 00 00 00 00 00 00 00 00
1506533519.156766,can1 18FEF131 [8] 00 00 00 00 00 00 00 00
1506533519.159917,can1 18E00017 [8] 00 00 00 00 00 00 00 00
1506533519.160488,can1 18E00019 [8] 00 00 00 00 00 00 00 00
1506533519.161056,can1 18E00021 [8] 00 00 00 00 00 00 00 00
1506533519.161563,can1 18E00028 [8] 00 00 00 00 00 00 00 00
1506533519.16204,can1 18E00031 [8] 00 00 00 00 00 00 00 00
1506533519.164323,can1 18FEF017 [8] 00 00 00 00 00 00 00 00
1506533519.164898,can1 18FEF021 [8] 00 00 00 00 00 00 00 00
1506533519.165365,can1 18FEF028 [8] 00 00 00 00 00 00 00 00
1506533519.16579,can1 18FEF031 [8] 00 00 00 00 00 00 00 00
1506533519.166188,can1 18FEBF0B [8] 00 00 7D 7D FE FE FF FF
1506533519.174425,can1 0CFE6E0B [8] 00 00 00 00 00 00 00 00
1506533519.193845,can1 0CFE6E0B [8] 00 00 00 00 00 00 00 00
1506533519.212758,can1 0CFE6E0B [8] 00 00 00 00 00 00 00 00
1506533519.232755,can1 0CFE6E0B [8] 00 00 00 00 00 00 00 00
1506533519.252388,can1 18F0010B [8] CF FF F0 FF FF DC FF FF
1506533519.253207,can1 0CFE6E0B [8] 00 00 00 00 00 00 00 00
1506533519.253793,can1 18F00131 [8] 00 00 00 00 00 00 00 00
1506533519.254333,can1 18F0010B [8] 00 00 00 00 00 00 00 00
1506533519.254872,can1 18FEF117 [8] 00 00 00 00 00 00 00 00
1506533519.255352,can1 18FEF128 [8] 00 00 00 00 00 00 00 00
1506533519.255811,can1 18FEF121 [8] 00 00 00 00 00 00 00 00
1506533519.258729,can1 18FEF131 [8] 00 00 00 00 00 00 00 00
1506533519.119396,can0 08FF0303 [8] 00 00 00 00 00 00 00 00
1506533519.123977,can0 08FF0001 [8] 00 00 00 00 00 00 00 00
1506533519.125139,can0 0CF00203 [8] 00 00 00 00 00 00 00 00
1506533519.125893,can0 08FF0303 [8] 00 00 00 00 00 00 00 00
1506533519.126409,can0 18F00503 [8] 00 00 00 00 00 00 00 00
1506533519.126843,can0 08FF0001 [8] 00 00 00 00 00 00 00 00
1506533519.127241,can0 0CF00203 [8] 00 00 00 00 00 00 00 00
1506533519.127703,can0 08FF0303 [8] 00 00 00 00 00 00 00 00
1506533519.128134,can0 08FF0001 [8] 00 00 00 00 00 00 00 00
1506533519.128544,can0 0CF00203 [8] 00 00 00 00 00 00 00 00
1506533519.12894,can0 08FF0303 [8] 00 00 00 00 00 00 00 00
1506533519.129327,can0 08FF0001 [8] 00 00 00 00 00 00 00 00
1506533519.129782,can0 0CF00203 [8] 00 00 00 00 00 00 00 00
1506533519.130197,can0 08FF0303 [8] 00 00 00 00 00 00 00 00
1506533519.1306,can0 08FF0001 [8] 00 00 00 00 00 00 00 00
1506533519.130995,can0 0CF00203 [8] 00 00 00 00 00 00 00 00
1506533519.131382,can0 08FF0303 [8] 00 00 00 00 00 00 00 00
1506533519.131845,can0 08FF0001 [8] 00 00 00 00 00 00 00 00
1506533519.132253,can0 0CF00203 [8] 00 00 00 00 00 00 00 00
1506533519.133837,can0 08FF0303 [8] 00 00 00 00 00 00 00 00
1506533519.134365,can0 08FF0001 [8] 00 00 00 00 00 00 00 00
1506533519.1348,can0 0CF00203 [8] 00 00 00 00 00 00 00 00
1506533519.135208,can0 08FF0303 [8] 00 00 00 00 00 00 00 00
1506533519.135696,can0 08FF0001 [8] 00 00 00 00 00 00 00 00
1506533519.136119,can0 0CF00203 [8] 00 00 00 00 00 00 00 00
1506533519.136519,can0 08FF0303 [8] 00 00 00 00 00 00 00 00
1506533519.136914,can0 08FF0001 [8] 00 00 00 00 00 00 00 00
1506533519.137297,can0 0CF00203 [8] 00 00 00 00 00 00 00 00
1506533519.137771,can0 08FF0303 [8] 00 00 00 00 00 00 00 00
1506533519.142697,can0 08FF0001 [8] 00 00 00 00 00 00 00 00
1506533519.143897,can0 0CF00203 [8] 00 00 00 00 00 00 00 00
1506533519.14487,can0 08FF0303 [8] 00 00 00 00 00 00 00 00
1506533519.157314,can0 08FF0001 [8] 00 00 00 00 00 00 00 00
1506533519.157983,can0 0CF00203 [8] 00 00 00 00 00 00 00 00
1506533519.158516,can0 08FF0303 [8] 00 00 00 00 00 00 00 00
1506533519.159078,can0 18F00503 [8] 00 00 00 00 00 00 00 00
1506533519.162699,can0 08FF0001 [8] 00 00 00 00 00 00 00 00
1506533519.163372,can0 0CF00203 [8] 00 00 00 00 00 00 00 00
1506533519.163891,can0 08FF0303 [8] 00 00 00 00 00 00 00 00
1506533519.17277,can0 08FF0001 [8] 00 00 00 00 00 00 00 00
1506533519.173381,can0 0CF00203 [8] 00 00 00 00 00 00 00 00
1506533519.1739,can0 08FF0303 [8] 00 00 00 00 00 00 00 00
1506533519.182722,can0 08FF0001 [8] 00 00 00 00 00 00 00 00
1506533519.183335,can0 0CF00203 [8] 00 00 00 00 00 00 00 00
1506533519.183849,can0 08FF0303 [8] 00 00 00 00 00 00 00 00
1506533519.192706,can0 08FF0001 [8] 00 00 00 00 00 00 00 00
1506533519.193241,can0 0CF00203 [8] 00 00 00 00 00 00 00 00
1506533519.194515,can0 08FF0303 [8] 00 00 00 00 00 00 00 00
1506533519.202696,can0 08FF0001 [8] 00 00 00 00 00 00 00 00
1506533519.203254,can0 0CF00203 [8] 00 00 00 00 00 00 00 00
1506533519.203876,can0 08FF0303 [8] 00 00 00 00 00 00 00 00
1506533519.213441,can0 08FF0001 [8] 00 00 00 00 00 00 00 00
1506533519.214121,can0 0CF00203 [8] 00 00 00 00 00 00 00 00
1506533519.21478,can0 08FF0303 [8] 00 00 00 00 00 00 00 00
1506533519.222698,can0 08FF0001 [8] 00 00 00 00 00 00 00 00
1506533519.223243,can0 0CF00203 [8] 00 00 00 00 00 00 00 00
1506533519.223818,can0 08FF0303 [8] 00 00 00 00 00 00 00 00
1506533519.233522,can0 08FF0001 [8] 00 00 00 00 00 00 00 00
1506533519.234133,can0 0CF00203 [8] 00 00 00 00 00 00 00 00
1506533519.234584,can0 08FF0303 [8] 00 00 00 00 00 00 00 00
1506533519.242684,can0 08FF0001 [8] 00 00 00 00 00 00 00 00
1506533519.243273,can0 0CF00203 [8] 00 00 00 00 00 00 00 00
1506533519.243847,can0 08FF0303 [8] 00 00 00 00 00 00 00 00
1506533519.256402,can0 08FF0001 [8] 00 00 00 00 00 00 00 00
1506533519.257086,can0 0CF00203 [8] 00 00 00 00 00 00 00 00
1506533519.25761,can0 08FF0303 [8] 00 00 00 00 00 00 00 00
1506533519.258106,can0 18F00503 [8] 00 00 00 00 00 00 00 00
1506533519.262727,can0 08FF0001 [8] 00 00 00 00 00 00 00 00
1506533519.263367,can0 0CF00203 [8] 00 00 00 00 00 00 00 00
1506533519.263892,can0 08FF0303 [8] 00 00 00 00 00 00 00 00
1506533519.272777,can0 08FF0001 [8] 00 00 00 00 00 00 00 00
1506533519.273407,can0 0CF00203 [8] 00 00 00 00 00 00 00 00
1506533519.273931,can0 08FF0303 [8] 00 00 00 00 00 00 00 00
1506533519.282737,can0 08FF0001 [8] 00 00 00 00 00 00 00 00
1506533519.283342,can0 0CF00203 [8] 00 00 00 00 00 00 00 00
1506533519.283846,can0 08FF0303 [8] 00 00 00 00 00 00 00 00
1506533519.292712,can0 08FF0001 [8] 00 00 00 00 00 00 00 00
1506533519.293255,can0 0CF00203 [8] 00 00 00 00 00 00 00 00
1506533519.294516,can0 08FF0303 [8] 00 00 00 00 00 00 00 00
1506533519.302704,can0 08FF0001 [8] 00 00 00 00 00 00 00 00
1506533519.303267,can0 0CF00203 [8] 00 00 00 00 00 00 00 00
1506533519.303854,can0 08FF0303 [8] 00 00 00 00 00 00 00 00
1506533519.313502,can0 08FF0001 [8] 00 00 00 00 00 00 00 00
1506533519.314107,can0 0CF00203 [8] 00 00 00 00 00 00 00 00
1506533519.314542,can0 08FF0303 [8] 00 00 00 00 00 00 00 00
1506533519.322705,can0 08FF0001 [8] 00 00 00 00 00 00 00 00
1506533519.323339,can0 0CF00203 [8] 00 00 00 00 00 00 00 00
1506533519.323851,can0 08FF0303 [8] 00 00 00 00 00 00 00 00
1506533519.333501,can0 08FF0001 [8] 00 00 00 00 00 00 00 00
1506533519.334104,can0 0CF00203 [8] 00 00 00 00 00 00 00 00
1506533519.334551,can0 08FF0303 [8] 00 00 00 00 00 00 00 00
1506533519.342686,can0 08FF0001 [8] 00 00 00 00 00 00 00 00
1506533519.343224,can0 0CF00203 [8] 00 00 00 00 00 00 00 00
1506533519.343835,can0 08FF0303 [8] 00 00 00 00 00 00 00 00
1506533519.360466,can0 08FF0001 [8] 00 00 00 00 00 00 00 00
1506533519.36138,can0 0CF00203 [8] 00 00 00 00 00 00 00 00
1506533519.362326,can0 08FF0303 [8] 00 00 00 00 00 00 00 00
1506533519.36318,can0 18F00503 [8] 00 00 00 00 00 00 00 00
1506533519.363917,can0 08FF0001 [8] 00 00 00 00 00 00 00 00
1506533519.368707,can0 0CF00203 [8] 00 00 00 00 00 00 00 00
1506533519.369388,can0 08FF0303 [8] 00 00 00 00 00 00 00 00
1506533519.378316,can0 08FF0001 [8] 00 00 00 00 00 00 00 00
1506533519.379242,can0 0CF00203 [8] 00 00 00 00 00 00 00 00
1506533519.380092,can0 08FF0303 [8] 00 00 00 00 00 00 00 00
1506533519.382863,can0 08FF0001 [8] 00 00 00 00 00 00 00 00
1506533519.383893,can0 0CF00203 [8] 00 00 00 00 00 00 00 00
1506533519.384604,can0 08FF0303 [8] 00 00 00 00 00 00 00 00
1506533519.392885,can0 08FF0001 [8] 00 00 00 00 00 00 00 00
1506533519.394014,can0 0CF00203 [8] 00 00 00 00 00 00 00 00
1506533519.394872,can0 08FF0303 [8] 00 00 00 00 00 00 00 00
1506533519.402824,can0 08FF0001 [8] 00 00 00 00 00 00 00 00
1506533519.403955,can0 0CF00203 [8] 00 00 00 00 00 00 00 00
1506533519.404796,can0 08FF0303 [8] 00 00 00 00 00 00 00 00
1506533519.412919,can0 08FF0001 [8] 00 00 00 00 00 00 00 00
1506533519.413986,can0 0CF00203 [8] 00 00 00 00 00 00 00 00
1506533519.414834,can0 08FF0303 [8] 00 00 00 00 00 00 00 00
1506533519.422928,can0 08FF0001 [8] 00 00 00 00 00 00 00 00
1506533519.423975,can0 0CF00203 [8] 00 00 00 00 00 00 00 00
1506533519.424897,can0 08FF0303 [8] 00 00 00 00 00 00 00 00
1506533519.432877,can0 08FF0001 [8] 00 00 00 00 00 00 00 00
1506533519.433895,can0 0CF00203 [8] 00 00 00 00 00 00 00 00
1506533519.434824,can0 08FF0303 [8] 00 00 00 00 00 00 00 00
1506533519.442799,can0 08FF0001 [8] 00 00 00 00 00 00 00 00
1506533519.443867,can0 0CF00203 [8] 00 00 00 00 00 00 00 00
1506533519.444803,can0 08FF0303 [8] 00 00 00 00 00 00 00 00
1506533519.452886,can0 08FF0001 [8] 00 00 00 00 00 00 00 00
1506533519.454002,can0 0CF00203 [8] 00 00 00 00 00 00 00 00
1506533519.454878,can0 08FF0303 [8] 00 00 00 00 00 00 00 00
1506533519.455711,can0 18F00503 [8] 00 00 00 00 00 00 00 00
1506533519.462846,can0 08FF0001 [8] 00 00 00 00 00 00 00 00
1506533519.463885,can0 0CF00203 [8] 00 00 00 00 00 00 00 00
1506533519.464664,can0 08FF0303 [8] 00 00 00 00 00 00 00 00
1506533519.472837,can0 08FF0001 [8] 00 00 00 00 00 00 00 00
1506533519.473925,can0 0CF00203 [8] 00 00 00 00 00 00 00 00
1506533519.4747,can0 08FF0303 [8] 00 00 00 00 00 00 00 00
1506533519.259963,can1 18E00017 [8] 00 00 00 00 00 00 00 00
1506533519.260699,can1 18E00019 [8] 00 00 00 00 00 00 00 00
1506533519.261255,can1 18E00021 [8] 00 00 00 00 00 00 00 00
1506533519.26175,can1 18E00028 [8] 00 00 00 00 00 00 00 00
1506533519.262223,can1 18E00031 [8] 00 00 00 00 00 00 00 00
1506533519.264659,can1 18FEF017 [8] 00 00 00 00 00 00 00 00
1506533519.265154,can1 18FEF021 [8] 00 00 00 00 00 00 00 00
1506533519.265568,can1 18FEF028 [8] 00 00 00 00 00 00 00 00
1506533519.265964,can1 18FEF031 [8] 00 00 00 00 00 00 00 00
1506533519.266425,can1 18FEBF0B [8] 00 00 7D 7D FE FE FF FF
1506533519.274562,can1 0CFE6E0B [8] 00 00 00 00 00 00 00 00
1506533519.293907,can1 0CFE6E0B [8] 00 00 00 00 00 00 00 00
1506533519.312752,can1 0CFE6E0B [8] 00 00 00 00 00 00 00 00
1506533519.332799,can1 0CFE6E0B [8] 00 00 00 00 00 00 00 00
1506533519.352584,can1 18F0010B [8] CF FF F0 FF FF DC FF FF
1506533519.353251,can1 0CFE6E0B [8] 00 00 00 00 00 00 00 00
1506533519.353924,can1 18F00131 [8] 00 00 00 00 00 00 00 00
1506533519.356688,can1 18F0010B [8] 00 00 00 00 00 00 00 00
1506533519.357649,can1 18FEF117 [8] 00 00 00 00 00 00 00 00
1506533519.358483,can1 18FEF128 [8] 00 00 00 00 00 00 00 00
1506533519.359307,can1 18FEF121 [8] 00 00 00 00 00 00 00 00
1506533519.360027,can1 18FEF131 [8] 00 00 00 00 00 00 00 00
1506533519.364834,can1 18E00017 [8] 00 00 00 00 00 00 00 00
1506533519.365518,can1 18E00019 [8] 00 00 00 00 00 00 00 00
1506533519.366244,can1 18E00021 [8] 00 00 00 00 00 00 00 00
1506533519.366893,can1 18E00028 [8] 00 00 00 00 00 00 00 00
1506533519.367522,can1 18E00031 [8] 00 00 00 00 00 00 00 00
1506533519.37032,can1 18FEF017 [8] 00 00 00 00 00 00 00 00
1506533519.371031,can1 18FEF021 [8] 00 00 00 00 00 00 00 00
1506533519.381003,can1 18FEF028 [8] 00 00 00 00 00 00 00 00
1506533519.381865,can1 18FEF031 [8] 00 00 00 00 00 00 00 00
1506533519.385328,can1 18FEBF0B [8] 00 00 7D 7D FE FE FF FF
1506533519.386179,can1 18ECFFFA [8] 20 1C 00 04 FF EB FE 00
1506533519.386851,can1 18EBFFFA [8] 01 53 59 4E 45 52 2A 53
1506533519.38758,can1 0CFE6E0B [8] 00 00 00 00 00 00 00 00
1506533519.388235,can1 18EBFFFA [8] 02 53 53 32 2D 30 32 2A
1506533519.388861,can1 18EBFFFA [8] 03 58 58 58 58 2A 55 4E
1506533519.389544,can1 18EBFFFA [8] 04 49 56 45 52 53 41 4C
1506533519.391848,can1 18FEBF0B [8] 04 AC 6C 35 7E 43 20 6E
1506533519.39581,can1 18FEBF0B [8] CA 7E 74 52 1B 12 13 16
1506533519.396743,can1 0CFE6E0B [8] 00 00 00 00 00 00 00 00
1506533519.397661,can1 18FEBF0B [8] BB B4 50 14 A1 28 66 55
1506533519.398414,can1 18FEBF0B [8] D3 4D 08 61 38 2E 01 7D
1506533519.399259,can1 18FEBF0B [8] BE 67 E3 55 76 D0 E6 69
1506533519.399991,can1 18FEBF0B [8] 62 79 AE 6B 10 49 3C 12
1506533519.400707,can1 18FEBF0B [8] 1A 62 20 2E 3C E8 D6 07
1506533519.401549,can1 18FEBF0B [8] A9 31 19 2A 3D 65 C6 16
1506533519.402271,can1 18FEBF0B [8] BB 20 16 6D BC 4A C0 63
1506533519.406288,can1 18FEBF0B [8] BA 69 CC 35 7D A6 9E 70
1506533519.407145,can1 18FEBF0B [8] C9 67 58 48 38 51 14 28
1506533519.407982,can1 18FEBF0B [8] 88 9D 50 5E F7 09 0A 1C
1506533519.408699,can1 18FEBF0B [8] 07 F5 43 72 E5 F1 30 33
1506533519.409486,can1 18FEBF0B [8] 81 71 0C 61 17 F7 FB 78
1506533519.410276,can1 18FEBF0B [8] F9 98 4D 79 30 66 D5 71
1506533519.411041,can1 18FEBF0B [8] FF 74 B4 46 FE 44 BA 2E
1506533519.411831,can1 18FEBF0B [8] AE A9 F5 5F CA F3 28 19
1506533519.415968,can1 18FEBF0B [8] 19 57 CD 44 69 5E 46 74
1506533519.416989,can1 18FEBF0B [8] 6B 1C 8F 6E EC A4 D5 25
1506533519.417861,can1 18FEBF0B [8] A1 8C 47 71 29 84 72 44
1506533519.418694,can1 18FEBF0B [8] 63 75 BC 0F 03 06 F6 5C
1506533519.419522,can1 18FEBF0B [8] 39 CD AE 56 7D D7 DC 3D
1506533519.420239,can1 18FEBF0B [8] 3F EE CC 64 E3 FE C7 00
1506533519.42108,can1 18FEBF0B [8] BA 3C A3 54 FA 0E E3 51
1506533519.421797,can1 18FEBF0B [8] 9F 49 88 64 75 A6 6F 0A
1506533519.425604,can1 18FEBF0B [8] 77 B5 81 42 68 B1 E0 2C
1506533519.426569,can1 18FEBF0B [8] 22 B3 13 0E A6 8F 68 65
1506533519.427364,can1 18FEBF0B [8] 71 53 43 19 7B 86 81 11
1506533519.428104,can1 18FEBF0B [8] D6 C5 07 2B 81 23 94 64
1506533519.428975,can1 18FEBF0B [8] C8 0B FE 54 E3 E8 70 0A
1506533519.429714,can1 18FEBF0B [8] 2F E1 E8 3B F6 3C 00 68
1506533519.430559,can1 18FEBF0B [8] DD 21 43 7F 01 74 C2 55
1506533519.431287,can1 18FEBF0B [8] 4B 87 6B 7D 14 5D 75 0F
1506533519.432064,can1 18FEBF0B [8] 36 47 14 26 B1 A1 52 08
1506533519.435934,can1 18FEBF0B [8] E6 E8 25 7E C5 78 DD 03
1506533519.436858,can1 18FEBF0B [8] 7A 84 8D 2A F6 06 CD 78
1506533519.437704,can1 18FEBF0B [8] E0 8E 26 22 2D F2 36 24
1506533519.438503,can1 18FEBF0B [8] 73 30 22 74 F7 31 2B 1F
1506533519.439316,can1 0CFE6E0B [8] 00 00 00 00 00 00 00 00
1506533519.440018,can1 18FEBF0B [8] 55 EE FF 5E 7C BA 33 39
1506533519.440867,can1 18FEBF0B [8] E9 6D 1C 37 CA 9B 6D 11
1506533519.441579,can1 18FEBF0B [8] E9 86 B7 75 7C A8 27 06
1506533519.442412,can1 18FEBF0B [8] AD 75 CE 0A 0B 3A CB 03
1506533519.446416,can1 18FEBF0B [8] F1 3C 88 28 13 DF 85 2D
1506533519.447199,can1 18FEBF0B [8] 2C 09 C4 66 70 2A D4 64
1506533519.448074,can1 18FEBF0B [8] AE DF AB 2E 92 A4 31 68
1506533519.448813,can1 18FEBF0B [8] E0 39 11 6E 14 93 ED 1B
1506533519.449611,can1 18FEBF0B [8] 88 72 56 32 A7 3F 10 79
1506533519.450383,can1 18FEBF0B [8] 99 8B 8A 12 AB 2C 0A 4D
1506533519.451167,can1 18FEBF0B [8] C8 28 77 02 8B 9F 95 10
1506533519.451944,can1 18FEBF0B [8] 4C 95 D1 7E E1 95 4A 64
1506533519.456185,can1 18FEBF0B [8] BF 83 67 49 EB 8E 13 27
1506533519.457026,can1 18FEBF0B [8] 7B 9A 12 38 39 EB E8 40
1506533519.457921,can1 18FEBF0B [8] 35 93 29 70 27 48 15 78
1506533519.458685,can1 18FEBF0B [8] 23 73 11 71 95 41 DA 14
1506533519.459481,can1 18FEBF0B [8] 01 33 B7 2C 74 D7 39 15
1506533519.461129,can1 18FEBF0B [8] 51 4E 98 7C 2E 28 BF 17
1506533519.461975,can1 18FEBF0B [8] 07 2F F4 24 98 B8 A9 6E
1506533519.465682,can1 18FEBF0B [8] 2D 33 E1 54 F9 6B 7C 4D
1506533519.466453,can1 18FEBF0B [8] 26 F7 D4 07 64 DD 0F 34
1506533519.467277,can1 18FEBF0B [8] A2 B7 1E 49 51 B7 F7 1A
1506533519.468087,can1 18FEBF0B [8] 3D 43 CB 34 D3 2A 99 3F
1506533519.468823,can1 18FEBF0B [8] 48 FD 80 54 F8 B9 41 03
1506533519.469686,can1 18FEBF0B [8] 05 B4 04 56 03 3F 5D 04
1506533519.470409,can1 18FEBF0B [8] DC 5B 0C 2D ED 9C 15 0F
1506533519.471119,can1 18FEBF0B [8] 39 D3 22 31 91 26 A5 60
1506533519.471969,can1 18FEBF0B [8] 63 CC 45 49 AF 7D CB 77
1506533519.476379,can1 18FEBF0B [8] 33 E4 96 44 66 89 49 21
1506533519.477499,can1 18FEBF0B [8] 70 3E D6 18 F2 56 28 66
1506533519.478389,can1 18FEBF0B [8] 32 86 4C 37 50 1F 42 79
1506533519.479127,can1 18FEBF0B [8] 98 B6 E3 72 AF F0 45 62
1506533519.48002,can1 18FEBF0B [8] 5A AF 52 72 86 2B D3 05
1506533519.480739,can1 18FEBF0B [8] 6D 75 42 1F 87 BE 00 3C
1506533519.481501,can1 18FEBF0B [8] C8 81 D8 47 0B 5D 11 7E
1506533519.482225,can1 0CFE6E0B [8] 00 00 00 00 00 00 00 00
1506533519.486389,can1 18FEBF0B [8] A7 B3 E4 44 EE 78 AD 4F
1506533519.487257,can1 18FEBF0B [8] F6 F5 80 35 1F C8 85 67
1506533519.488097,can1 18FEBF0B [8] 4A B3 48 1B 60 4E 1A 0A
1506533519.488841,can1 18FEBF0B [8] EB 20 34 3B F3 37 2E 3F
1506533519.489658,can1 18FEBF0B [8] 40 BE F6 02 8C 25 50 71
1506533519.490462,can1 18FEBF0B [8] 06 96 A1 17 CB 33 E4 76
1506533519.491232,can1 18FEBF0B [8] AE 82 8A 3D 20 D2 8E 28
1506533519.491959,can1 18FEBF0B [8] 54 75 58 15 32 3F 13 7B
1506533519.495854,can1 18FEBF0B [8] D5 E8 07 0A 83 66 69 20
1506533519.496846,can1 18FEBF0B [8] 39 D6 C6 1B 96 64 42 71
1506533519.497639,can1 18FEBF0B [8] 9D 34 31 37 08 0E 85 49
1506533519.498445,can1 18FEBF0B [8] F1 3B 0E 2D A6 4B 52 26
1506533519.499842,can1 18FEBF0B [8] B7 E0 40 2A F1 47 F9 15
1506533519.500733,can1 18FEBF0B [8] CD 87 BC 07 13 BB DB 51
1506533519.501489,can1 18FEBF0B [8] 85 1C 13 62 B9 C9 6C 2E
1506533519.502208,can1 18FEBF0B [8] 2C D3 67 41 A5 F3 40 07
1506533519.506146,can1 18FEBF0B [8] DB 64 C2 75 22 C9 E8 76
1506533519.507096,can1 18FEBF0B [8] 42 EF 02 49 C3 C8 07 6A
1506533519.507859,can1 18FEBF0B [8] 5A 8B 11 1D 69 4D B0 74
1506533519.508647,can1 18FEBF0B [8] 97 88 EB 35 5B D5 A3 06
1506533519.509443,can1 18FEBF0B [8] 1A 70 69 52 26 50 DD 24
1506533519.510894,can1 18FEBF0B [8] 16 A3 28 2E B6 8C 50 04
1506533519.511836,can1 18FEBF0B [8] AC D3 C9 5D 69 F2 2C 7B
1506533519.516266,can1 18FEBF0B [8] 21 BD 3C 2B 78 90 5B 3D
1506533519.517239,can1 18FEBF0B [8] E6 B1 C9 09 7E 3E E0 11
1506533519.518093,can1 18FEBF0B [8] 3F 9E 15 00 FC 58 6E 35
1506533519.518925,can1 18FEBF0B [8] 40 7F 01 5C 8B B9 D7 22
1506533519.519733,can1 18FEBF0B [8] 0D A2 8D 76 E6 CF 14 7E
1506533519.520509,can1 18FEBF0B [8] C8 1C 26 43 3C 70 CD 05
1506533519.521239,can1 18FEBF0B [8] 10 9B 64 49 B8 78 D0 5A
1506533519.522026,can1 18FEBF0B [8] A7 3B 9A 45 16 FD F0 14
1506533519.525879,can1 18FEBF0B [8] 00 BD 2F 66 49 B3 19 2B
1506533519.526872,can1 18FEBF0B [8] B6 A8 1B 2D 42 AC 32 2F
1506533519.527636,can1 18FEBF0B [8] BD 87 1A 08 E0 73 EF 7D
1506533519.528508,can1 18FEBF0B [8] 7F 29 31 11 28 8B 16 28
1506533519.529241,can1 18FEBF0B [8] 84 C9 B4 0C BF 3D 59 2D
1506533519.530072,can1 0CFE6E0B [8] 00 00 00 00 00 00 00 00
1506533519.530813,can1 18F0010B [8] CF FF F0 FF FF DC FF FF
1506533519.531541,can1 18F0010B [8] 00 00 00 00 00 00 00 00
1506533519.532394,can1 18F00131 [8] 00 00 00 00 00 00 00 00
1506533519.536409,can1 18FEBF0B [8] 74 E8 DE 74 4E DE 39 47
1506533519.537196,can1 18FEBF0B [8] 73 20 7F 21 AA 15 37 28
1506533519.537999,can1 18FEBF0B [8] 7F 82 C4 78 2E 8E C8 6B
1506533519.538844,can1 18FEF117 [8] 00 00 00 00 00 00 00 00
1506533519.539578,can1 18FEBF0B [8] E1 37 CF 32 60 C0 62 4A
1506533519.540434,can1 18FEBF0B [8] 00 4D 87 16 5D 27 4B 67
1506533519.541162,can1 18FEBF0B [8] A3 79 A8 77 10 D4 24 62
1506533519.541942,can1 18FEBF0B [8] 01 59 CF 65 35 5E AB 05
1506533519.545825,can1 18FEBF0B [8] 4E 39 9E 1D D2 AD 96 03
1506533519.54674,can1 18FEBF0B [8] E4 D7 62 22 55 F7 45 4B
1506533519.547491,can1 18FEBF0B [8] F5 7D B2 30 AE E4 05 66
1506533519.561582,can1 18FEBF0B [8] 05 1B 52 4A D0 F7 27 22
1506533519.56275,can1 18FEBF0B [8] 89 3D 05 22 1F E4 73 54
1506533519.563838,can1 18FEBF0B [8] 42 0D 73 11 46 C5 1F 2A
1506533519.564709,can1 18FEF121 [8] 00 00 00 00 00 00 00 00
1506533519.56847,can1 18FEBF0B [8] 00 00 7D 7D FE FE FF FF
1506533519.569475,can1 18FEF128 [8] 00 00 00 00 00 00 00 00
1506533519.570332,can1 18FEF131 [8] 00 00 00 00 00 00 00 00
1506533519.57114,can1 18E00017 [8] 00 00 00 00 00 00 00 00
1506533519.571883,can1 18E00019 [8] 00 00 00 00 00 00 00 00
1506533519.579954,can1 18E00021 [8] 00 00 00 00 00 00 00 00
1506533519.581029,can1 18E00028 [8] 00 00 00 00 00 00 00 00
1506533519.581927,can1 18E00031 [8] 00 00 00 00 00 00 00 00
1506533519.59614,can1 18FEF017 [8] 00 00 00 00 00 00 00 00
1506533519.597221,can1 18FEF021 [8] 00 00 00 00 00 00 00 00
1506533519.598001,can1 18FEF028 [8] 00 00 00 00 00 00 00 00
1506533519.598906,can1 18FEF031 [8] 00 00 00 00 00 00 00 00
1506533519.599642,can1 18FEF521 [8] 00 00 00 00 00 00 00 00
1506533519.605887,can1 0CFE6E0B [8] 00 00 00 00 00 00 00 00
1506533519.606927,can1 18FEBF0B [8] 43 A8 CE 4D 47 DD 38 4D
1506533519.607733,can1 18FEBF0B [8] EE 39 E9 79 81 B7 72 57
1506533519.608628,can1 18FEBF0B [8] 63 1E BE 6A 3B 4B DC 78
1506533519.60937,can1 18FEBF0B [8] EB 1C E2 06 B3 FC EE 73
1506533519.618282,can1 18FEBF0B [8] 2F FA 31 2E 13 D8 E1 7B
1506533519.619375,can1 18FEBF0B [8] 9A 06 8B 69 D0 B2 12 17
1506533519.620367,can1 18FEBF0B [8] F0 8D B3 2B 9D F9 84 32
1506533519.621223,can1 18FEBF0B [8] 1A 2A 4E 16 A6 0D 10 6D
1506533519.630246,can1 18FEBF0B [8] 04 14 E1 01 DC E6 16 5F
1506533519.631334,can1 18FEBF0B [8] 26 ED 38 16 3F 37 6D 60
1506533519.632317,can1 18FEBF0B [8] 0B 73 B6 7D 13 08 D0 3D
1506533519.640629,can1 18FEBF0B [8] 2D 21 B9 36 23 09 D0 45
1506533519.641641,can1 18FEBF0B [8] FC F7 B7 63 56 35 21 39
1506533519.642435,can1 18FEBF0B [8] 89 DE A3 28 8A E1 35 5F
1506533519.646549,can1 18FEBF0B [8] 56 63 47 33 D1 0A DC 64
1506533519.647474,can1 18FEBF0B [8] 0A D6 E0 02 99 0B 16 01
1506533519.648249,can1 18FEBF0B [8] 20 B3 3C 59 24 98 F7 37
1506533519.648977,can1 18FEBF0B [8] 6F 8D D2 77 B9 D0 A6 28
1506533519.665247,can1 18FEBF0B [8] B8 93 64 62 58 BB F4 27
1506533519.665865,can1 18FEBF0B [8] 9A E8 73 6D B8 F1 ED 44
1506533519.666375,can1 18FEBF0B [8] E9 C1 17 7A 82 68 25 1A
1506533519.666936,can1 18FEBF0B [8] 67 8C 21 56 89 6A 46 7A
1506533519.667449,can1 18FEBF0B [8] 44 D9 A5 54 FE 4C 18 15
1506533519.667922,can1 18FEBF0B [8] 3A 15 F1 13 8C 05 1D 5C
1506533519.668385,can1 18FEBF0B [8] 07 38 42 25 7E 91 3A 5F
1506533519.674915,can1 18FEBF0B [8] 16 CA 79 39 AC EE 6E 73
1506533519.675549,can1 18FEBF0B [8] 24 C6 8C 67 C4 F1 DB 2D
1506533519.676072,can1 18FEBF0B [8] B0 B7 17 22 08 DA 3B 3D
1506533519.67663,can1 18FEBF0B [8] B0 1B 2E 00 8D 9C A7 44
1506533519.677149,can1 18FEBF0B [8] C0 EE 43 1C 27 B3 7C 18
1506533519.677628,can1 0CFE6E0B [8] 00 00 00 00 00 00 00 00
1506533519.67809,can1 18FEBF0B [8] C9 01 26 2E DF F5 BE 4A
1506533519.679956,can1 18FEBF0B [8] F0 8D E5 2F E9 B4 62 07
1506533519.680844,can1 18FEBF0B [8] B3 58 58 00 65 1B 40 32
1506533519.681411,can1 18FEBF0B [8] 6F 83 E9 11 E7 19 B9 12
1506533519.681907,can1 18FEBF0B [8] 64 87 7E 08 77 13 BC 78
1506533519.682433,can1 18FEBF0B [8] 0A E6 C8 39 48 02 28 64
1506533519.685207,can1 18FEBF0B [8] 0F AE AF 21 35 B6 6A 0E
1506533519.685741,can1 18FEBF0B [8] BF 89 BD 77 33 89 6D 05
1506533519.686177,can1 18FEBF0B [8] 11 1B EA 4A 40 E7 4A 26
1506533519.686743,can1 18FEBF0B [8] D6 0A 79 1C 9E CC 55 5C
1506533519.687227,can1 18FEBF0B [8] E5 F2 89 1D 05 CB F6 3C
1506533519.687689,can1 18FEBF0B [8] 60 85 3D 61 5D 38 07 08
1506533519.688135,can1 18FEBF0B [8] F3 58 2B 28 51 37 23 02
1506533519.688677,can1 18FEBF0B [8] C7 43 61 29 C8 2E 07 30
1506533519.689139,can1 18FEBF0B [8] 15 00 15 51 2B 6E 04 76
1506533519.689547,can1 18FEBF0B [8] F0 01 E9 7D 61 F4 85 25
1506533519.689997,can1 18FEBF0B [8] B3 C2 F8 32 08 68 5F 0E
1506533519.690507,can1 18FEBF0B [8] 86 7E F0 41 66 1B 51 33
1506533519.690971,can1 18FEBF0B [8] 98 88 50 38 A6 D1 EB 4A
1506533519.691424,can1 18FEBF0B [8] 1E 33 6A 57 FF 1C 7B 08
1506533519.69188,can1 18FEBF0B [8] 4F 1A 68 0A BD 64 5F 68
1506533519.692392,can1 18FEBF0B [8] 3D 47 28 11 44 87 1D 46
1506533519.695001,can1 18FEBF0B [8] 1C E4 2B 43 72 8F 0D 23
1506533519.695547,can1 18FEBF0B [8] 24 B4 2C 3C BC 0D 5E 09
1506533519.696105,can1 18FEBF0B [8] 18 E7 14 40 4E 2A 2F 72
1506533519.69661,can1 18FEBF0B [8] 2B F2 92 36 68 B8 53 6B
1506533519.697082,can1 18FEBF0B [8] C1 A2 AA 4B 07 6B 47 4B
1506533519.697548,can1 18FEBF0B [8] C0 8A 9B 4B 64 3C 7B 17
1506533519.698081,can1 18FEBF0B [8] F4 BC 6D 27 09 B6 61 02
1506533519.698568,can1 18FEBF0B [8] E3 2A A9 56 42 53 3D 43
1506533519.699031,can1 18FEBF0B [8] BC 69 BE 6D E6 F2 0E 7E
1506533519.699489,can1 18FEBF0B [8] 5D 2A 3E 59 1A C1 52 1E
1506533519.699942,can1 18FEBF0B [8] 42 6E DC 5E 8F B6 92 74
1506533519.700409,can1 18FEBF0B [8] 25 56 9D 2A DB F6 2C 17
1506533519.700882,can1 0CFE6E0B [8] 00 00 00 00 00 00 00 00
1506533519.701338,can1 18FEBF0B [8] 76 DC 8D 06 21 F9 3E 5D
1506533519.701788,can1 18FEBF0B [8] 11 DD 37 4D 2A 43 86 0B
1506533519.702301,can1 18FEBF0B [8] 19 39 0C 13 50 72 1F 00
1506533519.704852,can1 18FEBF0B [8] B0 67 AE 1D FE 0E 63 4B
1506533519.705481,can1 18FEBF0B [8] 10 2A 33 2C E6 8E D6 09
1506533519.705993,can1 18FEBF0B [8] 80 C5 32 0E D9 B0 64 41
1506533519.706489,can1 18FEBF0B [8] 97 0D 1F 45 A7 86 AF 35
1506533519.706971,can1 18FEBF0B [8] 7E E9 FC 3D 17 1D A0 13
1506533519.707436,can1 18FEBF0B [8] D1 1D 59 39 B1 C3 F0 34
1506533519.707947,can1 18FEBF0B [8] F5 44 DD 35 3F 92 CA 59
1506533519.708418,can1 18FEBF0B [8] 95 B1 52 0A C0 9E E4 75
1506533519.708879,can1 18FEBF0B [8] 78 34 9A 3B 90 B7 62 49
1506533519.709339,can1 18FEBF0B [8] 80 0B 21 41 09 E1 2D 75
1506533519.709841,can1 18FEBF0B [8] 2F 7E CA 27 C6 BF B9 41
1506533519.710271,can1 18FEBF0B [8] 37 F7 1A 13 7C 1E 3B 17
1506533519.710737,can1 18FEBF0B [8] C0 E8 68 25 AD D3 A8 19
1506533519.711196,can1 18FEBF0B [8] 06 BC 59 0A E2 46 EC 50
1506533519.711694,can1 18FEBF0B [8] AA 00 15 24 B1 CE A7 2E
1506533519.712177,can1 18FEBF0B [8] 2E 91 27 7D 3B EA CA 68
1506533519.714679,can1 18FEBF0B [8] 62 C4 DC 09 DE F5 9A 55
1506533519.715256,can1 18FEBF0B [8] 42 70 52 0A 13 DF 7B 02
1506533519.721431,can1 18FEBF0B [8] FD CC 38 62 9C 9F 93 5D
1506533519.722183,can1 18FEBF0B [8] 43 10 28 2C 4B 8D AE 68
1506533519.725576,can1 18FEBF0B [8] 88 A9 B6 29 6B 8F 6D 72
1506533519.726202,can1 18FEBF0B [8] BB C9 40 57 07 E6 3B 4B
1506533519.726722,can1 18FEBF0B [8] 9A A2 26 6C 40 9F 72 29
1506533519.727206,can1 18FEBF0B [8] C0 E2 09 66 EF 7A 8E 67
1506533519.727778,can1 18FEBF0B [8] 4A B2 E3 39 6A 56 2C 04
1506533519.728269,can1 18FEBF0B [8] 3A A6 45 33 95 BC 44 50
1506533519.728741,can1 18FEBF0B [8] 4A 74 E6 17 D2 36 35 35
1506533519.729263,can1 18FEBF0B [8] 39 15 D5 64 66 6E 42 1D
1506533519.729763,can1 18FEBF0B [8] C5 0A 78 67 3F D1 2E 6F
1506533519.730239,can1 18FEBF0B [8] C1 C1 6A 0D B8 1A F4 4B
1506533519.730654,can1 18FEBF0B [8] 33 E5 00 25 F9 E5 33 1F
1506533519.731117,can1 0CFE6E0B [8] 00 00 00 00 00 00 00 00
1506533519.731649,can1 18FEBF0B [8] 5D BC 68 18 3F 15 B8 64
1506533519.732118,can1 18FEBF0B [8] 5F E4 1C 63 AD 01 99 20
1506533519.734701,can1 18FEBF0B [8] C1 D3 66 02 7E 73 14 3B
1506533519.735363,can1 18FEBF0B [8] C7 5A 6D 74 E7 99 B7 6E
1506533519.735901,can1 18FEBF0B [8] 88 9F 80 0F BE B3 55 33
1506533519.736391,can1 18FEBF0B [8] 0E B5 BE 6F 9E 7B 31 4E
1506533519.736861,can1 18FEBF0B [8] 18 96 D0 0F 0C E9 60 1E
1506533519.737398,can1 18FEBF0B [8] 23 D6 3E 54 54 9E 78 20
1506533519.737876,can1 18FEBF0B [8] 0C E0 1D 7C 47 C5 B2 21
1506533519.738289,can1 18FEBF0B [8] 48 5D E8 0C F8 DA 06 3F
1506533519.738751,can1 18FEBF0B [8] DA 53 8C 48 0F FF 9D 3D
1506533519.739252,can1 18FEBF0B [8] 6B EC 8E 1B 53 68 94 7D
1506533519.739738,can1 18FEBF0B [8] D4 41 7A 39 2C 9F 36 0B
1506533519.740196,can1 18FEBF0B [8] 0D B7 EB 30 95 03 E5 46
1506533519.740656,can1 18FEBF0B [8] DB BC 8E 13 32 8D 65 0E
1506533519.741162,can1 18FEBF0B [8] 9A DA BF 69 E4 B3 67 4C
1506533519.741587,can1 18FEBF0B [8] 52 83 A0 30 27 16 11 6C
1506533519.742048,can1 18FEBF0B [8] 88 C8 66 13 E5 5D FA 5D
1506533519.744595,can1 18FEBF0B [8] 27 1E B5 53 90 F8 FC 65
1506533519.745247,can1 18FEBF0B [8] E7 EF EF 38 66 22 4A 6D
1506533519.745777,can1 18FEBF0B [8] 23 C1 73 3D CA 6C 1A 05
1506533519.746263,can1 18FEBF0B [8] DC 0D 32 5A A2 FE 4D 57
1506533519.746729,can1 18FEBF0B [8] 62 69 9E 01 1E 46 29 23
1506533519.747274,can1 18FEBF0B [8] 6C 93 20 6D 90 56 40 6B
1506533519.747744,can1 18FEBF0B [8] 13 AF 1D 12 13 8C 25 14
1506533519.748198,can1 18FEBF0B [8] 68 E3 4A 3C F6 51 15 6B
1506533519.748608,can1 18FEBF0B [8] 72 ED 02 44 84 F4 D5 27
1506533519.749121,can1 18FEBF0B [8] B0 FF 66 4A A0 D0 A2 23
1506533519.749593,can1 18FEBF0B [8] 91 4C 33 2A 41 D7 2D 1A
1506533519.750051,can1 18FEBF0B [8] 69 EA 64 17 6C 09 C2 3D
1506533519.7505,can1 18FEBF0B [8] BE 25 F1 5A 02 89 BD 42
1506533519.750962,can1 18FEBF0B [8] 76 44 D6 23 10 01 1D 47
1506533519.751362,can1 18FEBF0B [8] 96 76 B7 3A 40 3D 96 1D
1506533519.751835,can1 18FEBF0B [8] A7 54 80 74 92 51 82 6F
1506533519.752301,can1 18FEBF0B [8] AA 67 3A 3D 4B 29 0E 4C
1506533519.755422,can1 0CFE6E0B [8] 00 00 00 00 00 00 00 00
1506533519.755973,can1 18F0010B [8] CF FF F0 FF FF DC FF FF
1506533519.756482,can1 18F0010B [8] 00 00 00 00 00 00 00 00
1506533519.757062,can1 18F00131 [8] 00 00 00 00 00 00 00 00
1506533519.757497,can1 18FEBF0B [8] AB AB E6 32 0D C1 DE 54
1506533519.757964,can1 18FEF117 [8] 00 00 00 00 00 00 00 00
1506533519.758427,can1 18FEBF0B [8] 0C 57 33 76 60 E4 65 65
1506533519.758964,can1 18FEBF0B [8] D2 CF BA 01 C1 A5 F6 0A
1506533519.759434,can1 18FEBF0B [8] 75 5C 72 4F 2E 5C 1D 2A
1506533519.759889,can1 18FEBF0B [8] C0 B4 46 0C 45 5D CE 14
1506533519.760353,can1 18FEBF0B [8] 57 2B D5 34 86 AC A5 48
1506533519.760891,can1 18FEBF0B [8] 56 9D 6F 5F E0 A2 36 28
1506533519.761313,can1 18FEBF0B [8] 26 81 58 02 54 FB C0 52
1506533519.761773,can1 18FEBF0B [8] F3 D6 0B 78 AE 04 D0 40
1506533519.762223,can1 18FEBF0B [8] 67 EB 3A 39 C4 BD D8 3D
1506533519.764719,can1 18FEBF0B [8] F7 67 C3 44 25 11 2C 14
1506533519.765302,can1 18FEBF0B [8] 4C 42 EF 0E 10 4B 25 78
1506533519.765804,can1 18FEF121 [8] 00 00 00 00 00 00 00 00
1506533519.766225,can1 18FEBF0B [8] 00 00 7D 7D FE FE FF FF
1506533519.766783,can1 18FEBF0B [8] 36 35 04 62 7A 3A CB 74
1506533519.767256,can1 18FEBF0B [8] 99 F3 8C 2F 22 8A 9C 5C
1506533519.767672,can1 18FEBF0B [8] 47 46 E8 17 D1 12 0B 17
1506533519.768132,can1 18FEBF0B [8] CE A6 E7 6B A5 BE 2B 48
1506533519.76865,can1 18FEBF0B [8] 1B F3 3A 33 82 9F 41 73
1506533519.769131,can1 18FEF128 [8] 00 00 00 00 00 00 00 00
1506533519.769589,can1 18FEBF0B [8] 16 F6 C2 14 39 0A CC 1E
1506533519.770045,can1 18E00017 [8] 00 00 00 00 00 00 00 00
1506533519.77057,can1 18FEBF0B [8] 25 EE 72 2F CB 92 CF 35
1506533519.770989,can1 18E00019 [8] 00 00 00 00 00 00 00 00
1506533519.771455,can1 18FEBF0B [8] F0 B5 3E 56 28 E6 C1 45
1506533519.771903,can1 18E00021 [8] 00 00 00 00 00 00 00 00
1506533519.772407,can1 18FEBF0B [8] AC 2F A3 7A 5F CB EE 03
1506533519.77501,can1 18E00028 [8] 00 00 00 00 00 00 00 00
1506533519.77554,can1 18FEBF0B [8] 6C 3C 46 7A 39 4C DF 2D
1506533519.776018,can1 18E00031 [8] 00 00 00 00 00 00 00 00
1506533519.776583,can1 18FEBF0B [8] B6 1F 74 44 79 4A 11 4D
1506533519.777006,can1 18FEBF0B [8] 6C F3 AF 2A DD 0A F1 43
1506533519.777485,can1 18FEBF0B [8] DE C4 94 20 6A B4 0B 2D
1506533519.777952,can1 18FEBF0B [8] 26 9F 56 29 40 79 8D 02
1506533519.778483,can1 18FEBF0B [8] 90 6B 7A 38 72 E1 45 38
1506533519.778963,can1 18FEBF0B [8] 19 45 85 2D EC 38 FA 52
1506533519.779419,can1 18FEBF0B [8] 4E 91 03 12 14 07 92 2E
1506533519.779872,can1 18FEBF0B [8] 7D E2 28 23 4C 61 5E 0B
1506533519.780399,can1 18FEBF0B [8] D5 06 A8 76 96 7D 02 28
1506533519.781138,can1 18FEBF0B [8] 37 19 DE 34 BA EC 1A 04
1506533519.781672,can1 18FEBF0B [8] 36 52 2E 6A 9D D3 25 1C
1506533519.782218,can1 18FEF017 [8] 00 00 00 00 00 00 00 00
1506533519.784856,can1 18FEBF0B [8] 0D 59 89 38 25 CC 38 36
1506533519.785433,can1 18FEBF0B [8] 38 D7 2F 34 53 53 69 3C
1506533519.785998,can1 18FEBF0B [8] 94 BF A5 53 8A FB 31 20
1506533519.786498,can1 18FEBF0B [8] AD 60 9D 43 F0 01 53 0C
1506533519.786971,can1 18FEBF0B [8] E9 62 1A 0C B5 86 8B 7E
1506533519.787379,can1 18FEBF0B [8] 4F 30 86 56 51 D3 23 00
1506533519.787893,can1 18FEBF0B [8] DE BC 75 7D 13 C9 DF 21
1506533519.78837,can1 18FEBF0B [8] 21 17 75 61 B7 98 E4 18
1506533519.788834,can1 18FEBF0B [8] CF B1 1D 72 A2 D9 AF 15
1506533519.789287,can1 18FEBF0B [8] 5E C6 89 12 E8 F6 A2 1F
1506533519.7898,can1 18FEBF0B [8] 5E 49 45 08 BB 1F 15 1E
1506533519.790311,can1 18FEBF0B [8] 4D 9B 48 0A 51 98 F4 26
1506533519.790744,can1 18FEBF0B [8] 05 6B AD 7D 40 EB BF 34
1506533519.791211,can1 18FEBF0B [8] C4 EE 36 4B BB CC C5 56
1506533519.791665,can1 18FEBF0B [8] 7B 1B AC 41 E7 37 DF 1E
1506533519.792191,can1 18FEBF0B [8] 64 22 66 1F 4F FC A3 6C
1506533519.794751,can1 18FEF021 [8] 00 00 00 00 00 00 00 00
1506533519.795333,can1 18FEBF0B [8] 1B 04 36 0A A9 F3 D3 55
1506533519.795905,can1 18FEBF0B [8] 45 10 52 5E FA 57 02 6E
1506533519.796414,can1 18FEBF0B [8] 46 81 9B 3D A0 4C 39 00
1506533519.796897,can1 18FEBF0B [8] 39 71 B0 0F FE A3 DB 10
1506533519.797316,can1 18FEBF0B [8] EA 8B C3 64 F0 0F 1A 35
1506533519.797851,can1 18FEBF0B [8] 22 62 5D 04 FD 84 6D 63
1506533519.798336,can1 18FEBF0B [8] 59 BE 55 48 B1 DC F5 77
1506533519.798802,can1 18FEBF0B [8] 9F B8 35 04 2E 23 60 1C
1506533519.799263,can1 18FEBF0B [8] 6A 85 A3 4B 50 12 5B 7F
1506533519.799782,can1 18FEBF0B [8] C4 5E 8D 23 C8 CE E8 53
1506533519.800253,can1 18FEBF0B [8] A8 2B 0C 25 C4 8D BB 48
1506533519.800661,can1 18FEBF0B [8] B5 51 4A 3F FE D7 A1 2A
1506533519.801114,can1 18FEBF0B [8] 9B 2B 97 4C AF 17 E2 38
1506533519.801621,can1 18FEBF0B [8] 8E 5D 25 29 2C 38 ED 7D
1506533519.802104,can1 18FEBF0B [8] E6 47 C8 0A 5E 42 94 37
1506533519.804668,can1 18FEBF0B [8] AC 0C 9D 58 E6 91 15 31
1506533519.805244,can1 18FEF028 [8] 00 00 00 00 00 00 00 00
1506533519.805827,can1 18FEBF0B [8] 7B D9 76 59 4C 96 22 1C
1506533519.806324,can1 18FEBF0B [8] 20 A7 16 40 EA E0 2A 64
1506533519.806801,can1 18FEBF0B [8] FB DE E8 75 03 41 C1 37
1506533519.807257,can1 18FEBF0B [8] 2F 87 D0 5F 47 AA 0C 67
1506533519.80774,can1 18FEBF0B [8] 13 EF 21 28 07 17 1B 0A
1506533519.808758,can1 18FEBF0B [8] 1D DB F4 26 9B FC A7 61
1506533519.809493,can1 18FEBF0B [8] 6B F7 9D 71 6D 9B 58 70
1506533519.810028,can1 18FEBF0B [8] 7D 05 31 76 65 E2 C9 39
1506533519.810472,can1 18FEBF0B [8] 7A F3 CD 4C C1 43 D0 28
1506533519.810972,can1 18FEBF0B [8] 86 43 30 61 22 1F DA 71
1506533519.811511,can1 18FEBF0B [8] 04 33 46 48 7C 07 FB 19
1506533519.811998,can1 18FEBF0B [8] C4 E1 99 0B 2B E2 F8 48
1506533519.814592,can1 18FEBF0B [8] 0C 05 FD 6A 0A 2F C9 3D
1506533519.815272,can1 18FEBF0B [8] 52 CB 6A 71 71 9A A1 28
1506533519.815835,can1 18FEBF0B [8] 39 A5 0A 1B C8 A8 FF 55
1506533519.816642,can1 18FEBF0B [8] B9 56 D1 05 1F 66 B6 72
1506533519.817208,can1 18FEF031 [8] 00 00 00 00 00 00 00 00
1506533519.817716,can1 18FEBF0B [8] 7D 9A 4C 23 31 A4 B1 79
1506533519.818148,can1 0CFE6E0B [8] 00 00 00 00 00 00 00 00
1506533519.818614,can1 18FEBF0B [8] 2E 6A 4D 16 85 49 E1 0B
1506533519.819122,can1 0CFE6E0B [8] 00 00 00 00 00 00 00 00
1506533519.819603,can1 18FEBF0B [8] FC BC 13 32 A5 48 B1 45
1506533519.820072,can1 18FEBF0B [8] 11 AF 9E 62 67 D7 9F 4B
1506533519.820527,can1 18FEBF0B [8] 66 1A 03 1C D9 CF C2 1F
1506533519.821029,can1 18FEBF0B [8] C9 C9 46 65 D9 E7 2E 69
1506533519.821466,can1 18FEBF0B [8] E9 CD 5A 19 0F 40 96 28
1506533519.821926,can1 18FEBF0B [8] B4 82 CC 2D 8C 8B 8B 35
1506533519.822387,can1 18FEBF0B [8] EF D0 69 5F 8D 17 4A 12
1506533519.825406,can1 0CFE6E0B [8] 00 00 00 00 00 00 00 00
1506533519.825957,can1 18FEBF0B [8] FB 57 A3 6F F3 03 B0 27
1506533519.8264,can1 18FEBF0B [8] A1 BF 53 6A 39 C7 21 22
1506533519.826941,can1 18FEBF0B [8] 8E 0F B6 62 E6 3D 8B 4D
1506533519.827438,can1 18FEBF0B [8] AB 17 6A 33 54 64 E7 62
1506533519.82791,can1 18FEBF0B [8] 60 F9 75 64 AE F8 0A 20
1506533519.828371,can1 18FEBF0B [8] C7 CF 57 13 5C C0 DE 6C
1506533519.828873,can1 18FEBF0B [8] 18 DB 35 7A 11 D6 6A 3B
1506533519.829357,can1 18FEF131 [8] 00 00 00 00 00 00 00 00
1506533519.829772,can1 18FEBF0B [8] 92 8A 35 52 80 B3 1B 1D
1506533519.83023,can1 18FEBF0B [8] 3C 77 35 45 06 72 82 25
1506533519.830686,can1 18FEBF0B [8] CF 9E 93 55 40 F5 D2 59
1506533519.831203,can1 18FEBF0B [8] AF 29 A8 24 64 EE 1A 27
1506533519.831666,can1 18FEBF0B [8] 5B 60 72 1F D2 50 A4 0E
1506533519.832123,can1 18FEBF0B [8] BA D2 B9 64 C3 11 46 51
1506533519.83455,can1 18FEBF0B [8] 1F B1 25 36 F1 78 E3 63
1506533519.8352,can1 18FEBF0B [8] A0 2C 62 20 06 E8 88 5F
1506533519.835717,can1 18FEBF0B [8] 92 7B 20 46 A3 59 8C 55
1506533519.836204,can1 18FEBF0B [8] C9 50 58 27 33 3B 74 30
1506533519.836749,can1 18FEBF0B [8] 6F CA 80 67 BF 3A 85 2C
1506533519.83725,can1 18FEBF0B [8] 92 59 29 4E 50 4F 17 56
1506533519.837719,can1 18FEBF0B [8] 15 78 9A 5C 71 02 8F 2F
1506533519.83818,can1 18FEBF0B [8] D6 70 82 13 7A CD 4E 38
1506533519.838678,can1 18FEBF0B [8] 75 D1 18 2B 69 4F DE 61
1506533519.839157,can1 18FEBF0B [8] 41 F9 5B 2D 47 72 D7 10
1506533519.83957,can1 18FEBF0B [8] 58 BF A6 74 81 74 A2 01
1506533519.840034,can1 18FEBF0B [8] 6E 4B 10 5A D5 28 0E 6D
1506533519.840488,can1 18FEBF0B [8] 73 26 CD 6C 48 D8 C6 21
1506533519.841008,can1 18FEBF0B [8] 91 07 DF 1F B8 97 83 22
1506533519.841471,can1 18FEBF0B [8] B1 15 C4 4E 05 DE 6A 22
1506533519.841922,can1 18FEBF0B [8] 1C 0F A8 74 44 D3 E9 6B
1506533519.84232,can1 18FEBF0B [8] 38 5A D3 5E 9E E8 35 52
1506533519.844948,can1 18FEBF0B [8] B0 42 84 43 6F 53 96 41
1506533519.84549,can1 18FEBF0B [8] 47 34 5D 05 07 A6 C4 1A
1506533519.845981,can1 18FEBF0B [8] 74 F7 65 20 B7 FE DD 6C
1506533519.846508,can1 18FEBF0B [8] 3A 01 C3 23 E3 76 23 44
1506533519.847022,can1 0CFE6E0B [8] 00 00 00 00 00 00 00 00
1506533519.847505,can1 18FEBF0B [8] DC 15 A6 1F 82 EE 4C 75
1506533519.847971,can1 18FEBF0B [8] 52 7A F4 54 06 35 AA 71
1506533519.848492,can1 18FEBF0B [8] D5 D1 2E 0B A4 34 BB 35
1506533519.84898,can1 18FEBF0B [8] 49 79 4A 1C 81 72 1E 5B
1506533519.849388,can1 18FEBF0B [8] 1D 81 25 39 13 20 6A 04
1506533519.849842,can1 18FEBF0B [8] 40 35 AF 17 E3 EF 00 35
1506533519.850335,can1 18FEBF0B [8] C4 92 8F 4E ED 34 F8 72
1506533519.850823,can1 18FEBF0B [8] 57 DF 0A 06 FB 59 F3 01
1506533519.851286,can1 18FEBF0B [8] 3E A8 E6 79 CD 45 92 4A
1506533519.851737,can1 18FEBF0B [8] 7B B9 6C 25 F6 14 55 7D
1506533519.852138,can1 18FEBF0B [8] 70 B7 B3 53 73 A7 B5 26
1506533519.855299,can1 18FEBF0B [8] 20 06 8E 1E BC 41 BC 37
1506533519.855872,can1 18FEBF0B [8] EB 3F E5 6B 15 D2 29 31
1506533519.856448,can1 18FEBF0B [8] C4 C0 40 69 3F 39 D1 0F
1506533519.856948,can1 18FEBF0B [8] 32 4D 02 71 FE C1 03 0D
1506533519.857418,can1 18FEBF0B [8] C9 64 D2 4B 93 88 66 2B
1506533519.857868,can1 18FEBF0B [8] AE 3A C0 77 36 71 2F 7B
1506533519.85839,can1 18FEBF0B [8] 3A 37 E5 1B 7C 83 DD 67
1506533519.858814,can1 18FEBF0B [8] EC 56 88 63 1E 66 2D 21
1506533519.859281,can1 18FEBF0B [8] 3B 52 D3 71 94 F2 2B 50
1506533519.859739,can1 18FEBF0B [8] 1E CC 49 01 95 11 2D 23
1506533519.860236,can1 18FEBF0B [8] 32 9E B1 23 52 50 B6 46
1506533519.860709,can1 18FEBF0B [8] 50 0C CF 3D A2 66 23 2B
1506533519.861169,can1 18FEBF0B [8] FF C7 7E 77 DB 3D 96 70
1506533519.861571,can1 18FEBF0B [8] 36 5F D1 3B 7C CD 2F 1E
1506533519.862064,can1 18FEBF0B [8] 50 C5 85 72 41 AD 08 39
1506533519.86461,can1 18FEBF0B [8] 88 70 18 59 15 D3 DC 5E
1506533519.865198,can1 18FEBF0B [8] A6 7E 20 2C 6F 78 0C 15
1506533519.865677,can1 18FEBF0B [8] 0C BA 5D 18 CF 36 EE 71
1506533519.866238,can1 18FEBF0B [8] 16 F0 C1 10 B3 BB 0D 65
1506533519.86672,can1 18FEBF0B [8] 8A 03 8C 01 DF 54 94 5C
1506533519.867155,can1 18FEBF0B [8] 19 80 AA 14 3F 1B F6 00
1506533519.867611,can1 18FEBF0B [8] 71 03 42 36 B1 F6 9D 7D
1506533519.868085,can1 18FEBF0B [8] CE 53 F5 14 4D 1B 2E 14
1506533519.868562,can1 18FEBF0B [8] B0 13 BD 4B 20 4E 89 17
1506533519.869017,can1 18FEBF0B [8] 85 95 86 28 D7 EB 78 4A
1506533519.869481,can1 0CFE6E0B [8] 00 00 00 00 00 00 00 00
1506533519.869985,can1 18F0010B [8] CF FF F0 FF FF DC FF FF
1506533519.870414,can1 18F0010B [8] 00 00 00 00 00 00 00 00
1506533519.870879,can1 18F00131 [8] 00 00 00 00 00 00 00 00
1506533519.871327,can1 18FEBF0B [8] 75 6E 94 75 03 A2 10 15
1506533519.871821,can1 18FEF117 [8] 00 00 00 00 00 00 00 00
1506533519.872294,can1 18FEBF0B [8] E7 5A 57 7B AB 70 6E 34
1506533519.87487,can1 18FEBF0B [8] D9 A6 CA 58 F7 09 1D 38
1506533519.875424,can1 18FEBF0B [8] 50 79 40 66 4F 98 92 20
1506533519.876,can1 18FEBF0B [8] CC 12 2D 19 EB 73 BC 6A
1506533519.87651,can1 18FEBF0B [8] 66 C5 11 25 1A 29 F6 79
1506533519.877012,can1 18FEBF0B [8] 11 51 96 0D 7A A4 28 1F
1506533519.877439,can1 18FEBF0B [8] 78 C3 54 64 B4 6B 0D 7F
1506533519.877969,can1 18FEBF0B [8] BF 15 E3 20 8F E2 16 46
1506533519.878447,can1 18FEBF0B [8] DE 46 D1 24 1E 9C F2 34
1506533519.878904,can1 18FEBF0B [8] AD 3D 61 72 F7 C6 7B 39
1506533519.879354,can1 18FEBF0B [8] 8E 6F 7D 78 78 69 36 0D
1506533519.879863,can1 18FEBF0B [8] 0A FD CA 4E C7 0A 1B 5F
1506533519.880283,can1 18FEBF0B [8] 46 98 A1 0A C9 61 2B 58
1506533519.880743,can1 18FEBF0B [8] D9 94 8E 53 BC 08 C1 38
1506533519.881197,can1 18FEBF0B [8] FA FB 37 40 BA B9 0D 7B
1506533519.881698,can1 18FEBF0B [8] 00 00 7D 7D FE FE FF FF
1506533519.882166,can1 18FEBF0B [8] D1 A6 8F 52 6A CE D7 5D
1506533519.884686,can1 18FEBF0B [8] ED 3B 80 4E 30 93 62 0A
1506533519.88528,can1 18FEBF0B [8] FD 71 F8 76 94 FA 8A 71
1506533519.885867,can1 18FEBF0B [8] 01 52 35 0B A7 7A 02 06
1506533519.886368,can1 18FEBF0B [8] C6 0D D5 2C B2 1B 72 61
1506533519.886843,can1 18FEF121 [8] 00 00 00 00 00 00 00 00
1506533519.887306,can1 18FEBF0B [8] AB D4 EF 26 D2 D6 D1 62
1506533519.887835,can1 18FEBF0B [8] FA 3D 5F 75 63 03 63 69
1506533519.888299,can1 18FEBF0B [8] 9C DD B0 32 B7 21 7F 73
1506533519.888762,can1 18FEBF0B [8] 48 75 BC 04 EE C2 5A 6C
1506533519.889176,can1 18FEBF0B [8] 09 F2 6E 4D 10 3F AF 6A
1506533519.889696,can1 18FEBF0B [8] F9 7F 75 64 7C 04 5F 55
1506533519.890167,can1 18FEBF0B [8] 49 57 65 6B 1B FE F6 0F
1506533519.890638,can1 18FEBF0B [8] 27 EB 78 18 95 33 86 14
1506533519.891093,can1 18FEBF0B [8] 33 FE 99 66 C2 F0 BA 0C
1506533519.891612,can1 18FEBF0B [8] A0 04 D7 11 79 44 1C 51
1506533519.892078,can1 18FEBF0B [8] 5D 1E 33 02 7C E9 F6 50
1506533519.482916,can0 08FF0001 [8] 00 00 00 00 00 00 00 00
1506533519.484099,can0 0CF00203 [8] 00 00 00 00 00 00 00 00
1506533519.484898,can0 08FF0303 [8] 00 00 00 00 00 00 00 00
1506533519.492943,can0 08FF0001 [8] 00 00 00 00 00 00 00 00
1506533519.494016,can0 0CF00203 [8] 00 00 00 00 00 00 00 00
1506533519.494923,can0 08FF0303 [8] 00 00 00 00 00 00 00 00
1506533519.502873,can0 08FF0001 [8] 00 00 00 00 00 00 00 00
1506533519.503929,can0 0CF00203 [8] 00 00 00 00 00 00 00 00
1506533519.504848,can0 08FF0303 [8] 00 00 00 00 00 00 00 00
1506533519.512928,can0 08FF0001 [8] 00 00 00 00 00 00 00 00
1506533519.514043,can0 0CF00203 [8] 00 00 00 00 00 00 00 00
1506533519.514924,can0 08FF0303 [8] 00 00 00 00 00 00 00 00
1506533519.522883,can0 08FF0001 [8] 00 00 00 00 00 00 00 00
1506533519.523922,can0 0CF00203 [8] 00 00 00 00 00 00 00 00
1506533519.524882,can0 08FF0303 [8] 00 00 00 00 00 00 00 00
1506533519.532815,can0 08FF0001 [8] 00 00 00 00 00 00 00 00
1506533519.533949,can0 0CF00203 [8] 00 00 00 00 00 00 00 00
1506533519.53483,can0 08FF0303 [8] 00 00 00 00 00 00 00 00
1506533519.542892,can0 08FF0001 [8] 00 00 00 00 00 00 00 00
1506533519.543993,can0 0CF00203 [8] 00 00 00 00 00 00 00 00
1506533519.544797,can0 08FF0303 [8] 00 00 00 00 00 00 00 00
1506533519.552896,can0 08FF0001 [8] 00 00 00 00 00 00 00 00
1506533519.554259,can0 0CF00203 [8] 00 00 00 00 00 00 00 00
1506533519.555081,can0 08FF0303 [8] 00 00 00 00 00 00 00 00
1506533519.556022,can0 18F00503 [8] 00 00 00 00 00 00 00 00
1506533519.565576,can0 08FF0001 [8] 00 00 00 00 00 00 00 00
1506533519.566577,can0 0CF00203 [8] 00 00 00 00 00 00 00 00
1506533519.567519,can0 08FF0303 [8] 00 00 00 00 00 00 00 00
1506533519.572872,can0 08FF0001 [8] 00 00 00 00 00 00 00 00
1506533519.57398,can0 0CF00203 [8] 00 00 00 00 00 00 00 00
1506533519.574834,can0 08FF0303 [8] 00 00 00 00 00 00 00 00
1506533519.582988,can0 08FF0001 [8] 00 00 00 00 00 00 00 00
1506533519.584088,can0 0CF00203 [8] 00 00 00 00 00 00 00 00
1506533519.587242,can0 08FF0303 [8] 00 00 00 00 00 00 00 00
1506533519.592979,can0 08FF0001 [8] 00 00 00 00 00 00 00 00
1506533519.594128,can0 0CF00203 [8] 00 00 00 00 00 00 00 00
1506533519.595117,can0 08FF0303 [8] 00 00 00 00 00 00 00 00
1506533519.60292,can0 08FF0001 [8] 00 00 00 00 00 00 00 00
1506533519.604024,can0 0CF00203 [8] 00 00 00 00 00 00 00 00
1506533519.604987,can0 08FF0303 [8] 00 00 00 00 00 00 00 00
1506533519.61287,can0 08FF0001 [8] 00 00 00 00 00 00 00 00
1506533519.614142,can0 0CF00203 [8] 00 00 00 00 00 00 00 00
1506533519.61497,can0 08FF0303 [8] 00 00 00 00 00 00 00 00
1506533519.622944,can0 08FF0001 [8] 00 00 00 00 00 00 00 00
1506533519.624167,can0 0CF00203 [8] 00 00 00 00 00 00 00 00
1506533519.625059,can0 08FF0303 [8] 00 00 00 00 00 00 00 00
1506533519.632923,can0 08FF0001 [8] 00 00 00 00 00 00 00 00
1506533519.634138,can0 0CF00203 [8] 00 00 00 00 00 00 00 00
1506533519.635031,can0 08FF0303 [8] 00 00 00 00 00 00 00 00
1506533519.642889,can0 08FF0001 [8] 00 00 00 00 00 00 00 00
1506533519.644036,can0 0CF00203 [8] 00 00 00 00 00 00 00 00
1506533519.644896,can0 08FF0303 [8] 00 00 00 00 00 00 00 00
1506533519.652946,can0 08FF0001 [8] 00 00 00 00 00 00 00 00
1506533519.654179,can0 0CF00203 [8] 00 00 00 00 00 00 00 00
1506533519.655199,can0 08FF0303 [8] 00 00 00 00 00 00 00 00
1506533519.655979,can0 18F00503 [8] 00 00 00 00 00 00 00 00
1506533519.662854,can0 08FF0001 [8] 00 00 00 00 00 00 00 00
1506533519.66372,can0 0CF00203 [8] 00 00 00 00 00 00 00 00
1506533519.664289,can0 08FF0303 [8] 00 00 00 00 00 00 00 00
1506533519.672891,can0 08FF0001 [8] 00 00 00 00 00 00 00 00
1506533519.673763,can0 0CF00203 [8] 00 00 00 00 00 00 00 00
1506533519.674319,can0 08FF0303 [8] 00 00 00 00 00 00 00 00
1506533519.682745,can0 08FF0001 [8] 00 00 00 00 00 00 00 00
1506533519.683512,can0 0CF00203 [8] 00 00 00 00 00 00 00 00
1506533519.68409,can0 08FF0303 [8] 00 00 00 00 00 00 00 00
1506533519.69272,can0 08FF0001 [8] 00 00 00 00 00 00 00 00
1506533519.693385,can0 0CF00203 [8] 00 00 00 00 00 00 00 00
1506533519.693957,can0 08FF0303 [8] 00 00 00 00 00 00 00 00
1506533519.70278,can0 08FF0001 [8] 00 00 00 00 00 00 00 00
1506533519.703438,can0 0CF00203 [8] 00 00 00 00 00 00 00 00
1506533519.704067,can0 08FF0303 [8] 00 00 00 00 00 00 00 00
1506533519.712766,can0 08FF0001 [8] 00 00 00 00 00 00 00 00
1506533519.713403,can0 0CF00203 [8] 00 00 00 00 00 00 00 00
1506533519.714048,can0 08FF0303 [8] 00 00 00 00 00 00 00 00
1506533519.722773,can0 08FF0001 [8] 00 00 00 00 00 00 00 00
1506533519.72409,can0 0CF00203 [8] 00 00 00 00 00 00 00 00
1506533519.724689,can0 08FF0303 [8] 00 00 00 00 00 00 00 00
1506533519.732742,can0 08FF0001 [8] 00 00 00 00 00 00 00 00
1506533519.733511,can0 0CF00203 [8] 00 00 00 00 00 00 00 00
1506533519.7341,can0 08FF0303 [8] 00 00 00 00 00 00 00 00
1506533519.742782,can0 08FF0001 [8] 00 00 00 00 00 00 00 00
1506533519.743512,can0 0CF00203 [8] 00 00 00 00 00 00 00 00
1506533519.744091,can0 08FF0303 [8] 00 00 00 00 00 00 00 00
1506533519.752812,can0 08FF0001 [8] 00 00 00 00 00 00 00 00
1506533519.753454,can0 0CF00203 [8] 00 00 00 00 00 00 00 00
1506533519.754015,can0 08FF0303 [8] 00 00 00 00 00 00 00 00
1506533519.75454,can0 18F00503 [8] 00 00 00 00 00 00 00 00
1506533519.762756,can0 08FF0001 [8] 00 00 00 00 00 00 00 00
1506533519.76341,can0 0CF00203 [8] 00 00 00 00 00 00 00 00
1506533519.763933,can0 08FF0303 [8] 00 00 00 00 00 00 00 00
1506533519.772766,can0 08FF0001 [8] 00 00 00 00 00 00 00 00
1506533519.773413,can0 0CF00203 [8] 00 00 00 00 00 00 00 00
1506533519.773965,can0 08FF0303 [8] 00 00 00 00 00 00 00 00
1506533519.78278,can0 08FF0001 [8] 00 00 00 00 00 00 00 00
1506533519.783449,can0 0CF00203 [8] 00 00 00 00 00 00 00 00
1506533519.784145,can0 08FF0303 [8] 00 00 00 00 00 00 00 00
1506533519.792782,can0 08FF0001 [8] 00 00 00 00 00 00 00 00
1506533519.793426,can0 0CF00203 [8] 00 00 00 00 00 00 00 00
1506533519.794057,can0 08FF0303 [8] 00 00 00 00 00 00 00 00
1506533519.802733,can0 08FF0001 [8] 00 00 00 00 00 00 00 00
1506533519.803497,can0 0CF00203 [8] 00 00 00 00 00 00 00 00
1506533519.804093,can0 08FF0303 [8] 00 00 00 00 00 00 00 00
1506533519.8128,can0 08FF0001 [8] 00 00 00 00 00 00 00 00
1506533519.813547,can0 0CF00203 [8] 00 00 00 00 00 00 00 00
1506533519.814147,can0 08FF0303 [8] 00 00 00 00 00 00 00 00
1506533519.822785,can0 08FF0001 [8] 00 00 00 00 00 00 00 00
1506533519.823735,can0 0CF00203 [8] 00 00 00 00 00 00 00 00
1506533519.824328,can0 08FF0303 [8] 00 00 00 00 00 00 00 00
1506533519.832831,can0 08FF0001 [8] 00 00 00 00 00 00 00 00
1506533519.833474,can0 0CF00203 [8] 00 00 00 00 00 00 00 00
1506533519.834029,can0 08FF0303 [8] 00 00 00 00 00 00 00 00
1506533519.84276,can0 08FF0001 [8] 00 00 00 00 00 00 00 00
1506533519.843469,can0 0CF00203 [8] 00 00 00 00 00 00 00 00
1506533519.844039,can0 08FF0303 [8] 00 00 00 00 00 00 00 00
1506533519.852784,can0 08FF0001 [8] 00 00 00 00 00 00 00 00
1506533519.85344,can0 0CF00203 [8] 00 00 00 00 00 00 00 00
1506533519.85401,can0 08FF0303 [8] 00 00 00 00 00 00 00 00
1506533519.854619,can0 18F00503 [8] 00 00 00 00 00 00 00 00
1506533519.862783,can0 08FF0001 [8] 00 00 00 00 00 00 00 00
1506533519.863408,can0 0CF00203 [8] 00 00 00 00 00 00 00 00
1506533519.864056,can0 08FF0303 [8] 00 00 00 00 00 00 00 00
1506533519.872777,can0 08FF0001 [8] 00 00 00 00 00 00 00 00
1506533519.873417,can0 0CF00203 [8] 00 00 00 00 00 00 00 00
1506533519.874062,can0 08FF0303 [8] 00 00 00 00 00 00 00 00
1506533519.882787,can0 08FF0001 [8] 00 00 00 00 00 00 00 00
1506533519.883425,can0 0CF00203 [8] 00 00 00 00 00 00 00 00
1506533519.884085,can0 08FF0303 [8] 00 00 00 00 00 00 00 00
1506533519.892808,can0 08FF0001 [8] 00 00 00 00 00 00 00 00
1506533519.893573,can0 0CF00203 [8] 00 00 00 00 00 00 00 00
1506533519.894216,can0 08FF0303 [8] 00 00 00 00 00 00 00 00
1506533519.902746,can0 08FF0001 [8] 00 00 00 00 00 00 00 00
1506533519.903533,can0 0CF00203 [8] 00 00 00 00 00 00 00 00
1506533519.904124,can0 08FF0303 [8] 00 00 00 00 00 00 00 00
1506533519.912842,can0 08FF0001 [8] 00 00 00 00 00 00 00 00
1506533519.913505,can0 0CF00203 [8] 00 00 00 00 00 00 00 00
1506533519.895309,can1 18FEBF0B [8] EC A4 56 1E A5 9E F1 08
1506533519.895988,can1 18E00017 [8] 00 00 00 00 00 00 00 00
1506533519.896523,can1 18FEBF0B [8] 0E E4 12 1C 13 61 76 6F
1506533519.897012,can1 18E00019 [8] 00 00 00 00 00 00 00 00
1506533519.897577,can1 18FEBF0B [8] B1 20 25 7D DD B7 AA 08
1506533519.898063,can1 18E00021 [8] 00 00 00 00 00 00 00 00
1506533519.898478,can1 18FEBF0B [8] 87 5C F4 60 B9 2E B6 5C
1506533519.898935,can1 18E00028 [8] 00 00 00 00 00 00 00 00
1506533519.899453,can1 18FEBF0B [8] D2 03 13 0A 6C A8 A4 32
1506533519.899936,can1 18E00031 [8] 00 00 00 00 00 00 00 00
1506533519.900391,can1 18FEBF0B [8] 1C C5 A9 50 69 A8 97 7E
1506533519.900847,can1 18FEBF0B [8] 87 AB B2 1B E3 47 37 5B
1506533519.90136,can1 18FEBF0B [8] 46 71 FD 5C 31 00 D0 67
1506533519.90178,can1 18FEBF0B [8] 63 45 8A 00 34 FD E2 3A
1506533519.902244,can1 18FEBF0B [8] EF EF 0B 0C 17 DF 7D 31
1506533519.904881,can1 18FEBF0B [8] 01 09 89 52 FD 75 AC 66
1506533519.905518,can1 18FEBF0B [8] 45 20 B9 59 8D D5 78 00
1506533519.906045,can1 18FEBF0B [8] 5B AB DD 13 66 AF 3C 19
1506533519.906533,can1 18FEBF0B [8] 87 0B CC 7E 4A 9A F3 7B
1506533519.90705,can1 18FEF017 [8] 00 00 00 00 00 00 00 00
1506533519.90754,can1 18FEBF0B [8] 58 AE 8B 21 24 78 F8 70
1506533519.908005,can1 18FEBF0B [8] 07 D0 52 6D AA 5F E9 3C
1506533519.908456,can1 18FEBF0B [8] 43 A3 49 64 91 E4 B9 09
1506533519.908945,can1 18FEBF0B [8] C3 D5 D1 73 16 7C 48 18
1506533519.909372,can1 18FEBF0B [8] 84 A2 A9 36 41 11 2D 0F
1506533519.909839,can1 18FEBF0B [8] 9B 42 B2 4F C3 62 FC 65
1506533519.910291,can1 18FEBF0B [8] 03 16 07 56 D6 59 D1 56
1506533519.910741,can1 18FEBF0B [8] BD EC 28 31 16 90 E6 2B
1506533519.911266,can1 18FEBF0B [8] 72 E6 6E 0C 79 5A 55 75
1506533519.911728,can1 18FEBF0B [8] C6 34 43 00 73 EF F7 5E
1506533519.912136,can1 18FEBF0B [8] 2C 89 98 40 B2 BB F0 7A
1506533519.91546,can1 18FEBF0B [8] 70 53 6F 60 5C 3B D4 6B
1506533519.916095,can1 18FEBF0B [8] 92 15 BE 7C 50 68 B5 6A
1506533519.916959,can1 18FEBF0B [8] C7 9C A0 45 60 78 E0 0C
1506533519.917507,can1 18FEF021 [8] 00 00 00 00 00 00 00 00
1506533519.918006,can1 18FEBF0B [8] 80 5D 78 30 87 3D 4D 65
1506533519.918481,can1 18FEBF0B [8] 87 8A 74 33 5C A3 4B 04
1506533519.919016,can1 18FEBF0B [8] EB 62 1E 47 43 76 3A 45
1506533519.919498,can1 18FEBF0B [8] D3 8E 9E 4A FE ED 68 31
1506533519.919961,can1 18FEBF0B [8] 0F AA 37 5D A6 90 27 4E
1506533519.920418,can1 18FEBF0B [8] A3 4E 8B 5E 94 71 D8 20
1506533519.920883,can1 18FEBF0B [8] F7 27 2E 53 82 72 DF 71
1506533519.921356,can1 18FEBF0B [8] AD 4E 29 2B 9D DE D9 21
1506533519.921817,can1 18FEBF0B [8] C6 1E 52 60 2F B7 EE 0F
1506533519.922274,can1 18FEBF0B [8] 28 1B 9F 0D F2 A7 EA 20
1506533519.924951,can1 18FEBF0B [8] 2A 10 7F 38 B8 F2 80 44
1506533519.925526,can1 18FEBF0B [8] 79 FA A8 7D AC 90 49 78
1506533519.926035,can1 18FEBF0B [8] 8D 34 39 00 75 D6 70 47
1506533519.926576,can1 18FEBF0B [8] 45 6F 67 1B D2 90 34 5A
1506533519.927067,can1 18FEF028 [8] 00 00 00 00 00 00 00 00
1506533519.927492,can1 18FEBF0B [8] AB 96 4D 30 3A 85 38 1A
1506533519.927955,can1 18FEBF0B [8] A8 E6 4E 4A CD F9 1C 08
1506533519.928467,can1 0CFE6E0B [8] 00 00 00 00 00 00 00 00
1506533519.928949,can1 18FEBF0B [8] 06 08 4B 40 55 29 44 77
1506533519.929422,can1 0CFE6E0B [8] 00 00 00 00 00 00 00 00
1506533519.929881,can1 18FEBF0B [8] 59 CD DE 57 64 6C E8 47
1506533519.930393,can1 0CFE6E0B [8] 00 00 00 00 00 00 00 00
1506533519.930892,can1 18FEBF0B [8] A6 F8 A8 6C 7D CC D0 7E
1506533519.931317,can1 18FEBF0B [8] 72 6E CB 41 B5 99 C9 4C
1506533519.931789,can1 18FEBF0B [8] 54 33 89 56 14 9A BB 63
1506533519.932247,can1 18FEBF0B [8] D4 2F 0B 58 71 6C 94 01
1506533519.9349,can1 18FEBF0B [8] E4 90 62 3C 50 07 B4 1A
1506533519.935454,can1 18FEBF0B [8] AB 8E 26 6B 88 DB 08 68
1506533519.935942,can1 18FEBF0B [8] 20 EF 22 2B 56 25 74 1B
1506533519.936483,can1 18FEBF0B [8] 3F 88 13 72 7F D2 D0 71
1506533519.936977,can1 0CFE6E0B [8] 00 00 00 00 00 00 00 00
1506533519.937456,can1 18FEBF0B [8] 70 56 8B 58 0A 5C A9 76
1506533519.937864,can1 18FEBF0B [8] 1E A6 D4 53 C7 7C 36 23
1506533519.938374,can1 18FEF131 [8] 00 00 00 00 00 00 00 00
1506533519.938855,can1 18FEBF0B [8] 5C 11 AB 46 05 7D 8D 35
1506533519.939323,can1 18FEBF0B [8] CD A8 C8 37 CD 14 CE 2E
1506533519.93978,can1 18FEBF0B [8] C4 7C E6 79 16 F9 AC 48
1506533519.940274,can1 18FEBF0B [8] 75 CF CF 00 FE 27 EE 5E
1506533519.940752,can1 18FEBF0B [8] F6 D0 A0 27 0F 73 D3 61
1506533519.94116,can1 18FEBF0B [8] E2 AC CA 42 56 5D D9 6C
1506533519.941624,can1 18FEBF0B [8] 4B 77 66 0D 9E 55 1B 5A
1506533519.942131,can1 18FEBF0B [8] 62 AC AA 49 2B D0 82 47
1506533519.944732,can1 18FEBF0B [8] 6A 58 5A 27 EC CC DA 56
1506533519.945314,can1 18FEBF0B [8] 33 F3 D4 74 AA E0 6D 19
1506533519.94582,can1 18FEBF0B [8] D5 98 63 2C 6E CE 03 63
1506533519.946373,can1 18FEBF0B [8] B3 0D 5D 55 0A BD 43 54
1506533519.946871,can1 18FEBF0B [8] 25 6D 23 45 8E 5D DC 74
1506533519.947305,can1 18FEBF0B [8] 9C CC 9C 10 B9 6A 49 67
1506533519.94773,can1 18FEBF0B [8] 25 4D 0E 01 B3 51 F7 36
1506533519.948209,can1 18FEBF0B [8] AB 04 31 02 39 B4 E6 23
1506533519.94865,can1 18FEBF0B [8] 79 89 F8 30 E8 6B 28 57
1506533519.949073,can1 18FEBF0B [8] A2 E1 1F 28 9B 81 DD 05
1506533519.94948,can1 18FEBF0B [8] 0F 31 07 00 76 58 75 03
1506533519.949932,can1 18FEBF0B [8] 26 CC 9A 73 D7 B4 62 5E
1506533519.95038,can1 18FEBF0B [8] 55 E7 E9 74 3E 2A 3D 36
1506533519.950787,can1 18FEBF0B [8] EC 46 CE 4B 7D CD 89 59
1506533519.951232,can1 18FEBF0B [8] C8 48 7F 3D D1 CB 50 14
1506533519.951645,can1 18FEBF0B [8] 9C 4D 43 19 9D E1 E2 69
1506533519.952142,can1 18FEBF0B [8] 47 C0 DE 4C C6 CF 7E 23
1506533519.955148,can1 18FEBF0B [8] 96 66 C9 63 9D B2 F8 65
1506533519.955725,can1 0CFE6E0B [8] 00 00 00 00 00 00 00 00
1506533519.956328,can1 18F0010B [8] CF FF F0 FF FF DC FF FF
1506533519.956778,can1 18F0010B [8] 00 00 00 00 00 00 00 00
1506533519.957256,can1 18F00131 [8] 00 00 00 00 00 00 00 00
1506533519.957774,can1 18FEBF0B [8] FF 88 5D 2D 58 C8 9E 73
1506533519.958269,can1 18FEBF0B [8] AD 6F A8 3E 9A D9 B0 1A
1506533519.958736,can1 18FEBF0B [8] 5C AC A4 4E E2 FA 9B 7B
1506533519.959144,can1 18FEF117 [8] 00 00 00 00 00 00 00 00
1506533519.959596,can1 18FEBF0B [8] 95 D9 42 19 E8 04 3E 39
1506533519.960261,can1 18FEBF0B [8] 60 95 74 53 DF F5 1E 1A
1506533519.960758,can1 18FEBF0B [8] 44 25 6E 6E F1 38 3D 08
1506533519.961229,can1 18FEBF0B [8] 10 55 27 3D 38 3F 05 0E
1506533519.961778,can1 18FEBF0B [8] A1 9C DC 22 AB AF 2C 64
1506533519.962272,can1 18FEBF0B [8] AA 4A 66 1F 2E 96 24 23
1506533519.964885,can1 18FEBF0B [8] 2E F1 0B 1F DA CA 23 4C
1506533519.965459,can1 18FEBF0B [8] 0D EC 87 1C 6C 01 6C 3C
1506533519.966038,can1 18FEBF0B [8] 07 E3 1E 33 4D D2 9C 1B
1506533519.966529,can1 18FEBF0B [8] C8 27 D1 4C 4E A3 FD 7F
1506533519.967011,can1 18FEBF0B [8] C2 AB 54 7C 3C E9 C5 1B
1506533519.967522,can1 18FEBF0B [8] 4E B6 F9 2D 80 93 5A 26
1506533519.968005,can1 18FEBF0B [8] 46 FC D7 5A 12 18 C5 44
1506533519.968467,can1 18FEBF0B [8] E0 67 41 49 B0 28 F4 33
1506533519.968877,can1 18FEBF0B [8] 4D AE 15 7B 98 71 BA 3D
1506533519.969323,can1 18FEBF0B [8] 00 00 7D 7D FE FE FF FF
1506533519.969835,can1 18FEBF0B [8] EA E8 7B 2B 25 D2 36 25
1506533519.9703,can1 18FEBF0B [8] 50 30 3B 0A 43 1B 35 23
1506533519.970703,can1 18FEBF0B [8] C6 33 B1 6B CB 4B 06 5A
1506533519.971179,can1 18FEBF0B [8] C5 6A FA 3C A2 0D 29 2E
1506533519.971698,can1 18FEBF0B [8] 50 AA F7 28 C3 B3 B2 33
1506533519.972168,can1 18FEBF0B [8] 48 6B 01 50 C1 C0 B6 20
1506533519.974659,can1 18FEBF0B [8] 2B 96 C2 32 11 03 F7 4C
1506533519.975245,can1 18FEBF0B [8] A3 9D 0A 7E 1E 29 33 0F
1506533519.975839,can1 18FEBF0B [8] BC 49 B6 40 71 D3 08 55
1506533519.976343,can1 18FEBF0B [8] 80 65 E4 04 7E F5 0A 3D
1506533519.976822,can1 18FEBF0B [8] 20 19 8E 3D 05 35 95 5E
1506533519.977342,can1 18FEBF0B [8] BB E4 59 09 5B A1 02 31
1506533519.977828,can1 18FEBF0B [8] A6 AD C8 16 63 D2 2C 17
1506533519.9783,can1 18FEBF0B [8] 75 81 38 43 0F 85 02 0B
1506533519.978723,can1 18FEBF0B [8] 05 34 49 14 26 06 96 7B
1506533519.979234,can1 18FEF121 [8] 00 00 00 00 00 00 00 00
1506533519.980253,can1 18FEBF0B [8] 63 B8 6F 0D 12 56 19 5D
1506533519.98084,can1 18FEBF0B [8] 76 01 1D 0A 2A 29 4D 75
1506533519.981419,can1 18FEBF0B [8] 9C C9 08 4A 4F D2 EC 27
1506533519.981931,can1 18FEBF0B [8] DF B0 5C 20 9B 14 A2 02
1506533519.982405,can1 18FEBF0B [8] D1 56 AA 05 74 AE FC 48
1506533519.985245,can1 18FEBF0B [8] CC 20 CA 6B 5F 2F 9D 45
1506533519.985814,can1 18FEBF0B [8] 82 B8 C3 4F 73 A9 B1 2F
1506533519.98626,can1 18FEBF0B [8] BB 53 BE 45 8A FC 94 49
1506533519.98674,can1 18FEBF0B [8] BD D8 12 53 C5 A2 20 78
1506533519.987276,can1 18FEBF0B [8] EB 98 6A 11 DD F1 A0 10
1506533519.987765,can1 18FEBF0B [8] 49 3A 2F 59 BD BD 5D 63
1506533519.988226,can1 18FEBF0B [8] F9 21 ED 55 4A BE A1 30
1506533519.988682,can1 18FEBF0B [8] C5 BF 03 17 DD E9 AF 16
1506533519.989137,can1 18FEF128 [8] 00 00 00 00 00 00 00 00
1506533519.989608,can1 18FEBF0B [8] 58 F0 EF 28 DD AE BB 62
1506533519.990077,can1 18E00017 [8] 00 00 00 00 00 00 00 00
1506533519.990528,can1 18FEBF0B [8] E0 F5 F1 74 FB 33 6B 70
1506533519.991033,can1 18E00019 [8] 00 00 00 00 00 00 00 00
1506533519.991456,can1 18FEBF0B [8] 32 3D 42 60 BC 59 6B 73
1506533519.991922,can1 18E00021 [8] 00 00 00 00 00 00 00 00
1506533519.992376,can1 18FEBF0B [8] 1D AF A1 0C D4 12 A9 2C
1506533519.995086,can1 18E00028 [8] 00 00 00 00 00 00 00 00
1506533519.995638,can1 18FEBF0B [8] 36 6A AD 34 9B AE F7 59
1506533519.99613,can1 18E00031 [8] 00 00 00 00 00 00 00 00
1506533519.996563,can1 18FEBF0B [8] 30 C6 D1 31 6B 40 75 3A
1506533519.997099,can1 18FEBF0B [8] FE E8 00 65 78 11 BE 01
1506533519.997586,can1 18FEBF0B [8] DE 44 CC 18 30 A2 4C 3E
1506533519.998048,can1 18FEBF0B [8] C7 82 19 60 F7 6F 60 3E
1506533519.998518,can1 18FEBF0B [8] 73 DC 83 1B 89 32 EA 40
1506533519.999048,can1 18FEBF0B [8] D2 5D 76 18 CC 36 46 43
1506533519.999472,can1 18FEBF0B [8] 3F E4 23 29 A5 DD 3D 1A
1506533519.999933,can1 18FEBF0B [8] 3B C5 FC 7D D8 B9 B3 50
1506533520.000387,can1 18FEBF0B [8] 05 21 4A 68 CF EE A7 20
1506533520.000882,can1 18FEBF0B [8] 9D CC 07 74 D2 D9 AB 23
1506533520.001351,can1 18FEF017 [8] 00 00 00 00 00 00 00 00
1506533520.001761,can1 18FEBF0B [8] FD 7C 4F 20 07 CE C6 58
1506533520.002223,can1 18FEBF0B [8] 37 09 49 28 D2 DE 3A 00
1506533520.004785,can1 18FEBF0B [8] 5C 8E 6D 7E 04 07 47 75
1506533520.005368,can1 18FEBF0B [8] 9C 5D 34 1A C3 44 4B 49
1506533520.005816,can1 18FEBF0B [8] 4A 00 68 56 D7 E4 F5 0B
1506533520.006298,can1 18FEBF0B [8] 47 6D E7 0F 2E 03 AE 10
1506533520.006828,can1 18FEBF0B [8] BF 82 BA 02 0D 48 11 56
1506533520.007307,can1 18FEBF0B [8] 30 B7 04 2E 79 C9 45 37
1506533520.007776,can1 18FEBF0B [8] FC 84 F1 74 DF 44 E6 17
1506533520.008239,can1 18FEBF0B [8] 5A 73 98 39 A7 34 E1 5C
1506533520.008705,can1 18FEBF0B [8] FE 5D 66 70 16 91 C2 76
1506533520.009182,can1 18FEBF0B [8] 49 21 08 0D 25 73 68 68
1506533520.009638,can1 18FEBF0B [8] 5D 99 B4 01 1D 3A E4 46
1506533520.01009,can1 18FEF021 [8] 00 00 00 00 00 00 00 00
1506533520.010586,can1 18FEBF0B [8] 42 07 58 72 99 C4 BF 49
1506533520.011009,can1 18FEBF0B [8] C1 A9 28 57 F1 E0 8D 4E
1506533520.01148,can1 18FEBF0B [8] 3D 9F 5A 1A D1 C6 19 71
1506533520.011931,can1 18FEBF0B [8] 0C 1E AA 07 0D 85 01 30
1506533520.012369,can1 18FEBF0B [8] 24 91 A3 61 41 E3 83 08
1506533520.01499,can1 18FEBF0B [8] 41 C4 B0 1C 17 D4 2D 33
1506533520.01553,can1 18FEBF0B [8] E6 D8 34 74 4A 46 93 2B
1506533520.016029,can1 18FEBF0B [8] 3F 26 D1 03 59 6D 04 01
1506533520.016769,can1 18FEBF0B [8] 40 DF 88 22 0A 61 07 2C
1506533520.017316,can1 18FEBF0B [8] DE B5 20 34 3A F5 5D 02
1506533520.017831,can1 18FEBF0B [8] 51 AA 50 40 F2 B9 67 4C
1506533520.018365,can1 18FEBF0B [8] 5C 01 D9 2A 22 E6 54 38
1506533520.018856,can1 18FEF028 [8] 00 00 00 00 00 00 00 00
1506533520.019334,can1 18FEBF0B [8] F9 C5 00 35 41 E7 57 3F
1506533520.019788,can1 18FEBF0B [8] A3 05 BE 71 3C F6 79 05
1506533520.020236,can1 18FEBF0B [8] 63 29 7D 4A 0F 30 2D 0A
1506533520.02071,can1 18FEBF0B [8] 3E ED 48 62 3F 29 7C 70
1506533520.021173,can1 18FEBF0B [8] 2E FF A3 46 E4 FB B5 50
1506533520.021625,can1 18FEBF0B [8] 5E 44 8B 20 4E C8 91 02
1506533520.022081,can1 18FEBF0B [8] C2 15 71 36 45 1A 68 02
1506533520.024619,can1 18FEBF0B [8] F7 FC 80 51 44 DF C5 5D
1506533520.025209,can1 18FEBF0B [8] 91 1A 51 1F 07 D1 AE 1D
1506533520.025721,can1 18FEBF0B [8] 4F C1 E2 75 AE C4 D7 65
1506533520.026283,can1 18FEBF0B [8] A7 8F 54 54 8C 69 66 57
1506533520.026798,can1 18FEBF0B [8] 05 6E 51 7B A5 71 D2 42
1506533520.027268,can1 18FEBF0B [8] 28 4A 15 65 DA 24 6E 58
1506533520.027675,can1 18FEF031 [8] 00 00 00 00 00 00 00 00
1506533520.028198,can1 18FEBF0B [8] F4 4B 02 6D 58 81 4C 49
1506533520.028681,can1 0CFE6E0B [8] 00 00 00 00 00 00 00 00
1506533520.029142,can1 18FEBF0B [8] 31 9D 98 5D F0 00 6C 54
1506533520.029597,can1 0CFE6E0B [8] 00 00 00 00 00 00 00 00
1506533520.030052,can1 18FEBF0B [8] 5E E6 B4 60 79 F2 25 60
1506533520.030531,can1 0CFE6E0B [8] 00 00 00 00 00 00 00 00
1506533520.03099,can1 18FEBF0B [8] ED A4 AA 7B B4 E1 7D 19
1506533520.031452,can1 18FEBF0B [8] 25 44 14 31 8A 8E 42 26
1506533520.0319,can1 18FEBF0B [8] 47 9C C5 74 1B 7F 8E 02
1506533520.032362,can1 18FEBF0B [8] A4 F1 95 02 3D 8A 6D 0B
1506533520.034976,can1 0CFE6E0B [8] 00 00 00 00 00 00 00 00
1506533520.035527,can1 18FEBF0B [8] 2F E0 89 7A 32 BA D8 7B
1506533520.036094,can1 18FEBF0B [8] 45 C9 74 5B 72 70 D8 63
1506533520.036591,can1 18FEBF0B [8] 45 25 33 0F 47 0A DA 5D
1506533520.037061,can1 18FEBF0B [8] 3E 04 BB 13 93 2A B2 4A
1506533520.037517,can1 18FEBF0B [8] D7 AE B3 12 A5 BD 23 7F
1506533520.038028,can1 18FEBF0B [8] 20 A0 CF 7C 35 9A 7B 38
1506533520.038454,can1 18FEBF0B [8] B4 48 83 10 DE C7 70 74
1506533520.038927,can1 18FEF131 [8] 00 00 00 00 00 00 00 00
1506533520.039383,can1 18FEBF0B [8] 77 BB 62 53 D1 AA 99 54
1506533520.039885,can1 18FEBF0B [8] DD 6B 7C 71 57 C6 C2 05
1506533520.040367,can1 18FEBF0B [8] 07 40 2E 68 F8 E5 FE 41
1506533520.040831,can1 18FEBF0B [8] 75 33 ED 14 27 C6 F9 2D
1506533520.041245,can1 18FEBF0B [8] 75 7E 98 0C E2 4A BB 40
1506533520.041742,can1 18FEBF0B [8] 4B 89 69 38 B3 66 BF 4C
1506533520.04222,can1 18FEBF0B [8] 2B 3F C9 10 20 0B 4B 6E
1506533520.044822,can1 18FEBF0B [8] 7A F0 E6 43 EC D5 03 48
1506533520.045392,can1 18FEBF0B [8] D2 F2 E8 4F 43 A3 03 3C
1506533520.045965,can1 18FEBF0B [8] C2 B4 4D 55 82 91 AA 75
1506533520.046456,can1 18FEBF0B [8] E1 ED 1D 43 F7 0C B7 6A
1506533520.046931,can1 18FEBF0B [8] 26 D6 7D 3C 80 78 5F 52
1506533520.047417,can1 18FEBF0B [8] CB 49 D7 57 08 C6 77 5A
1506533520.047957,can1 18FEBF0B [8] 71 09 50 5A 1A CC 3F 1E
1506533520.052121,can1 18FEBF0B [8] 78 08 EB 2B 8A 0F 49 10
1506533520.059806,can1 18FEBF0B [8] BC BD A6 4C 95 06 59 6A
1506533520.060487,can1 18FEBF0B [8] BB 9F 2A 70 E0 A1 FE 64
1506533520.061022,can1 18FEBF0B [8] 15 10 68 22 01 C6 6F 6E
1506533520.061606,can1 18FEBF0B [8] A1 C5 39 49 82 91 58 66
1506533520.062099,can1 18FEBF0B [8] D6 0B 81 5D 79 D3 7D 5B
1506533520.0647,can1 18FEBF0B [8] 83 31 BD 02 C6 D0 86 76
1506533520.065376,can1 18FEBF0B [8] 35 F3 B7 3B AA FC 0D 3E
1506533520.065919,can1 18FEBF0B [8] D0 F5 83 15 68 C3 71 53
1506533520.066423,can1 18FEBF0B [8] 65 76 83 4A 56 16 E9 11
1506533520.066893,can1 0CFE6E0B [8] 00 00 00 00 00 00 00 00
1506533520.06743,can1 18F0010B [8] CF FF F0 FF FF DC FF FF
1506533520.067916,can1 18FEBF0B [8] 76 AE C6 42 3F 94 86 06
1506533520.068324,can1 18FEBF0B [8] CC 73 02 54 15 63 50 62
1506533520.068781,can1 18FEBF0B [8] 4D A2 00 69 BE 0A 39 76
1506533520.079246,can1 18FEBF0B [8] 88 46 88 01 27 AF 0D 69
1506533520.080007,can1 18FEBF0B [8] 3B AF F8 60 0A 4F 8D 51
1506533520.08054,can1 18FEF117 [8] 00 00 00 00 00 00 00 00
1506533520.081153,can1 18FEBF0B [8] 5B F0 84 04 BB 72 10 68
1506533520.081612,can1 18FEBF0B [8] 8C 3E 67 3E 06 27 20 1B
1506533520.082092,can1 18FEBF0B [8] DF 14 90 01 52 3E A7 4A
1506533520.08886,can1 18FEBF0B [8] 1E D2 F9 6F 00 9F 01 37
1506533520.089594,can1 18FEBF0B [8] 4B 63 6F 65 20 88 5E 22
1506533520.090161,can1 18FEBF0B [8] CC 15 B3 02 A8 87 80 4E
1506533520.09074,can1 18FEBF0B [8] 0B DF 98 32 39 46 7F 23
1506533520.091253,can1 18FEBF0B [8] 7E D6 26 6D FA B1 27 6A
1506533520.092281,can1 18FEBF0B [8] E3 AD 73 67 9E 29 07 5E
1506533520.099035,can1 18FEBF0B [8] BB F3 F2 2D 6D BA ED 1D
1506533520.099674,can1 18FEBF0B [8] 75 DC 1F 14 02 57 74 3C
1506533520.100196,can1 18FEBF0B [8] 09 75 E1 59 BF 32 36 30
1506533520.100791,can1 18FEBF0B [8] 7A 28 97 74 6C FF 70 12
1506533520.101236,can1 18FEBF0B [8] E9 43 BD 50 7E 80 6E 02
1506533520.101711,can1 18FEBF0B [8] 29 E6 7B 1D A5 D3 11 42
1506533520.102172,can1 18FEBF0B [8] AD 19 C2 7E 5C 06 92 78
1506533520.108948,can1 18FEF121 [8] 00 00 00 00 00 00 00 00
1506533520.109551,can1 18FEBF0B [8] 8D A4 64 21 9A 64 00 08
1506533520.110125,can1 18FEBF0B [8] 9D 12 A3 11 21 DE 35 3C
1506533520.110646,can1 18FEBF0B [8] 88 BD 15 20 2D 52 2D 73
1506533520.111079,can1 18FEBF0B [8] F8 21 74 25 01 09 01 13
1506533520.111553,can1 18FEBF0B [8] E8 37 B6 60 CF AB 4C 64
1506533520.116785,can1 18FEBF0B [8] A4 08 6A 1F 1A C6 98 20
1506533520.117608,can1 18FEBF0B [8] 2E 10 6A 3D AE AA 1A 13
1506533520.118256,can1 18FEBF0B [8] 51 2A 0A 4D D2 E7 F0 6D
1506533520.118798,can1 18FEBF0B [8] 13 7B 3B 55 04 63 4D 69
1506533520.119277,can1 18FEBF0B [8] C8 48 85 32 89 57 5B 69
1506533520.119692,can1 18FEBF0B [8] 8F 0C FC 56 87 48 EF 65
1506533520.122223,can1 18FEBF0B [8] 4C 16 8F 12 97 27 18 6D
1506533520.125138,can1 18FEBF0B [8] C7 3C 7D 75 76 22 56 13
1506533520.125792,can1 18FEBF0B [8] 29 27 F5 0B F5 90 0C 2D
1506533520.126318,can1 18FEBF0B [8] 21 38 4F 7D 59 2F 09 40
1506533520.127495,can1 18FEBF0B [8] A8 D2 68 59 B2 C8 E8 25
1506533520.128131,can1 18FEF128 [8] 00 00 00 00 00 00 00 00
1506533520.12866,can1 18FEBF0B [8] B5 BC 80 04 57 CB 78 64
1506533520.129134,can1 18E00017 [8] 00 00 00 00 00 00 00 00
1506533520.129651,can1 18FEBF0B [8] 1A 68 2F 12 EF 7B 8B 37
1506533520.130145,can1 18E00019 [8] 00 00 00 00 00 00 00 00
1506533520.130563,can1 18FEBF0B [8] 5B 39 68 3B FC 15 DF 17
1506533520.131021,can1 18E00021 [8] 00 00 00 00 00 00 00 00
1506533520.131478,can1 18FEBF0B [8] D7 DC 0C 7B 4A C4 42 65
1506533520.131999,can1 18E00028 [8] 00 00 00 00 00 00 00 00
1506533520.132453,can1 18FEBF0B [8] 04 F4 96 6B 0F CC CD 46
1506533520.13521,can1 18FEBF0B [8] CB 14 76 77 BE 00 58 28
1506533520.135823,can1 18FEBF0B [8] 9C 06 06 73 1C 13 25 6A
1506533520.13633,can1 18FEBF0B [8] 1D C0 44 04 22 28 22 2F
1506533520.136807,can1 18FEBF0B [8] 3D 8B 1E 68 AC CC 40 5B
1506533520.137266,can1 18FEBF0B [8] D4 10 0C 0E 1B 01 9C 2D
1506533520.137802,can1 18FEBF0B [8] E0 D9 4C 1E 71 B5 5D 71
1506533520.138234,can1 18FEBF0B [8] C3 F3 93 69 74 1E 88 34
1506533520.138697,can1 18FEBF0B [8] BF FE 36 5C FB 4E 3C 73
1506533520.139151,can1 18FEBF0B [8] 54 EC 4C 3A DF D7 8A 40
1506533520.139655,can1 18FEBF0B [8] D2 4E 1F 28 CC B6 1D 33
1506533520.140121,can1 18FEF017 [8] 00 00 00 00 00 00 00 00
1506533520.140581,can1 18FEBF0B [8] 66 DF 7E 4F 3E 6E 9B 78
1506533520.140986,can1 18FEBF0B [8] 3D 4E 2F 55 7B 5B 24 64
1506533520.141494,can1 18FEBF0B [8] 09 49 39 07 A9 C6 9D 2D
1506533520.141967,can1 18FEBF0B [8] 9F 8D 06 25 FB 7D 92 44
1506533520.142429,can1 18FEBF0B [8] 54 9A 1E 74 20 16 DE 10
1506533520.145045,can1 18FEBF0B [8] 35 77 85 74 8A 5A B4 16
1506533520.145647,can1 18FEBF0B [8] 0D 6A 55 6D 30 20 96 5B
1506533520.146151,can1 18FEBF0B [8] 07 F7 C9 3F 3B EE 15 6A
1506533520.146614,can1 18FEBF0B [8] 42 59 1B 61 5D E9 01 46
1506533520.147071,can1 18FEBF0B [8] 19 B6 E6 4C 62 77 4E 08
1506533520.147605,can1 18FEBF0B [8] 12 BC 3E 61 AF C2 6B 13
1506533520.148039,can1 18FEBF0B [8] 65 9A 4F 7E 6A 98 F8 62
1506533520.148504,can1 18FEF021 [8] 00 00 00 00 00 00 00 00
1506533520.148971,can1 18FEBF0B [8] AA DD 4C 3F F4 67 FC 43
1506533520.149507,can1 18FEBF0B [8] 88 D0 D0 0D 02 35 F6 06
1506533520.149976,can1 18FEBF0B [8] 6E 1D E9 4C F8 84 0E 15
1506533520.150441,can1 18FEBF0B [8] 31 D3 E7 4B 22 D8 79 70
1506533520.150889,can1 18FEBF0B [8] 86 7B AE 72 7A 48 B5 6F
1506533520.15135,can1 18FEBF0B [8] CD 34 71 24 5A C0 B1 26
1506533520.151825,can1 18FEBF0B [8] E4 F1 E9 1F 1D 3C 22 22
1506533520.152283,can1 18FEBF0B [8] 37 67 90 58 F1 5B 3F 0D
1506533520.155372,can1 18FEBF0B [8] 3A 79 C3 57 3C B8 15 22
1506533520.155933,can1 18FEBF0B [8] 56 66 7D 60 E4 51 D0 7F
1506533520.156429,can1 18FEBF0B [8] 8A A5 83 3B 30 94 FC 78
1506533520.156896,can1 18FEBF0B [8] 60 A1 1A 32 F1 18 05 51
1506533520.157435,can1 18FEBF0B [8] B3 59 31 4E 9C 39 E5 20
1506533520.157904,can1 18FEBF0B [8] 51 72 4D 7E F1 12 9A 27
1506533520.158376,can1 18FEF028 [8] 00 00 00 00 00 00 00 00
1506533520.158778,can1 18FEBF0B [8] 10 E5 73 7B C4 15 1F 2C
1506533520.159298,can1 18FEBF0B [8] A5 64 13 0A B2 EA B5 4B
1506533520.159769,can1 18FEBF0B [8] AE 64 51 41 CC A1 5F 14
1506533520.160221,can1 18FEBF0B [8] 50 20 ED 5E C8 86 BD 13
1506533520.160671,can1 18FEBF0B [8] D2 3A D7 54 9E 3E 57 26
1506533520.161181,can1 18FEBF0B [8] 1B 7A AF 11 0D 36 59 46
1506533520.161648,can1 18FEBF0B [8] A6 AA 6F 56 0A F0 50 2B
1506533520.162059,can1 18FEBF0B [8] 76 10 75 2D CE D5 86 0D
1506533520.164551,can1 18FEBF0B [8] 11 B7 63 53 88 F6 45 13
1506533520.165199,can1 18FEBF0B [8] D2 60 91 15 B4 40 BD 6F
1506533520.165736,can1 18FEBF0B [8] F1 16 94 69 4F BB 0C 55
1506533520.166227,can1 18FEBF0B [8] 9E E2 89 32 12 D0 81 55
1506533520.166747,can1 18FEF031 [8] 00 00 00 00 00 00 00 00
1506533520.167239,can1 18FEBF0B [8] B7 9F 79 11 46 45 8B 73
1506533520.167721,can1 0CFE6E0B [8] 00 00 00 00 00 00 00 00
1506533520.16819,can1 18FEBF0B [8] D0 5A E6 54 96 B3 10 4F
1506533520.168595,can1 0CFE6E0B [8] 00 00 00 00 00 00 00 00
1506533520.169113,can1 18FEBF0B [8] 1E 69 0F 41 DF 0F 7A 31
1506533520.169592,can1 0CFE6E0B [8] 00 00 00 00 00 00 00 00
1506533520.170065,can1 18FEBF0B [8] EE A2 D4 42 1C BB 36 0D
1506533520.170518,can1 18FEBF0B [8] 2F F8 86 2C 0E D0 95 72
1506533520.171039,can1 18FEBF0B [8] 80 2B 6B 35 32 2A B0 5F
1506533520.171508,can1 18FEBF0B [8] A5 B5 76 7F 71 28 3C 44
1506533520.171967,can1 18FEBF0B [8] AE 75 D8 05 9C 01 C6 20
1506533520.172366,can1 18FEBF0B [8] E9 77 D0 71 4E 51 82 16
1506533520.174998,can1 18FEBF0B [8] 55 D8 70 27 1D B4 E4 31
1506533520.175556,can1 18FEBF0B [8] B1 5C 97 1F FA 41 6F 29
1506533520.176049,can1 18FEBF0B [8] DC 31 B6 2C 0A 8B D2 2D
1506533520.17658,can1 18FEBF0B [8] B2 7F D8 31 E1 1A 44 4D
1506533520.177065,can1 18FEF131 [8] 00 00 00 00 00 00 00 00
1506533520.177528,can1 18FEBF0B [8] 39 F2 24 68 3D AA FE 6E
1506533520.177991,can1 18FEBF0B [8] 32 35 C3 4F 3C A3 45 05
1506533520.178481,can1 18FEBF0B [8] A3 14 58 27 29 BD 78 38
1506533520.178947,can1 18FEBF0B [8] 42 79 9A 78 6B 62 1B 34
1506533520.179421,can1 18FEBF0B [8] B8 25 E6 0C 61 91 1F 5A
1506533520.179881,can1 0CFE6E0B [8] 00 00 00 00 00 00 00 00
1506533520.180334,can1 18FEBF0B [8] 8F B4 16 28 2D 7E 9D 61
1506533520.180862,can1 18FEBF0B [8] 9E 7F 86 21 AC 77 53 19
1506533520.181326,can1 18FEBF0B [8] D7 F3 13 05 4C F5 5E 27
1506533520.181783,can1 18FEBF0B [8] 91 E9 09 51 53 9E 42 40
1506533520.182185,can1 18FEBF0B [8] 90 C3 75 0D 49 2C 7C 3C
1506533520.184797,can1 18FEBF0B [8] 07 79 D8 2C 39 48 57 0E
1506533520.185358,can1 18FEBF0B [8] 6E E2 64 1C F1 0E 53 4F
1506533520.185859,can1 18FEBF0B [8] 76 59 4D 06 EA 24 10 4D
1506533520.186394,can1 18FEBF0B [8] CB F5 1B 1B 5F 8F 07 3F
1506533520.186881,can1 18FEBF0B [8] 1C A6 6D 57 46 EF BE 7A
1506533520.187303,can1 18FEBF0B [8] C8 06 6E 48 44 89 26 21
1506533520.18777,can1 18FEBF0B [8] FD BD 1C 6F B2 73 BC 75
1506533520.188282,can1 18FEBF0B [8] BD CE A3 71 09 69 E7 28
1506533520.188761,can1 18FEBF0B [8] 39 97 41 77 8A AB AD 4C
1506533520.189229,can1 18FEBF0B [8] 64 B5 13 1C 8F 50 CF 79
1506533520.189684,can1 18FEBF0B [8] E3 F0 CA 4A 63 BA 71 53
1506533520.190172,can1 18FEBF0B [8] 83 FA 9B 0E 71 FE E2 0A
1506533520.190612,can1 18FEBF0B [8] 32 FA A8 4E CD 66 B2 11
1506533520.191076,can1 18FEBF0B [8] 43 AC 52 63 86 9F CB 62
1506533520.191533,can1 18FEBF0B [8] 05 46 B5 12 99 D3 7F 6D
1506533520.191979,can1 18FEBF0B [8] C9 95 92 1E 0D 06 65 4F
1506533520.194521,can1 18FEBF0B [8] C0 41 3F 5D 81 16 99 34
1506533520.195122,can1 18FEBF0B [8] 80 05 7A 5D 75 C1 F0 74
1506533520.195636,can1 0CFE6E0B [8] 00 00 00 00 00 00 00 00
1506533520.196183,can1 18F00131 [8] 00 00 00 00 00 00 00 00
1506533520.197182,can1 18F0010B [8] 00 00 00 00 00 00 00 00
1506533520.197845,can1 18FEF117 [8] 00 00 00 00 00 00 00 00
1506533520.198447,can1 18FEBF0B [8] 00 00 7D 7D FE FE FF FF
1506533520.19895,can1 18FEF121 [8] 00 00 00 00 00 00 00 00
1506533520.199363,can1 18FEBF0B [8] 00 00 7D 7D FE FE FF FF
1506533520.199827,can1 18FEF128 [8] 00 00 00 00 00 00 00 00
1506533520.200364,can1 18FEF131 [8] 00 00 00 00 00 00 00 00
1506533520.200843,can1 18E00017 [8] 00 00 00 00 00 00 00 00
1506533520.201302,can1 18E00019 [8] 00 00 00 00 00 00 00 00
1506533520.201749,can1 18E00021 [8] 00 00 00 00 00 00 00 00
1506533520.202268,can1 18E00028 [8] 00 00 00 00 00 00 00 00
1506533520.204983,can1 18E00031 [8] 00 00 00 00 00 00 00 00
1506533520.205561,can1 18FEF017 [8] 00 00 00 00 00 00 00 00
1506533520.206144,can1 18FEF021 [8] 00 00 00 00 00 00 00 00
1506533520.206636,can1 18FEF028 [8] 00 00 00 00 00 00 00 00
1506533520.207112,can1 18FEF031 [8] 00 00 00 00 00 00 00 00
1506533520.207522,can1 18FEBF0B [8] A7 98 10 07 87 4E 85 0E
1506533520.208066,can1 18FEBF0B [8] 10 FE 90 58 88 57 BA 06
1506533520.208552,can1 18FEBF0B [8] 4B BD B2 5E 06 84 99 79
1506533520.209022,can1 18FEBF0B [8] 9F 6E 27 2F 18 EB 21 2E
1506533520.209481,can1 18FEBF0B [8] B9 5B 22 1B F2 25 63 33
1506533520.209989,can1 18FEBF0B [8] 8B 93 85 43 9D 13 CD 45
1506533520.210446,can1 18FEBF0B [8] 8C D0 5D 64 60 17 4D 0A
1506533520.210897,can1 18FEBF0B [8] D2 2A 3F 05 DE D0 4E 2A
1506533520.211297,can1 18FEBF0B [8] 18 F2 E5 3A 63 93 F6 51
1506533520.2118,can1 18FEBF0B [8] 51 6C 49 44 4A EC 8E 09
1506533520.212277,can1 18FEBF0B [8] A7 4F 18 65 C4 19 FC 5F
1506533520.214828,can1 18FEBF0B [8] 7E C0 75 26 70 50 73 76
1506533520.215388,can1 18FEBF0B [8] 26 CD 69 38 0F 9E 0F 4E
1506533520.215991,can1 18FEBF0B [8] DB 64 4A 41 23 98 80 36
1506533520.216489,can1 18FEBF0B [8] 60 48 D2 2B E5 13 21 40
1506533520.217177,can1 18FEBF0B [8] 94 B9 02 29 EE DD B1 17
1506533520.217778,can1 0CFE6E0B [8] 00 00 00 00 00 00 00 00
1506533520.218291,can1 18FEBF0B [8] 8B 1E 07 60 23 6A 9F 77
1506533520.218776,can1 18FEBF0B [8] 6E 8A 83 19 48 23 61 2F
1506533520.219247,can1 18FEBF0B [8] 18 81 34 7A CD E3 20 13
1506533520.21978,can1 18FEBF0B [8] 7E 5B 0C 36 40 A1 BE 2F
1506533520.220253,can1 18FEBF0B [8] 0F DF F0 63 AB C1 0D 3A
1506533520.220713,can1 18FEBF0B [8] 63 AF F1 22 56 64 64 00
1506533520.22112,can1 18FEBF0B [8] 70 52 3F 67 AC F1 91 59
1506533520.221653,can1 18FEBF0B [8] 51 56 53 78 07 F6 D5 1B
1506533520.222133,can1 18FEBF0B [8] 35 E1 4F 19 C2 06 56 2C
1506533520.224737,can1 18FEBF0B [8] 47 E3 13 59 DC 30 68 7E
1506533520.225382,can1 18FEBF0B [8] A4 E1 AF 5A 6B 37 AE 31
1506533520.225927,can1 18FEBF0B [8] 82 E0 A2 48 D8 46 FE 0D
1506533520.22641,can1 18FEBF0B [8] DE B2 6A 66 E4 F5 F0 69
1506533520.22687,can1 18FEBF0B [8] 7D 7C A4 77 11 74 0E 21
1506533520.227394,can1 18FEBF0B [8] 48 46 07 08 75 55 5A 56
1506533520.227834,can1 18FEBF0B [8] 1D D1 25 62 FB 4D 94 4D
1506533520.228307,can1 18FEBF0B [8] CC 4A FF 49 A5 27 CD 21
1506533520.228759,can1 18FEBF0B [8] 67 4B 45 29 81 33 8E 4B
1506533520.229266,can1 18FEBF0B [8] AA F5 F0 26 4E C8 61 29
1506533520.229756,can1 18FEBF0B [8] C3 02 4E 2C DB 1A 49 7B
1506533520.230222,can1 18FEBF0B [8] 8F 15 94 35 A3 5F 84 72
1506533520.230678,can1 18FEBF0B [8] 34 37 84 45 1C A1 1D 79
1506533520.231081,can1 18FEBF0B [8] 2F 0D FF 3B 71 47 AA 44
1506533520.231598,can1 18FEBF0B [8] 47 A2 7F 21 4C BC E7 10
1506533520.23207,can1 18FEBF0B [8] 87 41 B7 4C DF 32 29 48
1506533520.234604,can1 18FEBF0B [8] 3C 47 82 4D 2B 23 67 27
1506533520.235262,can1 18FEBF0B [8] AE 9C 5E 75 9F 4B 9E 71
1506533520.235794,can1 18FEBF0B [8] 0B E6 A1 59 25 CD C5 7A
1506533520.236278,can1 18FEBF0B [8] E4 B3 07 54 04 70 46 39
1506533520.236746,can1 18FEBF0B [8] 17 30 1F 1B B0 B6 DB 5B
1506533520.237275,can1 18FEBF0B [8] 53 F1 04 54 2D B6 9E 16
1506533520.237707,can1 18FEBF0B [8] C9 9F 6A 15 2E 78 1B 25
1506533520.238176,can1 18FEBF0B [8] 9A 4A A7 5C E2 8F B0 5D
1506533520.238636,can1 18FEBF0B [8] 2A D3 EA 40 2A C6 BE 40
1506533520.239147,can1 0CFE6E0B [8] 00 00 00 00 00 00 00 00
1506533520.239617,can1 18FEBF0B [8] 9D 66 26 2A 09 C1 E1 3C
1506533520.240078,can1 18FEBF0B [8] A5 B2 92 4F 44 77 25 05
1506533520.240529,can1 18FEBF0B [8] 03 AB B1 36 A7 91 FF 0B
1506533520.241015,can1 18FEBF0B [8] 45 BB D6 53 4E 4D E1 31
1506533520.241441,can1 18FEBF0B [8] 61 48 54 1F B0 E5 92 6F
1506533520.241907,can1 18FEBF0B [8] C9 9E 25 18 1C 21 4E 43
1506533520.242355,can1 18FEBF0B [8] 95 E4 78 77 CD 79 B5 17
1506533520.244994,can1 18FEBF0B [8] 22 8D DF 7D 43 81 D7 6C
1506533520.245553,can1 18FEBF0B [8] 9E F2 6B 1E DC C0 40 12
1506533520.246058,can1 18FEBF0B [8] 12 C4 74 71 46 36 04 55
1506533520.246539,can1 18FEBF0B [8] D7 6A A5 2F E8 B5 8B 0F
1506533520.247081,can1 18FEBF0B [8] 5E 2B BA 1C A7 28 60 6B
1506533520.247567,can1 18FEBF0B [8] E4 48 74 59 AD 2C 3C 48
1506533520.247986,can1 18FEBF0B [8] 2A 80 2D 78 1B 55 85 45
1506533520.248448,can1 18FEBF0B [8] 21 CD 21 73 27 DF E1 51
1506533520.248969,can1 18FEBF0B [8] 8D 35 F0 20 01 E9 CC 52
1506533520.249451,can1 18FEBF0B [8] 2E DE B1 5D E8 DE 76 16
1506533520.249915,can1 18FEBF0B [8] D3 8C 7D 2E 54 7C 74 01
1506533520.250362,can1 18FEBF0B [8] 76 AF 01 6C 9B B9 A6 02
1506533520.250859,can1 18FEBF0B [8] F5 78 82 0F A1 C2 5B 7C
1506533520.251336,can1 18FEBF0B [8] 75 BB C6 67 D6 99 F4 4B
1506533520.251756,can1 18FEBF0B [8] A6 DB B1 5D 0D D5 01 1E
1506533520.252213,can1 18FEBF0B [8] D4 B0 17 1C 45 CE 1D 7C
1506533520.255399,can1 18FEBF0B [8] 78 06 31 50 AB F7 8B 24
1506533520.256031,can1 18FEBF0B [8] B4 0D 17 37 D4 AB FD 37
1506533520.256674,can1 18FEBF0B [8] 15 58 87 17 59 F6 CF 26
1506533520.25715,can1 18FEBF0B [8] 91 A6 3C 0F EB B7 DC 4B
1506533520.257653,can1 18FEBF0B [8] DA FA E2 30 71 00 16 27
1506533520.258067,can1 18FEBF0B [8] A8 E5 75 37 0F F2 DE 65
1506533520.258599,can1 18FEBF0B [8] B1 00 86 57 41 80 B4 03
1506533520.259089,can1 18FEBF0B [8] 98 36 23 09 9A 4C A6 05
1506533520.259505,can1 18FEBF0B [8] F5 E9 67 71 D5 A9 A9 7B
1506533520.259977,can1 18FEBF0B [8] BC 88 83 4A E8 B3 B2 38
1506533520.260373,can1 0CFE6E0B [8] 00 00 00 00 00 00 00 00
1506533520.261045,can1 18FEBF0B [8] 47 73 BF 08 5F 73 4A 28
1506533520.261547,can1 18FEBF0B [8] 2C D9 F0 45 04 EE 4F 4C
1506533520.262022,can1 18FEBF0B [8] CD 56 16 36 EC 5C FD 1A
1506533520.264621,can1 18FEBF0B [8] 76 0B 5D 27 00 56 9E 1C
1506533520.265225,can1 18FEBF0B [8] F6 58 00 1C EE 11 8E 77
1506533520.265775,can1 18FEBF0B [8] 88 D5 BB 69 D1 34 CB 05
1506533520.266272,can1 18FEBF0B [8] 42 A6 0E 2E F4 29 3F 64
1506533520.266852,can1 18FEBF0B [8] 48 AF 7E 5C 9F 17 26 06
1506533520.267284,can1 18FEBF0B [8] 8F 94 E7 65 C2 96 3C 56
1506533520.26775,can1 18FEBF0B [8] A0 1C 37 49 CD 7E DB 1B
1506533520.268207,can1 18FEBF0B [8] D6 33 4E 3D DF 11 1D 56
1506533520.268753,can1 18FEBF0B [8] E7 68 E9 0C C2 7B E3 05
1506533520.269224,can1 18FEBF0B [8] 74 45 8B 31 75 22 FD 30
1506533520.269683,can1 18FEBF0B [8] A3 F7 47 13 71 85 E7 14
1506533520.27014,can1 18FEBF0B [8] 2B 06 D0 25 FE 97 D3 70
1506533520.270661,can1 18FEBF0B [8] 88 BD 53 50 26 CA 94 15
1506533520.271071,can1 18FEBF0B [8] E9 ED 14 12 F4 8A 2E 58
1506533520.271547,can1 18FEBF0B [8] 1D 69 A8 58 E2 C1 27 65
1506533520.272009,can1 18FEBF0B [8] 6C 35 09 39 A3 9E F6 49
1506533520.274579,can1 18FEBF0B [8] 63 2E A9 31 BB 6B 3E 6A
1506533520.27517,can1 18FEBF0B [8] 16 4C 89 0E D6 82 0A 78
1506533520.275686,can1 18FEBF0B [8] 5D 63 D5 3B D8 9A 9F 40
1506533520.276232,can1 18FEBF0B [8] 75 DD 5F 6E 4B C0 BB 4E
1506533520.276733,can1 18FEBF0B [8] 95 D6 9B 04 18 3F A5 54
1506533520.277206,can1 18FEBF0B [8] B7 3A AE 05 6A 15 A7 14
1506533520.277624,can1 18FEBF0B [8] 83 59 E7 78 49 1B B5 3E
1506533520.278143,can1 18FEBF0B [8] 64 FE 00 76 5B EF D6 76
1506533520.278628,can1 18FEBF0B [8] 86 B2 0B 53 E0 FD A6 0F
1506533520.279089,can1 18FEBF0B [8] C8 08 0D 17 FC 9B 5F 1F
1506533520.279543,can1 18FEBF0B [8] 30 4E 00 49 5B 28 70 76
1506533520.280045,can1 0CFE6E0B [8] 00 00 00 00 00 00 00 00
1506533520.280514,can1 18FEBF0B [8] 3D 95 B1 72 B4 74 1F 02
1506533520.280975,can1 18FEBF0B [8] FC 34 05 64 7A 94 7A 53
1506533519.914581,can0 08FF0303 [8] 00 00 00 00 00 00 00 00
1506533519.92286,can0 08FF0001 [8] 00 00 00 00 00 00 00 00
1506533519.923535,can0 0CF00203 [8] 00 00 00 00 00 00 00 00
1506533519.924104,can0 08FF0303 [8] 00 00 00 00 00 00 00 00
1506533519.932738,can0 08FF0001 [8] 00 00 00 00 00 00 00 00
1506533519.933397,can0 0CF00203 [8] 00 00 00 00 00 00 00 00
1506533519.933964,can0 08FF0303 [8] 00 00 00 00 00 00 00 00
1506533519.942742,can0 08FF0001 [8] 00 00 00 00 00 00 00 00
1506533519.943464,can0 0CF00203 [8] 00 00 00 00 00 00 00 00
1506533519.944097,can0 08FF0303 [8] 00 00 00 00 00 00 00 00
1506533519.952778,can0 08FF0001 [8] 00 00 00 00 00 00 00 00
1506533519.953406,can0 0CF00203 [8] 00 00 00 00 00 00 00 00
1506533519.954031,can0 08FF0303 [8] 00 00 00 00 00 00 00 00
1506533519.954595,can0 18F00503 [8] 00 00 00 00 00 00 00 00
1506533519.962797,can0 08FF0001 [8] 00 00 00 00 00 00 00 00
1506533519.963454,can0 0CF00203 [8] 00 00 00 00 00 00 00 00
1506533519.964147,can0 08FF0303 [8] 00 00 00 00 00 00 00 00
1506533519.972784,can0 08FF0001 [8] 00 00 00 00 00 00 00 00
1506533519.973487,can0 0CF00203 [8] 00 00 00 00 00 00 00 00
1506533519.974066,can0 08FF0303 [8] 00 00 00 00 00 00 00 00
1506533519.982763,can0 08FF0001 [8] 00 00 00 00 00 00 00 00
1506533519.98358,can0 0CF00203 [8] 00 00 00 00 00 00 00 00
