1506533699.610525,can0 08FF0001 [8] 00 00 00 00 00 00 00 00
1506533699.622191,can0 0CF00203 [8] 00 00 00 00 00 00 00 00
1506533699.638066,can0 08FF0303 [8] 00 00 00 00 00 00 00 00
1506533699.640137,can0 08FF0001 [8] 00 00 00 00 00 00 00 00
1506533699.649797,can0 0CF00203 [8] 00 00 00 00 00 00 00 00
1506533699.651541,can0 08FF0303 [8] 00 00 00 00 00 00 00 00
1506533699.661468,can0 08FF0001 [8] 00 00 00 00 00 00 00 00
1506533699.663895,can0 0CF00203 [8] 00 00 00 00 00 00 00 00
1506533699.673642,can0 08FF0303 [8] 00 00 00 00 00 00 00 00
1506533699.675226,can0 08FF0001 [8] 00 00 00 00 00 00 00 00
1506533699.684557,can0 0CF00203 [8] 00 00 00 00 00 00 00 00
1506533699.686042,can0 08FF0303 [8] 00 00 00 00 00 00 00 00
1506533699.700732,can0 08FF0001 [8] 00 00 00 00 00 00 00 00
1506533699.714253,can0 0CF00203 [8] 00 00 00 00 00 00 00 00
1506533699.723784,can0 08FF0303 [8] 00 00 00 00 00 00 00 00
1506533699.739117,can0 08FF0001 [8] 00 00 00 00 00 00 00 00
1506533699.740801,can0 0CF00203 [8] 00 00 00 00 00 00 00 00
1506533699.759308,can0 08FF0303 [8] 00 00 00 00 00 00 00 00
1506533699.759864,can0 08FF0001 [8] 00 00 00 00 00 00 00 00
1506533699.760314,can0 0CF00203 [8] 00 00 00 00 00 00 00 00
1506533699.766887,can0 08FF0303 [8] 00 00 00 00 00 00 00 00
1506533699.7675,can0 08FF0001 [8] 00 00 00 00 00 00 00 00
1506533699.76802,can0 0CF00203 [8] 00 00 00 00 00 00 00 00
1506533699.776573,can0 08FF0303 [8] 00 00 00 00 00 00 00 00
1506533699.777105,can0 08FF0001 [8] 00 00 00 00 00 00 00 00
1506533699.777545,can0 0CF00203 [8] 00 00 00 00 00 00 00 00
1506533699.777964,can0 08FF0303 [8] 00 00 00 00 00 00 00 00
1506533699.792249,can0 18F00503 [8] 00 00 00 00 00 00 00 00
1506533699.792888,can0 08FF0001 [8] 00 00 00 00 00 00 00 00
1506533699.793428,can0 0CF00203 [8] 00 00 00 00 00 00 00 00
1506533699.802015,can0 08FF0303 [8] 00 00 00 00 00 00 00 00
1506533699.802656,can0 08FF0001 [8] 00 00 00 00 00 00 00 00
1506533699.80318,can0 0CF00203 [8] 00 00 00 00 00 00 00 00
1506533699.803717,can0 08FF0303 [8] 00 00 00 00 00 00 00 00
1506533699.804151,can0 08FF0001 [8] 00 00 00 00 00 00 00 00
1506533699.804563,can0 0CF00203 [8] 00 00 00 00 00 00 00 00
1506533699.804978,can0 08FF0303 [8] 00 00 00 00 00 00 00 00
1506533699.813328,can0 08FF0001 [8] 00 00 00 00 00 00 00 00
1506533699.813948,can0 0CF00203 [8] 00 00 00 00 00 00 00 00
1506533699.814416,can0 08FF0303 [8] 00 00 00 00 00 00 00 00
1506533699.814849,can0 08FF0001 [8] 00 00 00 00 00 00 00 00
1506533699.81535,can0 0CF00203 [8] 00 00 00 00 00 00 00 00
1506533699.815779,can0 08FF0303 [8] 00 00 00 00 00 00 00 00
1506533699.81619,can0 08FF0001 [8] 00 00 00 00 00 00 00 00
1506533699.816584,can0 0CF00203 [8] 00 00 00 00 00 00 00 00
1506533699.816975,can0 08FF0303 [8] 00 00 00 00 00 00 00 00
1506533699.825486,can0 08FF0001 [8] 00 00 00 00 00 00 00 00
1506533699.82601,can0 0CF00203 [8] 00 00 00 00 00 00 00 00
1506533699.82645,can0 08FF0303 [8] 00 00 00 00 00 00 00 00
1506533699.826935,can0 08FF0001 [8] 00 00 00 00 00 00 00 00
1506533699.827386,can0 0CF00203 [8] 00 00 00 00 00 00 00 00
1506533699.827803,can0 08FF0303 [8] 00 00 00 00 00 00 00 00
1506533699.8282,can0 08FF0001 [8] 00 00 00 00 00 00 00 00
1506533699.828592,can0 0CF00203 [8] 00 00 00 00 00 00 00 00
1506533699.833763,can0 08FF0303 [8] 00 00 00 00 00 00 00 00
1506533699.834586,can0 08FF0001 [8] 00 00 00 00 00 00 00 00
1506533699.835298,can0 0CF00203 [8] 00 00 00 00 00 00 00 00
1506533699.835771,can0 08FF0303 [8] 00 00 00 00 00 00 00 00
1506533699.836188,can0 18F00503 [8] 00 00 00 00 00 00 00 00
1506533699.836683,can0 08FF0001 [8] 00 00 00 00 00 00 00 00
1506533699.837129,can0 0CF00203 [8] 00 00 00 00 00 00 00 00
1506533699.837542,can0 08FF0303 [8] 00 00 00 00 00 00 00 00
1506533699.837938,can0 08FF0001 [8] 00 00 00 00 00 00 00 00
1506533699.838332,can0 0CF00203 [8] 00 00 00 00 00 00 00 00
1506533699.846821,can0 08FF0303 [8] 00 00 00 00 00 00 00 00
1506533699.847483,can0 08FF0001 [8] 00 00 00 00 00 00 00 00
1506533699.847954,can0 0CF00203 [8] 00 00 00 00 00 00 00 00
1506533699.848466,can0 08FF0303 [8] 00 00 00 00 00 00 00 00
1506533699.848916,can0 08FF0001 [8] 00 00 00 00 00 00 00 00
1506533699.849329,can0 0CF00203 [8] 00 00 00 00 00 00 00 00
1506533699.849731,can0 08FF0303 [8] 00 00 00 00 00 00 00 00
1506533699.850126,can0 08FF0001 [8] 00 00 00 00 00 00 00 00
1506533699.854914,can0 0CF00203 [8] 00 00 00 00 00 00 00 00
1506533699.855567,can0 08FF0303 [8] 00 00 00 00 00 00 00 00
1506533699.856039,can0 08FF0001 [8] 00 00 00 00 00 00 00 00
1506533699.856591,can0 0CF00203 [8] 00 00 00 00 00 00 00 00
1506533699.857025,can0 08FF0303 [8] 00 00 00 00 00 00 00 00
1506533699.858474,can0 08FF0001 [8] 00 00 00 00 00 00 00 00
1506533699.85903,can0 0CF00203 [8] 00 00 00 00 00 00 00 00
1506533699.859486,can0 08FF0303 [8] 00 00 00 00 00 00 00 00
1506533699.859901,can0 08FF0001 [8] 00 00 00 00 00 00 00 00
1506533699.860407,can0 0CF00203 [8] 00 00 00 00 00 00 00 00
1506533699.860836,can0 08FF0303 [8] 00 00 00 00 00 00 00 00
1506533699.861245,can0 08FF0001 [8] 00 00 00 00 00 00 00 00
1506533699.861643,can0 0CF00203 [8] 00 00 00 00 00 00 00 00
1506533699.872437,can0 08FF0303 [8] 00 00 00 00 00 00 00 00
1506533699.87305,can0 08FF0001 [8] 00 00 00 00 00 00 00 00
1506533699.873519,can0 0CF00203 [8] 00 00 00 00 00 00 00 00
1506533699.874046,can0 08FF0303 [8] 00 00 00 00 00 00 00 00
1506533699.87449,can0 18F00503 [8] 00 00 00 00 00 00 00 00
1506533699.874899,can0 08FF0001 [8] 00 00 00 00 00 00 00 00
1506533699.875302,can0 0CF00203 [8] 00 00 00 00 00 00 00 00
1506533699.876848,can0 08FF0303 [8] 00 00 00 00 00 00 00 00
1506533699.882836,can0 08FF0001 [8] 00 00 00 00 00 00 00 00
1506533699.883439,can0 0CF00203 [8] 00 00 00 00 00 00 00 00
1506533699.884,can0 08FF0303 [8] 00 00 00 00 00 00 00 00
1506533699.892032,can0 08FF0001 [8] 00 00 00 00 00 00 00 00
1506533699.892579,can0 0CF00203 [8] 00 00 00 00 00 00 00 00
1506533699.893174,can0 08FF0303 [8] 00 00 00 00 00 00 00 00
1506533699.902789,can0 08FF0001 [8] 00 00 00 00 00 00 00 00
1506533699.903465,can0 0CF00203 [8] 00 00 00 00 00 00 00 00
1506533699.903919,can0 08FF0303 [8] 00 00 00 00 00 00 00 00
1506533699.912031,can0 08FF0001 [8] 00 00 00 00 00 00 00 00
1506533699.912569,can0 0CF00203 [8] 00 00 00 00 00 00 00 00
1506533699.913137,can0 08FF0303 [8] 00 00 00 00 00 00 00 00
1506533699.922838,can0 08FF0001 [8] 00 00 00 00 00 00 00 00
1506533699.923514,can0 0CF00203 [8] 00 00 00 00 00 00 00 00
1506533699.923988,can0 08FF0303 [8] 00 00 00 00 00 00 00 00
1506533699.932034,can0 08FF0001 [8] 00 00 00 00 00 00 00 00
1506533699.93272,can0 0CF00203 [8] 00 00 00 00 00 00 00 00
1506533699.933259,can0 08FF0303 [8] 00 00 00 00 00 00 00 00
1506533699.942918,can0 08FF0001 [8] 00 00 00 00 00 00 00 00
1506533699.943541,can0 0CF00203 [8] 00 00 00 00 00 00 00 00
1506533699.94399,can0 08FF0303 [8] 00 00 00 00 00 00 00 00
1506533699.952042,can0 08FF0001 [8] 00 00 00 00 00 00 00 00
1506533699.952597,can0 0CF00203 [8] 00 00 00 00 00 00 00 00
1506533699.953173,can0 08FF0303 [8] 00 00 00 00 00 00 00 00
1506533699.964933,can0 08FF0001 [8] 00 00 00 00 00 00 00 00
1506533699.965614,can0 0CF00203 [8] 00 00 00 00 00 00 00 00
1506533699.966171,can0 08FF0303 [8] 00 00 00 00 00 00 00 00
1506533699.966667,can0 18F00503 [8] 00 00 00 00 00 00 00 00
1506533699.972073,can0 08FF0001 [8] 00 00 00 00 00 00 00 00
1506533699.972717,can0 0CF00203 [8] 00 00 00 00 00 00 00 00
1506533699.97325,can0 08FF0303 [8] 00 00 00 00 00 00 00 00
1506533699.982134,can0 08FF0001 [8] 00 00 00 00 00 00 00 00
1506533699.982757,can0 0CF00203 [8] 00 00 00 00 00 00 00 00
1506533699.98336,can0 08FF0303 [8] 00 00 00 00 00 00 00 00
1506533699.9951,can0 08FF0001 [8] 00 00 00 00 00 00 00 00
1506533699.995762,can0 0CF00203 [8] 00 00 00 00 00 00 00 00
1506533699.996239,can0 08FF0303 [8] 00 00 00 00 00 00 00 00
1506533700.002938,can0 08FF0001 [8] 00 00 00 00 00 00 00 00
1506533700.00355,can0 0CF00203 [8] 00 00 00 00 00 00 00 00
1506533700.004002,can0 08FF0303 [8] 00 00 00 00 00 00 00 00
1506533700.020488,can0 08FF0001 [8] 00 00 00 00 00 00 00 00
1506533700.021142,can0 0CF00203 [8] 00 00 00 00 00 00 00 00
1506533699.645543,can1 0CFE6E0B [8] 00 00 00 00 00 00 00 00
1506533699.658092,can1 0CFE6E0B [8] 00 00 00 00 00 00 00 00
1506533699.65997,can1 18F0010B [8] CF FF F0 FF FF DC FF FF
1506533699.669764,can1 0CFE6E0B [8] 00 00 00 00 00 00 00 00
1506533699.672054,can1 18F00131 [8] 00 00 00 00 00 00 00 00
1506533699.682128,can1 18F0010B [8] 00 00 00 00 00 00 00 00
1506533699.68405,can1 18FEF117 [8] 00 00 00 00 00 00 00 00
1506533699.699563,can1 18FEF128 [8] 00 00 00 00 00 00 00 00
1506533699.70917,can1 18FEF121 [8] 00 00 00 00 00 00 00 00
1506533699.723073,can1 18FEF131 [8] 00 00 00 00 00 00 00 00
1506533699.743091,can1 18E00017 [8] 00 00 00 00 00 00 00 00
1506533699.744741,can1 18E00019 [8] 00 00 00 00 00 00 00 00
1506533699.761165,can1 18E00021 [8] 00 00 00 00 00 00 00 00
1506533699.761735,can1 18E00028 [8] 00 00 00 00 00 00 00 00
1506533699.774149,can1 18E00031 [8] 00 00 00 00 00 00 00 00
1506533699.77494,can1 18FEBF0B [8] 00 00 7D 7D FE FE FF FF
1506533699.775444,can1 18FEF017 [8] 00 00 00 00 00 00 00 00
1506533699.775885,can1 18FEF021 [8] 00 00 00 00 00 00 00 00
1506533699.782565,can1 18FEF028 [8] 00 00 00 00 00 00 00 00
1506533699.783239,can1 18FEF031 [8] 00 00 00 00 00 00 00 00
1506533699.783716,can1 0CFE6E0B [8] 00 00 00 00 00 00 00 00
1506533699.794173,can1 0CFE6E0B [8] 00 00 00 00 00 00 00 00
1506533699.79471,can1 0CFE6E0B [8] 00 00 00 00 00 00 00 00
1506533699.798036,can1 0CFE6E0B [8] 00 00 00 00 00 00 00 00
1506533699.798666,can1 18F0010B [8] CF FF F0 FF FF DC FF FF
1506533699.799129,can1 0CFE6E0B [8] 00 00 00 00 00 00 00 00
1506533699.799647,can1 18F00131 [8] 00 00 00 00 00 00 00 00
1506533699.800098,can1 18F0010B [8] 00 00 00 00 00 00 00 00
1506533699.800509,can1 18FEF117 [8] 00 00 00 00 00 00 00 00
1506533699.800901,can1 18FEF128 [8] 00 00 00 00 00 00 00 00
1506533699.801291,can1 18FEF121 [8] 00 00 00 00 00 00 00 00
1506533699.809869,can1 18FEF131 [8] 00 00 00 00 00 00 00 00
1506533699.810493,can1 18E00017 [8] 00 00 00 00 00 00 00 00
1506533699.810959,can1 18E00019 [8] 00 00 00 00 00 00 00 00
1506533699.811478,can1 18E00021 [8] 00 00 00 00 00 00 00 00
1506533699.812021,can1 18E00028 [8] 00 00 00 00 00 00 00 00
1506533699.812527,can1 18E00031 [8] 00 00 00 00 00 00 00 00
1506533699.81301,can1 18FEBF0B [8] 00 00 7D 7D FE FE FF FF
1506533699.821639,can1 18FEF017 [8] 00 00 00 00 00 00 00 00
1506533699.822461,can1 18FEF021 [8] 00 00 00 00 00 00 00 00
1506533699.823078,can1 18FEF028 [8] 00 00 00 00 00 00 00 00
1506533699.823566,can1 18FEF031 [8] 00 00 00 00 00 00 00 00
1506533699.823998,can1 0CFE6E0B [8] 00 00 00 00 00 00 00 00
1506533699.824405,can1 0CFE6E0B [8] 00 00 00 00 00 00 00 00
1506533699.824802,can1 0CFE6E0B [8] 00 00 00 00 00 00 00 00
1506533699.842212,can1 0CFE6E0B [8] 00 00 00 00 00 00 00 00
1506533699.857665,can1 18F0010B [8] CF FF F0 FF FF DC FF FF
1506533699.862149,can1 0CFE6E0B [8] 00 00 00 00 00 00 00 00
1506533699.862805,can1 18F00131 [8] 00 00 00 00 00 00 00 00
1506533699.863367,can1 18F0010B [8] 00 00 00 00 00 00 00 00
1506533699.863903,can1 18FEF117 [8] 00 00 00 00 00 00 00 00
1506533699.864486,can1 18FEF128 [8] 00 00 00 00 00 00 00 00
1506533699.864966,can1 18FEF121 [8] 00 00 00 00 00 00 00 00
1506533699.865431,can1 18FEF131 [8] 00 00 00 00 00 00 00 00
1506533699.867359,can1 18E00017 [8] 00 00 00 00 00 00 00 00
1506533699.868173,can1 18E00019 [8] 00 00 00 00 00 00 00 00
1506533699.868883,can1 18E00021 [8] 00 00 00 00 00 00 00 00
1506533699.869406,can1 18E00028 [8] 00 00 00 00 00 00 00 00
1506533699.869968,can1 18E00031 [8] 00 00 00 00 00 00 00 00
1506533699.870443,can1 18FEBF0B [8] 00 00 7D 7D FE FE FF FF
1506533699.870941,can1 18FEF017 [8] 00 00 00 00 00 00 00 00
1506533699.871418,can1 18FEF021 [8] 00 00 00 00 00 00 00 00
1506533699.875861,can1 18FEF028 [8] 00 00 00 00 00 00 00 00
1506533699.876405,can1 18FEF031 [8] 00 00 00 00 00 00 00 00
1506533699.882126,can1 0CFE6E0B [8] 00 00 00 00 00 00 00 00
1506533699.902084,can1 0CFE6E0B [8] 00 00 00 00 00 00 00 00
1506533699.922088,can1 0CFE6E0B [8] 00 00 00 00 00 00 00 00
1506533699.942149,can1 0CFE6E0B [8] 00 00 00 00 00 00 00 00
1506533699.957753,can1 18F0010B [8] CF FF F0 FF FF DC FF FF
1506533699.962065,can1 0CFE6E0B [8] 00 00 00 00 00 00 00 00
1506533699.962673,can1 18F00131 [8] 00 00 00 00 00 00 00 00
1506533699.963215,can1 18F0010B [8] 00 00 00 00 00 00 00 00
1506533699.963807,can1 18FEF117 [8] 00 00 00 00 00 00 00 00
1506533699.964318,can1 18FEF128 [8] 00 00 00 00 00 00 00 00
1506533699.967249,can1 18FEF121 [8] 00 00 00 00 00 00 00 00
1506533699.96847,can1 18FEF131 [8] 00 00 00 00 00 00 00 00
1506533699.969088,can1 18E00017 [8] 00 00 00 00 00 00 00 00
1506533699.969677,can1 18E00019 [8] 00 00 00 00 00 00 00 00
1506533699.970206,can1 18E00021 [8] 00 00 00 00 00 00 00 00
1506533699.970688,can1 18E00028 [8] 00 00 00 00 00 00 00 00
1506533699.971153,can1 18E00031 [8] 00 00 00 00 00 00 00 00
1506533699.971637,can1 18FEBF0B [8] 00 00 7D 7D FE FE FF FF
1506533699.974091,can1 18FEF017 [8] 00 00 00 00 00 00 00 00
1506533699.974573,can1 18FEF021 [8] 00 00 00 00 00 00 00 00
1506533699.974992,can1 18FEF028 [8] 00 00 00 00 00 00 00 00
1506533699.975473,can1 18FEF031 [8] 00 00 00 00 00 00 00 00
1506533699.983919,can1 0CFE6E0B [8] 00 00 00 00 00 00 00 00
1506533700.002121,can1 0CFE6E0B [8] 00 00 00 00 00 00 00 00
1506533700.028483,can1 18ECFFFA [8] 20 1C 00 04 FF EB FE 00
1506533700.029087,can1 18EBFFFA [8] 01 53 59 4E 45 52 2A 53
1506533700.029553,can1 18EBFFFA [8] 02 53 53 32 2D 30 32 2A
1506533700.030039,can1 18EBFFFA [8] 03 58 58 58 58 2A 55 4E
1506533700.030491,can1 18EBFFFA [8] 04 49 56 45 52 53 41 4C
1506533700.0309,can1 0CFE6E0B [8] 00 00 00 00 00 00 00 00
1506533700.04007,can1 18FEBF0B [8] BE 70 AF 19 93 C3 D1 35
1506533700.04078,can1 18FEBF0B [8] 42 C4 D7 6C 58 03 E6 1C
1506533700.041327,can1 18FEBF0B [8] ED D8 73 30 09 38 1F 49
1506533700.047767,can1 18FEBF0B [8] BE 52 9B 77 C7 78 C1 53
1506533700.061471,can1 18FEBF0B [8] E6 ED 7A 7C 67 83 D8 3B
1506533700.062268,can1 18FEBF0B [8] 95 F3 BD 06 47 DF 97 57
1506533700.062852,can1 18FEBF0B [8] DB 4E 99 23 54 32 E0 32
1506533700.071387,can1 18FEBF0B [8] 3A C6 BD 34 F8 E8 E8 04
1506533700.072068,can1 18FEBF0B [8] 67 AC AC 42 3C A6 DC 51
1506533700.072649,can1 18FEBF0B [8] 33 1D 76 24 4E 24 74 12
1506533700.085125,can1 18FEBF0B [8] 2A 2C 58 19 E9 E9 16 00
1506533700.085765,can1 18FEBF0B [8] 1B A1 04 54 4D 14 6A 35
1506533700.08637,can1 18FEBF0B [8] 04 B1 C0 5B 21 1D AE 26
1506533700.094928,can1 18FEBF0B [8] ED EF 10 58 C1 D4 0A 43
1506533700.095549,can1 18FEBF0B [8] DE 97 69 4D 0F FB 4D 54
1506533700.096072,can1 18FEBF0B [8] DA 1E 62 5D 9D 08 19 67
1506533700.108355,can1 0CFE6E0B [8] 00 00 00 00 00 00 00 00
1506533700.109066,can1 18FEBF0B [8] FE 75 DD 51 C7 78 19 2F
1506533700.109543,can1 18FEBF0B [8] E5 F8 D8 76 8C DD 61 3D
1506533700.121882,can1 18FEBF0B [8] 6C 85 C6 0F FC 10 02 79
1506533700.122731,can1 18FEBF0B [8] 5A F5 56 5B 86 29 B1 1C
1506533700.123417,can1 18FEBF0B [8] 7B 0C 31 33 46 13 13 52
1506533700.131907,can1 18FEBF0B [8] 73 2C 74 21 63 81 97 78
1506533700.132667,can1 18FEBF0B [8] 85 0B ED 5F 0D 3A 5D 61
1506533700.133246,can1 18FEBF0B [8] 7C AF EC 5C C3 6B 8B 51
1506533700.133825,can1 18FEBF0B [8] F6 4E B7 34 93 F2 5C 0C
1506533700.134342,can1 18FEBF0B [8] 7E 6E 95 12 3F EB 1E 2C
1506533700.134827,can1 18FEBF0B [8] 31 36 E0 5F F3 38 DE 06
1506533700.145761,can1 18FEBF0B [8] B9 ED 60 43 2E C9 3F 72
1506533700.14645,can1 18FEBF0B [8] B4 8E AF 29 CC 97 35 50
1506533700.146961,can1 18FEBF0B [8] D6 02 14 08 4B 5E 0F 4A
1506533700.147549,can1 18FEBF0B [8] 9F 1B 39 76 27 29 68 79
1506533700.148006,can1 18FEBF0B [8] 65 9B CC 04 9D 91 16 48
1506533700.148492,can1 18F0010B [8] CF FF F0 FF FF DC FF FF
1506533700.148959,can1 18FEBF0B [8] D9 BD D6 64 C2 D1 E9 58
1506533700.156056,can1 18FEBF0B [8] 0E 4D B4 51 09 3B 60 7A
1506533700.156661,can1 18FEBF0B [8] 11 0A 19 7F 78 E8 5F 5C
1506533700.157271,can1 18FEBF0B [8] CD 5B 15 5B 24 68 B7 41
1506533700.157788,can1 18FEBF0B [8] 01 0C EF 4A AD BB 16 6F
1506533700.158268,can1 18FEBF0B [8] EF 7C 59 2B 78 6E 4F 19
1506533700.15874,can1 18FEBF0B [8] 45 C0 22 3C 86 4A 7E 29
1506533700.165784,can1 0CFE6E0B [8] 00 00 00 00 00 00 00 00
1506533700.166459,can1 18F00131 [8] 00 00 00 00 00 00 00 00
1506533700.167089,can1 18F0010B [8] 00 00 00 00 00 00 00 00
1506533700.167615,can1 18FEBF0B [8] 88 5B 89 62 3C 65 37 30
1506533700.168098,can1 18FEBF0B [8] 0B 41 EF 16 CD 26 4A 7D
1506533700.168567,can1 18FEBF0B [8] 51 6E D4 2A 32 E8 F4 56
1506533700.174205,can1 18FEBF0B [8] 7F 62 D3 3D 3D A3 5E 63
1506533700.174975,can1 18FEBF0B [8] B6 E5 30 66 B2 F8 3B 54
1506533700.175523,can1 18FEBF0B [8] AA A2 5D 43 76 34 5A 65
1506533700.175974,can1 18FEBF0B [8] A2 7B C2 3E 10 A1 28 47
1506533700.176519,can1 18FEBF0B [8] 00 00 7D 7D FE FE FF FF
1506533700.177033,can1 18FEBF0B [8] A4 28 7F 05 E9 46 40 00
1506533700.177533,can1 18FEF117 [8] 00 00 00 00 00 00 00 00
1506533700.178017,can1 18FEBF0B [8] CF 85 97 4D 7D E6 55 6A
1506533700.178546,can1 18FEF121 [8] 00 00 00 00 00 00 00 00
1506533700.179043,can1 18FEBF0B [8] 9B 6F DA 78 0F B2 DC 18
1506533700.179519,can1 18FEF128 [8] 00 00 00 00 00 00 00 00
1506533700.17999,can1 18FEBF0B [8] A7 80 85 32 BA 40 A6 03
1506533700.180512,can1 18E00017 [8] 00 00 00 00 00 00 00 00
1506533700.180992,can1 18FEBF0B [8] AA 1F 4F 42 53 0E 3B 69
1506533700.181416,can1 18E00019 [8] 00 00 00 00 00 00 00 00
1506533700.183974,can1 18FEBF0B [8] 63 11 FD 4A 67 F7 2C 1B
1506533700.18465,can1 18E00021 [8] 00 00 00 00 00 00 00 00
1506533700.185195,can1 18FEBF0B [8] 37 9A D0 16 6F EE BD 69
1506533700.18569,can1 18E00028 [8] 00 00 00 00 00 00 00 00
1506533700.18618,can1 18FEBF0B [8] 62 3D 73 28 B2 C8 A2 2A
1506533700.186748,can1 18E00031 [8] 00 00 00 00 00 00 00 00
1506533700.187243,can1 18FEBF0B [8] 45 E2 E5 6C 8C 85 97 38
1506533700.187715,can1 18FEBF0B [8] 8F A2 99 51 51 16 E1 66
1506533700.18822,can1 18FEBF0B [8] F5 AB 93 4E 1F E2 37 7C
1506533700.188708,can1 18FEBF0B [8] 42 FF D3 53 4A 81 EF 30
1506533700.189183,can1 18FEBF0B [8] 62 31 B8 65 55 FB 97 29
1506533700.189642,can1 18FEBF0B [8] 9D 23 F4 2F 69 49 92 69
1506533700.190059,can1 18FEBF0B [8] 18 62 B9 7F 4A 6C FB 49
1506533700.190583,can1 18FEBF0B [8] 97 08 FD 48 E6 00 E9 78
1506533700.19106,can1 18FEBF0B [8] 01 BD 15 36 67 53 EF 4A
1506533700.191532,can1 18FEBF0B [8] 42 CE 5C 3E 9D 2C F0 2E
1506533700.194129,can1 18FEBF0B [8] 55 EC 71 7E B6 FE EA 51
1506533700.194726,can1 18FEBF0B [8] 77 0E 29 29 76 EE E5 7E
1506533700.195241,can1 18FEBF0B [8] 95 EA E7 24 62 66 CA 4F
1506533700.195732,can1 18FEBF0B [8] AB 98 F9 2A CA 72 E4 26
1506533700.196284,can1 18FEBF0B [8] A2 6F 03 0A 97 B3 C8 2F
1506533700.196737,can1 18FEBF0B [8] 82 0A 50 05 4B 18 B6 06
1506533700.197225,can1 18FEF017 [8] 00 00 00 00 00 00 00 00
1506533700.1977,can1 18FEBF0B [8] 89 D1 BA 56 D7 96 54 58
1506533700.198233,can1 18FEBF0B [8] AB FC BA 7F EE AC 35 24
1506533700.198723,can1 18FEBF0B [8] 63 F8 76 3F 21 A4 B4 3B
1506533700.199199,can1 18FEBF0B [8] 1B C3 D8 0B 2F AC 46 7F
1506533700.199664,can1 18FEBF0B [8] 71 A8 3E 1F 5C 9A CA 71
1506533700.200139,can1 18FEBF0B [8] 24 74 A7 42 92 3E 1E 65
1506533700.200625,can1 18FEBF0B [8] 16 08 1B 47 68 5F E4 06
1506533700.201106,can1 18FEBF0B [8] 75 49 88 1B E3 FD 75 79
1506533700.201564,can1 18FEBF0B [8] 0D 45 DB 6A 3D E3 92 05
1506533700.204796,can1 18FEBF0B [8] 4C AB 48 59 62 31 4D 69
1506533700.205376,can1 18FEBF0B [8] 43 C2 BE 3A 88 57 38 11
1506533700.205955,can1 18FEBF0B [8] 3A 8D F2 36 FB 80 74 33
1506533700.206464,can1 18FEBF0B [8] C9 B8 7A 02 4A 9B AC 30
1506533700.206954,can1 18FEBF0B [8] 55 F2 FD 6E B0 9C A6 09
1506533700.207425,can1 18FEBF0B [8] E2 84 37 41 29 8F 8D 69
1506533700.207969,can1 18FEBF0B [8] 2B A1 CD 36 E6 7C 5A 52
1506533700.208459,can1 18FEF021 [8] 00 00 00 00 00 00 00 00
1506533700.208879,can1 18FEBF0B [8] D1 0E D1 0E 95 73 16 27
1506533700.209352,can1 18FEBF0B [8] 94 DD D6 5D 90 77 20 6C
1506533700.20987,can1 18FEBF0B [8] 60 95 C0 2C 5F 4D 5B 39
1506533700.210351,can1 18FEBF0B [8] 0D 18 8D 06 C3 27 F7 2E
1506533700.210815,can1 18FEBF0B [8] C4 42 30 1D 34 4F D4 2E
1506533700.211282,can1 18FEBF0B [8] 26 39 5A 35 00 51 E4 4C
1506533700.213843,can1 18FEBF0B [8] 88 89 72 28 68 34 59 03
1506533700.214468,can1 18FEBF0B [8] 01 3B 4B 52 CA AA 65 70
1506533700.215001,can1 18FEBF0B [8] 40 D5 BF 0B B7 B9 0C 08
1506533700.215491,can1 18FEBF0B [8] E0 E3 E3 3C 83 97 7E 46
1506533700.216065,can1 18FEBF0B [8] 4A 95 E2 6A C9 96 A0 6B
1506533700.216501,can1 18FEBF0B [8] 2F A8 F3 47 42 F7 41 5E
1506533700.216976,can1 18FEBF0B [8] 89 1D B0 2F C3 39 1E 42
1506533700.217445,can1 18FEBF0B [8] 25 FD 26 3E D7 AF 34 38
1506533700.217989,can1 18FEBF0B [8] 98 94 26 69 A1 D9 E9 4B
1506533700.21846,can1 18FEBF0B [8] 55 2E CA 06 59 97 35 05
1506533700.218917,can1 18FEF028 [8] 00 00 00 00 00 00 00 00
1506533700.219382,can1 18FEBF0B [8] BE D1 B1 5B F1 BD 26 47
1506533700.219918,can1 18FEBF0B [8] D3 A7 5B 12 3A 30 54 6E
1506533700.220334,can1 18FEBF0B [8] 2C AB AB 1A 0C 8F 88 08
1506533700.220801,can1 18FEBF0B [8] D2 0D 91 0D D9 BE 26 00
1506533700.221265,can1 18FEBF0B [8] 0C 0E DD 6F A9 25 44 06
1506533700.223813,can1 18FEBF0B [8] DE 5D 58 08 79 6A 96 08
1506533700.224436,can1 18FEBF0B [8] E0 C4 CE 42 FE 49 41 3E
1506533700.224983,can1 18FEBF0B [8] 09 45 E1 14 E2 D9 46 65
1506533700.225557,can1 18FEBF0B [8] 7C 6F 17 36 2D 1F 77 17
1506533700.226079,can1 18FEBF0B [8] 46 1C 13 61 C7 04 FA 20
1506533700.226568,can1 18FEBF0B [8] D8 02 29 79 4D D7 51 14
1506533700.227041,can1 18FEBF0B [8] 6A 6E FA 37 17 8B 39 4C
1506533700.227573,can1 18FEBF0B [8] 94 34 A0 6F F5 34 36 27
1506533700.228057,can1 18FEBF0B [8] B0 A4 59 33 D6 FC 1C 12
1506533700.228469,can1 18FEBF0B [8] 6A 7B 61 68 47 1B EA 34
1506533700.228938,can1 18FEBF0B [8] 2A AB BF 2B A1 E0 FE 6D
1506533700.229465,can1 18FEF031 [8] 00 00 00 00 00 00 00 00
1506533700.229951,can1 18FEBF0B [8] 21 C3 68 5B 2E EC B0 13
1506533700.230422,can1 0CFE6E0B [8] 00 00 00 00 00 00 00 00
1506533700.230881,can1 18FEBF0B [8] 6F 23 8A 3E 75 F0 4D 54
1506533700.231397,can1 0CFE6E0B [8] 00 00 00 00 00 00 00 00
1506533700.233991,can1 18FEBF0B [8] AA 63 7A 26 4C D7 0D 10
1506533700.234584,can1 18FEBF0B [8] 63 59 42 44 F2 7F A9 33
1506533700.235152,can1 18FEBF0B [8] E0 96 F2 61 10 04 22 1B
1506533700.235918,can1 18FEBF0B [8] 08 7F B3 0B C0 DD A8 65
1506533700.236443,can1 0CFE6E0B [8] 00 00 00 00 00 00 00 00
1506533700.236924,can1 18FEBF0B [8] 0A D0 72 6D 8C BD 2D 33
1506533700.237485,can1 18FEBF0B [8] ED 58 C1 1B 40 73 40 54
1506533700.237961,can1 18FEBF0B [8] D3 88 E2 33 02 BC 80 78
1506533700.238433,can1 18FEBF0B [8] 96 98 B9 37 AB 8B 0B 2D
1506533700.23885,can1 18FEBF0B [8] E9 83 D9 61 E8 72 4A 1B
1506533700.239377,can1 18FEBF0B [8] 03 27 EB 6D FD F8 17 24
1506533700.239871,can1 18FEBF0B [8] 2C A1 2B 10 FD 53 D1 71
1506533700.240342,can1 18FEBF0B [8] 34 11 26 20 D5 40 3C 70
1506533700.240799,can1 18FEBF0B [8] B3 DB F7 29 B5 9C C6 0C
1506533700.241328,can1 18FEBF0B [8] 27 28 C5 2E 12 18 4B 6D
1506533700.243929,can1 18FEF131 [8] 00 00 00 00 00 00 00 00
1506533700.244533,can1 18FEBF0B [8] 67 41 E1 5E 8B A9 85 68
1506533700.245114,can1 18FEBF0B [8] E2 04 2B 1B 2B 14 B0 58
1506533700.245627,can1 18FEBF0B [8] 38 E9 0F 3B AD 7A 8E 15
1506533700.246115,can1 18FEBF0B [8] DE AE 26 5B A8 CF A6 01
1506533700.246539,can1 18FEBF0B [8] DB 52 5D 75 69 AC 0A 22
1506533700.247098,can1 18FEBF0B [8] 4F F9 99 03 B2 B4 AB 6A
1506533700.247599,can1 18FEBF0B [8] 6F 4E 75 08 51 6B 1A 3F
1506533700.248081,can1 18FEBF0B [8] 3B A9 D4 45 75 3F C6 03
1506533700.248551,can1 18FEBF0B [8] E5 D1 91 5D 90 35 E8 1B
1506533700.249084,can1 18FEBF0B [8] 69 3E 94 44 CE 55 6B 3F
1506533700.249564,can1 18FEBF0B [8] DE E9 F7 33 2C FE 6C 64
1506533700.250024,can1 18FEBF0B [8] 41 D5 CA 5E 3E A6 70 25
1506533700.250436,can1 18FEBF0B [8] C4 80 4E 1C F7 16 A6 14
1506533700.250971,can1 18FEBF0B [8] AD BA 9C 55 E2 17 F1 05
1506533700.251456,can1 18FEBF0B [8] D8 88 7E 33 D1 E7 F2 62
1506533700.254086,can1 18FEBF0B [8] A1 4E 03 7C 9D 64 FF 56
1506533700.254755,can1 18FEBF0B [8] 77 26 D8 4D CD D6 2F 50
1506533700.25529,can1 18FEBF0B [8] 9B BA EA 68 3C 5D 83 62
1506533700.25579,can1 18FEBF0B [8] 4D 82 AF 59 8C DE ED 24
1506533700.256272,can1 18FEBF0B [8] 61 AA 28 56 D5 BA 03 53
1506533700.257348,can1 18FEBF0B [8] 01 E4 5F 64 1F BB 06 03
1506533700.257966,can1 18FEBF0B [8] A9 F2 6B 4E CB FE 25 0D
1506533700.25856,can1 18FEBF0B [8] 57 DB EB 6F D4 A2 14 4D
1506533700.259079,can1 18FEBF0B [8] 04 FE 42 3B C2 06 95 65
1506533700.259572,can1 0CFE6E0B [8] 00 00 00 00 00 00 00 00
1506533700.260051,can1 18FEBF0B [8] 42 C3 C6 0A 62 48 56 4D
1506533700.260569,can1 18FEBF0B [8] 5E 56 32 7D 20 AD BE 3E
1506533700.261057,can1 18FEBF0B [8] 6E 2A B7 0E 67 F7 82 53
1506533700.261531,can1 18FEBF0B [8] CB BA 96 38 9D 7E 94 0B
1506533700.26481,can1 18FEBF0B [8] CD 95 A6 3F 32 85 FA 47
1506533700.265416,can1 18FEBF0B [8] 67 9B DB 1D D4 16 B1 34
1506533700.26594,can1 18FEBF0B [8] 9C C4 7D 76 C0 E1 90 32
1506533700.266503,can1 18FEBF0B [8] 9F 15 7B 1C F4 19 03 15
1506533700.267017,can1 18FEBF0B [8] BB 5D 4B 3E F0 4A 57 74
1506533700.267449,can1 18FEBF0B [8] 4B 50 0B 13 58 41 42 67
1506533700.267955,can1 18FEBF0B [8] B0 09 D6 3B DF 96 BC 3A
1506533700.268431,can1 18FEBF0B [8] 70 87 E0 0A 01 27 A6 15
1506533700.268927,can1 18FEBF0B [8] 58 08 68 49 1E EB 8E 59
1506533700.269359,can1 18FEBF0B [8] 67 33 6D 02 14 F7 7C 5A
1506533700.269835,can1 18FEBF0B [8] 22 52 82 47 E2 D0 2B 2F
1506533700.2703,can1 18FEBF0B [8] A8 AE 5B 0A 40 7C 45 11
1506533700.270799,can1 18FEBF0B [8] DE 72 AE 55 72 85 14 29
1506533700.271261,can1 18FEBF0B [8] 7C 94 9A 0B 4C 9D 65 64
1506533700.271689,can1 18FEBF0B [8] 1C 2D 35 4B 23 43 1F 26
1506533700.274295,can1 18FEBF0B [8] A3 4F A7 65 08 13 24 36
1506533700.274896,can1 18FEBF0B [8] 03 7D 7C 38 5F A3 83 4E
1506533700.275435,can1 18FEBF0B [8] 30 1B 04 29 E2 71 2D 31
1506533700.275871,can1 18FEBF0B [8] 9D FC 2F 27 82 23 DA 13
1506533700.276449,can1 18FEBF0B [8] 3E CD A4 09 18 36 29 7A
1506533700.276954,can1 18FEBF0B [8] E7 F8 B3 5F 3C B9 CE 30
1506533700.277372,can1 18FEBF0B [8] D6 30 DA 66 9A 62 73 17
1506533700.277851,can1 18F0010B [8] CF FF F0 FF FF DC FF FF
1506533700.278377,can1 18FEBF0B [8] CA 5C 11 37 32 A1 0B 53
1506533700.278816,can1 18FEBF0B [8] DF AA 2F 4C E3 C6 A8 2C
1506533700.279304,can1 18FEBF0B [8] 20 34 2B 1D 54 74 18 74
1506533700.279718,can1 18FEBF0B [8] 9C 91 BF 6B 6F 69 61 42
1506533700.280264,can1 18FEBF0B [8] E3 C6 BE 72 33 9A E3 43
1506533700.28069,can1 18FEBF0B [8] 6A 54 99 77 D0 F6 7E 07
1506533700.281168,can1 18FEBF0B [8] D6 54 65 6D 32 0D 47 37
1506533700.281639,can1 0CFE6E0B [8] 00 00 00 00 00 00 00 00
1506533700.284279,can1 18F00131 [8] 00 00 00 00 00 00 00 00
1506533700.284853,can1 18F0010B [8] 00 00 00 00 00 00 00 00
1506533700.285312,can1 18FEBF0B [8] 4F A1 2C 1F F2 81 9A 38
1506533700.285791,can1 18FEBF0B [8] 99 1A C2 05 B8 70 61 02
1506533700.286363,can1 18FEBF0B [8] 42 CD 30 6A 04 63 B4 19
1506533700.28685,can1 18FEBF0B [8] CA 42 DE 6C D5 7B D1 57
1506533700.287318,can1 18FEBF0B [8] 67 85 58 2D 24 F9 06 28
1506533700.287819,can1 18FEBF0B [8] 72 A6 16 20 F6 2B 7F 0D
1506533700.288271,can1 18FEBF0B [8] 2F 5A 73 20 A1 E1 9A 4A
1506533700.288755,can1 18FEBF0B [8] 00 00 7D 7D FE FE FF FF
1506533700.28922,can1 18FEBF0B [8] 17 2C 04 0C 76 C2 A5 60
1506533700.289674,can1 18FEBF0B [8] 48 FC 06 13 47 3C 1B 30
1506533700.290211,can1 18FEBF0B [8] 53 57 AD 65 C7 30 74 2A
1506533700.29063,can1 18FEBF0B [8] 3F E9 AC 2D 86 CA 4F 6E
1506533700.2911,can1 18FEBF0B [8] C7 29 6B 24 8C 97 68 2D
1506533700.291563,can1 18FEBF0B [8] D9 E4 E3 3E A3 D3 33 6F
1506533700.294097,can1 18FEBF0B [8] E4 4A 5A 16 99 08 B7 40
1506533700.294681,can1 18FEBF0B [8] F7 5C E9 6E F1 8F 15 10
1506533700.295191,can1 18FEBF0B [8] 2B 4D 09 50 46 11 82 07
1506533700.295763,can1 18FEBF0B [8] 83 4F 1E 6A C4 67 CB 55
1506533700.296214,can1 18FEBF0B [8] 76 68 80 2A 46 02 BE 7F
1506533700.296625,can1 18FEBF0B [8] 0E 42 4A 00 8B D7 47 5C
1506533700.297018,can1 18FEBF0B [8] 7C 24 A6 7A B7 2B 79 62
1506533700.297408,can1 18FEBF0B [8] CC 46 0C 6D BD 8B 18 48
1506533700.297876,can1 18FEBF0B [8] 26 CF 4E 6A 28 74 96 7B
1506533700.298291,can1 18FEBF0B [8] 14 77 4C 34 81 A8 22 42
1506533700.298686,can1 18FEF117 [8] 00 00 00 00 00 00 00 00
1506533700.29907,can1 18FEBF0B [8] B9 77 22 47 31 07 14 56
1506533700.299453,can1 18FEBF0B [8] 05 60 50 20 13 2C 92 6F
1506533700.29992,can1 18FEBF0B [8] 0B 59 48 57 38 DA 4E 6B
1506533700.300322,can1 18FEBF0B [8] 19 C3 74 7A 5F BA 36 0C
1506533700.300713,can1 18FEBF0B [8] DE E4 41 37 38 39 A9 5B
1506533700.301098,can1 18FEBF0B [8] B3 A2 97 6D 46 E5 B5 45
1506533700.301542,can1 18FEBF0B [8] B4 6F F2 45 30 5D 57 63
1506533700.304017,can1 18FEBF0B [8] A7 8B 91 6E 6B 50 CA 2C
1506533700.304595,can1 18FEBF0B [8] F6 91 4B 44 25 18 D1 19
1506533700.305108,can1 18FEBF0B [8] 67 12 B4 53 6D FA CB 6E
1506533700.305671,can1 18FEBF0B [8] 42 74 44 59 DE 7F BC 70
1506533700.306177,can1 18FEBF0B [8] 5E A8 6F 16 97 AF 2D 70
1506533700.306659,can1 18FEBF0B [8] 27 F4 5D 6D 02 FD 1D 57
1506533700.30713,can1 18FEBF0B [8] EA 2A 9E 57 63 E7 DD 67
1506533700.307661,can1 18FEBF0B [8] 58 EC 5C 0B 41 3A 8E 6A
1506533700.30809,can1 18FEBF0B [8] 27 14 84 79 B6 6F D3 54
1506533700.308553,can1 18FEF121 [8] 00 00 00 00 00 00 00 00
1506533700.309021,can1 18FEBF0B [8] CF B1 6D 3A CB 4D B8 73
1506533700.309528,can1 18FEBF0B [8] 15 4B 76 31 1A B5 72 79
1506533700.310002,can1 18FEBF0B [8] 92 F4 98 5B 2B 84 D4 2F
1506533700.31046,can1 18FEBF0B [8] 7A 5F BC 3C 68 6D 1D 31
1506533700.31087,can1 18FEBF0B [8] 95 69 2B 45 1E 24 A3 1C
1506533700.3114,can1 18FEBF0B [8] F0 4D A8 5E EA EB AE 24
1506533700.314008,can1 18FEBF0B [8] 49 A8 07 20 A0 1F 7C 33
1506533700.314596,can1 18FEBF0B [8] 12 58 C0 4B 2B A8 94 73
1506533700.31517,can1 18FEBF0B [8] F9 98 64 3F 01 FA 85 6F
1506533700.315701,can1 18FEBF0B [8] 2A DC 74 2F 3C 0D A9 18
1506533700.316137,can1 18FEBF0B [8] 9A 5E 10 37 3D 60 F4 30
1506533700.316613,can1 18FEBF0B [8] C6 38 E6 0D F2 77 81 66
1506533700.317147,can1 18FEBF0B [8] AD 76 9D 54 47 45 29 66
1506533700.317652,can1 18FEBF0B [8] 3A DF 9A 74 07 79 F5 1C
1506533700.318126,can1 18FEBF0B [8] 12 FA 73 5E 22 66 30 36
1506533700.318594,can1 18FEBF0B [8] 73 D3 0D 31 08 57 53 4A
1506533700.319005,can1 18FEF128 [8] 00 00 00 00 00 00 00 00
1506533700.319537,can1 18FEBF0B [8] 04 86 2A 37 E1 27 AC 34
1506533700.320013,can1 18E00017 [8] 00 00 00 00 00 00 00 00
1506533700.320478,can1 18FEBF0B [8] 28 90 A7 65 22 B3 CD 50
1506533700.320936,can1 18E00019 [8] 00 00 00 00 00 00 00 00
1506533700.321466,can1 18FEBF0B [8] 2E F6 8C 18 D2 4D E0 46
1506533700.323989,can1 18E00021 [8] 00 00 00 00 00 00 00 00
1506533700.324589,can1 18FEBF0B [8] 14 9D 47 73 81 32 0E 4A
1506533700.325184,can1 18E00028 [8] 00 00 00 00 00 00 00 00
1506533700.325704,can1 18FEBF0B [8] 07 8D 1B 45 C3 6E 36 76
1506533700.326188,can1 18E00031 [8] 00 00 00 00 00 00 00 00
1506533700.326652,can1 18FEBF0B [8] 3F C4 0D 31 20 3A B6 6B
1506533700.327185,can1 18FEBF0B [8] 70 62 28 44 8E BF 0F 47
1506533700.327613,can1 18FEBF0B [8] D3 C4 83 0F EC 29 8B 17
1506533700.328087,can1 18FEBF0B [8] 39 72 CC 7F 35 78 FA 61
1506533700.328557,can1 18FEBF0B [8] 50 7A D1 69 D4 D0 DC 36
1506533700.329073,can1 18FEBF0B [8] A0 53 6B 60 D7 7A C6 07
1506533700.329557,can1 18FEBF0B [8] BE A0 07 0D DC BA D5 53
1506533700.330024,can1 18FEBF0B [8] E4 35 39 20 E3 EC 08 50
1506533700.330439,can1 18FEBF0B [8] D7 27 32 50 D8 61 80 6F
1506533700.331063,can1 18FEBF0B [8] E4 4D 40 3B 47 CE 5E 27
1506533700.331584,can1 18FEBF0B [8] 8B D4 BB 3C 35 0C AB 13
1506533700.334298,can1 18FEF017 [8] 00 00 00 00 00 00 00 00
1506533700.334929,can1 18FEBF0B [8] C7 6E 16 22 A4 5F 07 68
1506533700.335646,can1 18FEBF0B [8] 7C C3 41 6E 33 4F D1 5D
1506533700.336227,can1 18FEBF0B [8] 91 F8 73 7C BA 2A 7A 34
1506533700.336802,can1 18FEBF0B [8] 18 2D 1A 09 B1 46 31 78
1506533700.337317,can1 18FEBF0B [8] E5 AF D6 59 2E 87 36 6A
1506533700.337803,can1 18FEBF0B [8] 76 B7 E1 4B 61 3B 22 46
1506533700.33828,can1 18FEBF0B [8] F6 76 76 4B AF 45 BC 2A
1506533700.338797,can1 18FEBF0B [8] AC E9 38 58 2C D8 64 2E
1506533700.339279,can1 18FEBF0B [8] E8 DD F5 4D 86 F7 DE 32
1506533700.339701,can1 18FEBF0B [8] 45 FD 12 44 88 31 61 2E
1506533700.340185,can1 18FEBF0B [8] 2B EE 10 73 25 0B F8 60
1506533700.340702,can1 18FEBF0B [8] 20 A3 F2 0B 2E 65 B7 42
1506533700.341717,can1 18FEBF0B [8] C1 38 91 68 DE CE 15 08
1506533700.344687,can1 18FEBF0B [8] 47 C1 64 70 DE 47 98 5E
1506533700.345273,can1 18FEBF0B [8] 8D 93 E9 6D DB 98 A8 4C
1506533700.345798,can1 18FEBF0B [8] 10 D2 FA 0E 0A 44 23 54
1506533700.34628,can1 18FEF021 [8] 00 00 00 00 00 00 00 00
1506533700.346844,can1 18FEBF0B [8] 42 C2 96 04 23 48 93 73
1506533700.34733,can1 18FEBF0B [8] 43 D2 B5 40 9B 6B 85 07
1506533700.347751,can1 18FEBF0B [8] 5D 96 AD 46 26 AA 09 17
1506533700.348228,can1 18FEBF0B [8] E1 D4 38 52 51 BF 9F 4E
1506533700.348761,can1 18FEBF0B [8] E3 40 DE 17 75 C4 0E 1F
1506533700.349236,can1 18FEBF0B [8] FC 70 31 3D 35 85 51 30
1506533700.349695,can1 18FEBF0B [8] DA 4B 83 5E C2 1A 2F 6A
1506533700.350148,can1 18FEBF0B [8] 0E B2 89 42 62 A7 11 0B
1506533700.350622,can1 18FEBF0B [8] 9F C9 48 63 CA D0 F4 4A
1506533700.351111,can1 18FEBF0B [8] 52 7E D9 45 CA B7 59 56
1506533700.351583,can1 18FEBF0B [8] D9 65 20 35 22 7E EF 16
1506533700.354361,can1 18FEBF0B [8] 99 F5 58 38 A5 66 B5 39
1506533700.354999,can1 18FEBF0B [8] 60 B4 1F 55 7D 48 92 16
1506533700.355526,can1 18FEBF0B [8] 3A B9 A2 6C 73 6A 91 43
1506533700.356012,can1 18FEBF0B [8] C2 DE 10 14 7E AA BB 19
1506533700.356567,can1 18FEBF0B [8] 5F F3 FC 3C 24 B0 7B 1F
1506533700.357057,can1 18FEF028 [8] 00 00 00 00 00 00 00 00
1506533700.357486,can1 18FEBF0B [8] 26 37 1D 1D 75 FA 12 65
1506533700.357959,can1 18FEBF0B [8] A8 40 87 2B AE EC 16 02
1506533700.358489,can1 18FEBF0B [8] 2B 39 DB 73 74 27 BF 1C
1506533700.358967,can1 18FEBF0B [8] C6 0F 7E 18 D9 78 AD 65
1506533700.359442,can1 18FEBF0B [8] C1 9E 3E 36 32 D0 59 1C
1506533700.35986,can1 18FEBF0B [8] C3 19 7A 6A A7 93 FC 7A
1506533700.36039,can1 18FEBF0B [8] 3B 24 8D 4C 65 C4 9C 76
1506533700.36087,can1 18FEBF0B [8] DC 42 FD 3F 12 90 2C 64
1506533700.361338,can1 18FEBF0B [8] DB BE AC 29 E2 2E 5B 7A
1506533700.364435,can1 18FEBF0B [8] 4A 5E 0C 02 B4 24 CD 5E
1506533700.365103,can1 18FEBF0B [8] 69 79 5E 30 44 EF F9 6C
1506533700.365571,can1 18FEBF0B [8] 63 74 EC 3A CD 68 B5 31
1506533700.366187,can1 18FEBF0B [8] E6 C6 03 37 75 53 86 1C
1506533700.366641,can1 18FEBF0B [8] 1C F0 14 56 21 59 E7 36
1506533700.367141,can1 18FEBF0B [8] BA 01 92 52 22 0E 92 35
1506533700.367615,can1 18FEBF0B [8] 8A 94 6A 35 60 37 9B 35
1506533700.368157,can1 18FEF031 [8] 00 00 00 00 00 00 00 00
1506533700.368638,can1 18FEBF0B [8] 09 1B 5A 48 76 20 FB 22
1506533700.369109,can1 0CFE6E0B [8] 00 00 00 00 00 00 00 00
1506533700.369568,can1 18FEBF0B [8] 84 F2 40 4E B3 64 AA 37
1506533700.370096,can1 0CFE6E0B [8] 00 00 00 00 00 00 00 00
1506533700.370579,can1 18FEBF0B [8] 8B A1 D3 1C 11 43 31 7F
1506533700.370998,can1 0CFE6E0B [8] 00 00 00 00 00 00 00 00
1506533700.371453,can1 18FEBF0B [8] E2 A9 D8 42 D7 A8 DC 0B
1506533700.374036,can1 18FEBF0B [8] EF 09 22 6C 7F 45 D7 43
1506533700.374632,can1 18FEBF0B [8] 01 DA AA 60 B4 B2 DC 45
1506533700.37514,can1 18FEBF0B [8] 88 9A 40 5F 35 FE 93 51
1506533700.375629,can1 18FEBF0B [8] 78 26 25 0A 74 A7 21 51
1506533700.376196,can1 0CFE6E0B [8] 00 00 00 00 00 00 00 00
1506533700.376697,can1 18FEBF0B [8] CE 26 42 31 85 37 4E 29
1506533700.377172,can1 18FEBF0B [8] 5A 38 03 70 38 A0 A0 61
1506533700.377685,can1 18FEBF0B [8] A0 75 3A 69 E4 11 F1 48
1506533700.378139,can1 18FEBF0B [8] F5 AD 7E 70 3B EF 2F 48
1506533700.378618,can1 18FEBF0B [8] 83 30 04 07 93 96 EB 05
1506533700.379084,can1 18FEBF0B [8] 7F 0B 00 46 DA 00 7D 38
1506533700.379556,can1 18FEBF0B [8] 45 F6 5C 30 C3 23 9D 5C
1506533700.380098,can1 18FEBF0B [8] 81 F6 7C 3A 16 96 2E 3E
1506533700.38053,can1 18FEF131 [8] 00 00 00 00 00 00 00 00
1506533700.381024,can1 18FEBF0B [8] 96 D7 42 0B DE FD 5C 73
1506533700.381489,can1 18FEBF0B [8] 75 B5 6D 23 BB E6 20 37
1506533700.384162,can1 18FEBF0B [8] E0 2E 8A 18 B8 A4 19 59
1506533700.384736,can1 18FEBF0B [8] 5E 2F EF 7C 72 F3 AA 38
1506533700.385244,can1 18FEBF0B [8] 95 6C 45 2E E7 D4 2F 62
1506533700.385803,can1 18FEBF0B [8] 00 3F ED 64 7A 06 1B 38
1506533700.386305,can1 18FEBF0B [8] 2D E0 CF 36 45 B5 4E 47
1506533700.386784,can1 18FEBF0B [8] 4B 09 CB 7C 7E 48 7D 28
1506533700.3872,can1 18FEBF0B [8] F6 97 E8 6F 94 A9 02 3B
1506533700.387731,can1 18FEBF0B [8] C0 EC 11 2C 96 0D 23 59
1506533700.388215,can1 18FEBF0B [8] 27 E0 9C 60 31 A6 67 51
1506533700.388685,can1 18FEBF0B [8] 07 87 0F 21 0D 55 15 43
1506533700.389143,can1 18FEBF0B [8] 9C 85 D6 59 31 D5 49 32
1506533700.389679,can1 18FEBF0B [8] 41 93 0E 25 90 2F 65 12
1506533700.39016,can1 18FEBF0B [8] 99 0E AF 30 5E E6 C7 7C
1506533700.390581,can1 18FEBF0B [8] 37 66 42 2A A5 67 23 14
1506533700.391042,can1 18FEBF0B [8] C5 57 D7 67 9A AD BB 4B
1506533700.391556,can1 18FEBF0B [8] 97 27 78 33 B8 35 15 4B
1506533700.39418,can1 18FEBF0B [8] D0 33 28 7F A2 20 DF 77
1506533700.394752,can1 18F0010B [8] CF FF F0 FF FF DC FF FF
1506533700.395316,can1 18FEBF0B [8] F0 AD EB 2F 2F FE 4C 61
1506533700.395831,can1 18FEBF0B [8] B1 77 A0 41 F6 DC 7B 7D
1506533700.396317,can1 18FEBF0B [8] CB E0 7D 2A EC B1 95 0A
1506533700.396786,can1 18FEBF0B [8] 06 EE FD 61 5B C7 A4 01
1506533700.397301,can1 18FEBF0B [8] 4A 07 35 16 0F 99 CF 3F
1506533700.397794,can1 18FEBF0B [8] 92 50 A5 4C 7F A5 D8 45
1506533700.398225,can1 0CFE6E0B [8] 00 00 00 00 00 00 00 00
1506533700.398697,can1 18F00131 [8] 00 00 00 00 00 00 00 00
1506533700.399211,can1 18F0010B [8] 00 00 00 00 00 00 00 00
1506533700.399711,can1 18FEBF0B [8] 70 A8 F1 3F B9 30 42 2D
1506533700.400189,can1 18FEBF0B [8] B4 DD CE 51 0D 9B 3B 48
1506533700.400653,can1 18FEBF0B [8] AD CA 46 43 30 78 AD 40
1506533700.401168,can1 18FEBF0B [8] C4 15 F4 37 63 78 2E 2F
1506533700.401653,can1 18FEBF0B [8] 36 37 19 33 1B 3B 33 09
1506533700.404273,can1 18FEBF0B [8] 3D E5 60 37 2E F7 F7 16
1506533700.404769,can1 18FEBF0B [8] AC AD 5F 07 6A 8C CC 5F
1506533700.40535,can1 18FEF117 [8] 00 00 00 00 00 00 00 00
1506533700.405853,can1 18FEBF0B [8] 50 8A 98 45 FE 80 AC 02
1506533700.406338,can1 18FEBF0B [8] 49 E4 92 46 41 57 2F 10
1506533700.406818,can1 18FEBF0B [8] 1D F2 A5 5E 7A 72 72 50
1506533700.407375,can1 18FEBF0B [8] 43 6A 36 43 F4 07 A5 43
1506533700.407861,can1 18FEBF0B [8] 8A 70 53 5B 35 1C 1F 1A
1506533700.408324,can1 18FEBF0B [8] 61 A8 B7 77 A7 78 93 3F
1506533700.408799,can1 18FEBF0B [8] 37 01 4B 29 51 BD 6F 7B
1506533700.40934,can1 18FEBF0B [8] 6D D0 F6 4D 84 DA E6 28
1506533700.409819,can1 18FEBF0B [8] B3 6A F6 18 CC 1A EA 56
1506533700.410231,can1 18FEBF0B [8] 0E F3 7C 7B 68 48 C5 6A
1506533700.410709,can1 18FEBF0B [8] 02 18 54 0C B0 F1 19 5B
1506533700.411246,can1 18FEBF0B [8] 67 19 83 0D 1C 98 C3 6E
1506533700.411734,can1 18FEBF0B [8] 76 A6 A9 3A 32 28 A5 41
1506533700.414345,can1 18FEBF0B [8] 09 EF E5 7C BA 90 CF 49
1506533700.414958,can1 18FEBF0B [8] 73 60 C3 1C F9 D8 9E 1D
1506533700.415482,can1 18FEF121 [8] 00 00 00 00 00 00 00 00
1506533700.415966,can1 18FEBF0B [8] 00 00 7D 7D FE FE FF FF
1506533700.416437,can1 18FEF128 [8] 00 00 00 00 00 00 00 00
1506533700.416978,can1 18FEBF0B [8] 00 00 7D 7D FE FE FF FF
1506533700.41747,can1 18E00017 [8] 00 00 00 00 00 00 00 00
1506533700.417886,can1 18FEF131 [8] 00 00 00 00 00 00 00 00
1506533700.418348,can1 18E00019 [8] 00 00 00 00 00 00 00 00
1506533700.418865,can1 18E00021 [8] 00 00 00 00 00 00 00 00
1506533700.419351,can1 18E00028 [8] 00 00 00 00 00 00 00 00
1506533700.419813,can1 18E00031 [8] 00 00 00 00 00 00 00 00
1506533700.420268,can1 18FEF017 [8] 00 00 00 00 00 00 00 00
1506533700.420784,can1 18FEF021 [8] 00 00 00 00 00 00 00 00
1506533700.421271,can1 18FEF028 [8] 00 00 00 00 00 00 00 00
1506533700.421688,can1 18FEF031 [8] 00 00 00 00 00 00 00 00
1506533700.424368,can1 0CFE6E0B [8] 00 00 00 00 00 00 00 00
1506533700.425009,can1 18FEBF0B [8] 2D 79 99 6E 8E 20 EA 22
1506533700.425524,can1 18FEBF0B [8] 75 39 4E 26 62 AE BE 63
1506533700.426014,can1 18FEBF0B [8] AD 11 5C 6F 63 90 18 4E
1506533700.426546,can1 18FEBF0B [8] B9 3E B4 48 28 F9 DB 1C
1506533700.427042,can1 18FEBF0B [8] 86 6D 54 0B 6A A8 94 52
1506533700.42751,can1 18FEBF0B [8] 06 70 81 6F 2E 07 D5 7E
1506533700.427985,can1 18FEBF0B [8] 0B 26 2B 6B FE B8 98 58
1506533700.429165,can1 18FEBF0B [8] 21 8B 6A 1C 96 FB C0 7B
1506533700.026318,can0 08FF0303 [8] 00 00 00 00 00 00 00 00
1506533700.026948,can0 08FF0001 [8] 00 00 00 00 00 00 00 00
1506533700.027418,can0 0CF00203 [8] 00 00 00 00 00 00 00 00
1506533700.027855,can0 08FF0303 [8] 00 00 00 00 00 00 00 00
1506533700.035277,can0 08FF0001 [8] 00 00 00 00 00 00 00 00
1506533700.036186,can0 0CF00203 [8] 00 00 00 00 00 00 00 00
1506533700.03677,can0 08FF0303 [8] 00 00 00 00 00 00 00 00
1506533700.042063,can0 08FF0001 [8] 00 00 00 00 00 00 00 00
1506533700.04275,can0 0CF00203 [8] 00 00 00 00 00 00 00 00
1506533700.04329,can0 08FF0303 [8] 00 00 00 00 00 00 00 00
1506533700.055717,can0 08FF0001 [8] 00 00 00 00 00 00 00 00
1506533700.056502,can0 0CF00203 [8] 00 00 00 00 00 00 00 00
1506533700.057081,can0 08FF0303 [8] 00 00 00 00 00 00 00 00
1506533700.069578,can0 08FF0001 [8] 00 00 00 00 00 00 00 00
1506533700.070183,can0 0CF00203 [8] 00 00 00 00 00 00 00 00
1506533700.070685,can0 08FF0303 [8] 00 00 00 00 00 00 00 00
1506533700.079188,can0 18F00503 [8] 00 00 00 00 00 00 00 00
1506533700.079899,can0 08FF0001 [8] 00 00 00 00 00 00 00 00
1506533700.08045,can0 0CF00203 [8] 00 00 00 00 00 00 00 00
1506533700.092941,can0 08FF0303 [8] 00 00 00 00 00 00 00 00
1506533700.093671,can0 08FF0001 [8] 00 00 00 00 00 00 00 00
1506533700.094218,can0 0CF00203 [8] 00 00 00 00 00 00 00 00
1506533700.102901,can0 08FF0303 [8] 00 00 00 00 00 00 00 00
1506533700.103615,can0 08FF0001 [8] 00 00 00 00 00 00 00 00
1506533700.104138,can0 0CF00203 [8] 00 00 00 00 00 00 00 00
1506533700.114826,can0 08FF0303 [8] 00 00 00 00 00 00 00 00
1506533700.115439,can0 08FF0001 [8] 00 00 00 00 00 00 00 00
1506533700.126748,can0 0CF00203 [8] 00 00 00 00 00 00 00 00
1506533700.127475,can0 08FF0303 [8] 00 00 00 00 00 00 00 00
1506533700.129042,can0 08FF0001 [8] 00 00 00 00 00 00 00 00
1506533700.129745,can0 0CF00203 [8] 00 00 00 00 00 00 00 00
1506533700.130321,can0 08FF0303 [8] 00 00 00 00 00 00 00 00
1506533700.130833,can0 08FF0001 [8] 00 00 00 00 00 00 00 00
1506533700.131324,can0 0CF00203 [8] 00 00 00 00 00 00 00 00
1506533700.142051,can0 08FF0303 [8] 00 00 00 00 00 00 00 00
1506533700.142753,can0 08FF0001 [8] 00 00 00 00 00 00 00 00
1506533700.143428,can0 0CF00203 [8] 00 00 00 00 00 00 00 00
1506533700.143907,can0 08FF0303 [8] 00 00 00 00 00 00 00 00
1506533700.144328,can0 08FF0001 [8] 00 00 00 00 00 00 00 00
1506533700.144735,can0 0CF00203 [8] 00 00 00 00 00 00 00 00
1506533700.153211,can0 08FF0303 [8] 00 00 00 00 00 00 00 00
1506533700.153975,can0 08FF0001 [8] 00 00 00 00 00 00 00 00
1506533700.154545,can0 0CF00203 [8] 00 00 00 00 00 00 00 00
1506533700.155128,can0 08FF0303 [8] 00 00 00 00 00 00 00 00
1506533700.162123,can0 08FF0001 [8] 00 00 00 00 00 00 00 00
1506533700.163053,can0 0CF00203 [8] 00 00 00 00 00 00 00 00
1506533700.163674,can0 08FF0303 [8] 00 00 00 00 00 00 00 00
1506533700.16419,can0 18F00503 [8] 00 00 00 00 00 00 00 00
1506533700.172118,can0 08FF0001 [8] 00 00 00 00 00 00 00 00
1506533700.173082,can0 0CF00203 [8] 00 00 00 00 00 00 00 00
1506533700.173656,can0 08FF0303 [8] 00 00 00 00 00 00 00 00
1506533700.182113,can0 08FF0001 [8] 00 00 00 00 00 00 00 00
1506533700.182833,can0 0CF00203 [8] 00 00 00 00 00 00 00 00
1506533700.183411,can0 08FF0303 [8] 00 00 00 00 00 00 00 00
1506533700.192155,can0 08FF0001 [8] 00 00 00 00 00 00 00 00
1506533700.192811,can0 0CF00203 [8] 00 00 00 00 00 00 00 00
1506533700.193377,can0 08FF0303 [8] 00 00 00 00 00 00 00 00
1506533700.202734,can0 08FF0001 [8] 00 00 00 00 00 00 00 00
1506533700.203394,can0 0CF00203 [8] 00 00 00 00 00 00 00 00
1506533700.204074,can0 08FF0303 [8] 00 00 00 00 00 00 00 00
1506533700.212043,can0 08FF0001 [8] 00 00 00 00 00 00 00 00
1506533700.212755,can0 0CF00203 [8] 00 00 00 00 00 00 00 00
1506533700.213332,can0 08FF0303 [8] 00 00 00 00 00 00 00 00
1506533700.222097,can0 08FF0001 [8] 00 00 00 00 00 00 00 00
1506533700.222745,can0 0CF00203 [8] 00 00 00 00 00 00 00 00
1506533700.223363,can0 08FF0303 [8] 00 00 00 00 00 00 00 00
1506533700.232069,can0 08FF0001 [8] 00 00 00 00 00 00 00 00
1506533700.23273,can0 0CF00203 [8] 00 00 00 00 00 00 00 00
1506533700.233429,can0 08FF0303 [8] 00 00 00 00 00 00 00 00
1506533700.242046,can0 08FF0001 [8] 00 00 00 00 00 00 00 00
1506533700.242707,can0 0CF00203 [8] 00 00 00 00 00 00 00 00
1506533700.243421,can0 08FF0303 [8] 00 00 00 00 00 00 00 00
1506533700.252063,can0 08FF0001 [8] 00 00 00 00 00 00 00 00
1506533700.252846,can0 0CF00203 [8] 00 00 00 00 00 00 00 00
1506533700.253455,can0 08FF0303 [8] 00 00 00 00 00 00 00 00
1506533700.262152,can0 08FF0001 [8] 00 00 00 00 00 00 00 00
1506533700.262903,can0 0CF00203 [8] 00 00 00 00 00 00 00 00
1506533700.26351,can0 08FF0303 [8] 00 00 00 00 00 00 00 00
1506533700.264063,can0 18F00503 [8] 00 00 00 00 00 00 00 00
1506533700.272117,can0 08FF0001 [8] 00 00 00 00 00 00 00 00
1506533700.272852,can0 0CF00203 [8] 00 00 00 00 00 00 00 00
1506533700.273382,can0 08FF0303 [8] 00 00 00 00 00 00 00 00
1506533700.282145,can0 08FF0001 [8] 00 00 00 00 00 00 00 00
1506533700.282803,can0 0CF00203 [8] 00 00 00 00 00 00 00 00
1506533700.283381,can0 08FF0303 [8] 00 00 00 00 00 00 00 00
1506533700.292097,can0 08FF0001 [8] 00 00 00 00 00 00 00 00
1506533700.292732,can0 0CF00203 [8] 00 00 00 00 00 00 00 00
1506533700.293292,can0 08FF0303 [8] 00 00 00 00 00 00 00 00
1506533700.302096,can0 08FF0001 [8] 00 00 00 00 00 00 00 00
1506533700.302712,can0 0CF00203 [8] 00 00 00 00 00 00 00 00
1506533700.303283,can0 08FF0303 [8] 00 00 00 00 00 00 00 00
1506533700.312066,can0 08FF0001 [8] 00 00 00 00 00 00 00 00
1506533700.312793,can0 0CF00203 [8] 00 00 00 00 00 00 00 00
1506533700.313425,can0 08FF0303 [8] 00 00 00 00 00 00 00 00
1506533700.322112,can0 08FF0001 [8] 00 00 00 00 00 00 00 00
1506533700.322759,can0 0CF00203 [8] 00 00 00 00 00 00 00 00
1506533700.323389,can0 08FF0303 [8] 00 00 00 00 00 00 00 00
1506533700.332075,can0 08FF0001 [8] 00 00 00 00 00 00 00 00
1506533700.332867,can0 0CF00203 [8] 00 00 00 00 00 00 00 00
1506533700.333468,can0 08FF0303 [8] 00 00 00 00 00 00 00 00
1506533700.34216,can0 08FF0001 [8] 00 00 00 00 00 00 00 00
1506533700.343021,can0 0CF00203 [8] 00 00 00 00 00 00 00 00
1506533700.34359,can0 08FF0303 [8] 00 00 00 00 00 00 00 00
1506533700.352116,can0 08FF0001 [8] 00 00 00 00 00 00 00 00
1506533700.352942,can0 0CF00203 [8] 00 00 00 00 00 00 00 00
1506533700.353541,can0 08FF0303 [8] 00 00 00 00 00 00 00 00
1506533700.362117,can0 08FF0001 [8] 00 00 00 00 00 00 00 00
1506533700.362853,can0 0CF00203 [8] 00 00 00 00 00 00 00 00
1506533700.363375,can0 08FF0303 [8] 00 00 00 00 00 00 00 00
1506533700.364017,can0 18F00503 [8] 00 00 00 00 00 00 00 00
1506533700.372075,can0 08FF0001 [8] 00 00 00 00 00 00 00 00
1506533700.372783,can0 0CF00203 [8] 00 00 00 00 00 00 00 00
1506533700.373357,can0 08FF0303 [8] 00 00 00 00 00 00 00 00
1506533700.382064,can0 08FF0001 [8] 00 00 00 00 00 00 00 00
1506533700.382728,can0 0CF00203 [8] 00 00 00 00 00 00 00 00
1506533700.383363,can0 08FF0303 [8] 00 00 00 00 00 00 00 00
1506533700.392058,can0 08FF0001 [8] 00 00 00 00 00 00 00 00
1506533700.392705,can0 0CF00203 [8] 00 00 00 00 00 00 00 00
1506533700.393406,can0 08FF0303 [8] 00 00 00 00 00 00 00 00
1506533700.402116,can0 08FF0001 [8] 00 00 00 00 00 00 00 00
1506533700.40276,can0 0CF00203 [8] 00 00 00 00 00 00 00 00
1506533700.403402,can0 08FF0303 [8] 00 00 00 00 00 00 00 00
1506533700.412101,can0 08FF0001 [8] 00 00 00 00 00 00 00 00
1506533700.412735,can0 0CF00203 [8] 00 00 00 00 00 00 00 00
1506533700.413371,can0 08FF0303 [8] 00 00 00 00 00 00 00 00
1506533700.422072,can0 08FF0001 [8] 00 00 00 00 00 00 00 00
1506533700.422784,can0 0CF00203 [8] 00 00 00 00 00 00 00 00
1506533700.423437,can0 08FF0303 [8] 00 00 00 00 00 00 00 00
1506533700.432103,can0 08FF0001 [8] 00 00 00 00 00 00 00 00
1506533700.43295,can0 0CF00203 [8] 00 00 00 00 00 00 00 00
1506533700.433577,can0 08FF0303 [8] 00 00 00 00 00 00 00 00
1506533700.442177,can0 08FF0001 [8] 00 00 00 00 00 00 00 00
1506533700.442862,can0 0CF00203 [8] 00 00 00 00 00 00 00 00
1506533700.443436,can0 08FF0303 [8] 00 00 00 00 00 00 00 00
1506533700.452157,can0 08FF0001 [8] 00 00 00 00 00 00 00 00
1506533700.430337,can1 18FEBF0B [8] 34 D1 2C 04 A1 C1 30 15
1506533700.431071,can1 18FEBF0B [8] F2 4A 27 7D B3 70 66 78
1506533700.431622,can1 18FEBF0B [8] B0 B9 DA 30 F4 62 7B 09
1506533700.434584,can1 0CFE6E0B [8] 00 00 00 00 00 00 00 00
1506533700.435168,can1 18FEBF0B [8] CB 1C F8 52 6B 8F CC 55
1506533700.435873,can1 18FEBF0B [8] 35 E0 6A 7F 23 39 3C 10
1506533700.436514,can1 18FEBF0B [8] B3 2B B3 2F FD 40 3D 35
1506533700.43705,can1 18FEBF0B [8] 23 7A 34 0B 12 5C B7 50
1506533700.437539,can1 18FEBF0B [8] 6F 47 1F 2C EE 3C 15 43
1506533700.438016,can1 18FEBF0B [8] 23 53 63 40 1C BE FC 4A
1506533700.438563,can1 18FEBF0B [8] 52 0F 21 34 41 38 C7 47
1506533700.439055,can1 18FEBF0B [8] 6A 41 CF 2C A8 BD 71 08
1506533700.439516,can1 18FEBF0B [8] 9D 7C A3 59 27 48 81 17
1506533700.439974,can1 18FEBF0B [8] 0F 0E 03 28 07 BE 23 04
1506533700.4405,can1 18FEBF0B [8] A0 31 5A 0A 1E 94 B0 66
1506533700.44093,can1 18FEBF0B [8] 37 46 49 5E 07 7F 41 61
1506533700.441401,can1 18FEBF0B [8] 41 ED 1B 2C C9 0F BB 3D
1506533700.443976,can1 18FEBF0B [8] 10 C0 8B 38 37 CB 3B 72
1506533700.444658,can1 18FEBF0B [8] 10 97 4D 63 A8 19 96 6E
1506533700.44518,can1 18FEBF0B [8] 9A E9 90 1E DC B3 45 36
1506533700.445673,can1 18FEBF0B [8] 5A B8 74 71 B1 A9 98 48
1506533700.446209,can1 18FEBF0B [8] 98 4D F5 27 6E 64 0E 3C
1506533700.446721,can1 18FEBF0B [8] 9D 44 38 2F 74 8A 31 4B
1506533700.447199,can1 18FEBF0B [8] C9 39 65 4B F7 C1 F9 5B
1506533700.447671,can1 18FEBF0B [8] 04 A3 C0 11 80 49 2F 6D
1506533700.448198,can1 18FEBF0B [8] FD F2 17 54 F1 7C 25 39
1506533700.448646,can1 18FEBF0B [8] 6F C7 87 2B 04 64 E6 5A
1506533700.449117,can1 18FEBF0B [8] 8D 31 B7 4D ED 6A DB 3E
1506533700.449582,can1 18FEBF0B [8] 36 A2 0C 10 74 A8 59 78
1506533700.450102,can1 18FEBF0B [8] 9D 5F 90 39 B5 FC 47 42
1506533700.450589,can1 18FEBF0B [8] A5 A2 F0 1B F3 C0 62 27
1506533700.451055,can1 18FEBF0B [8] BA 3E C0 2F 5A 58 25 0C
1506533700.451509,can1 18FEBF0B [8] F8 7A 13 36 1B F7 75 49
1506533700.454823,can1 18FEBF0B [8] D6 91 AF 23 46 06 4A 4E
1506533700.455467,can1 18FEBF0B [8] 95 04 97 16 78 03 E7 7B
1506533700.456067,can1 18FEBF0B [8] D0 98 FB 5A EF BC 0B 08
1506533700.456593,can1 18FEBF0B [8] 9C 42 69 29 32 11 18 71
1506533700.457086,can1 0CFE6E0B [8] 00 00 00 00 00 00 00 00
1506533700.457532,can1 18FEBF0B [8] CF 54 B8 02 BD 8C 2F 39
1506533700.458043,can1 18FEBF0B [8] BB E3 6D 7A 4A F5 42 22
1506533700.458497,can1 18FEBF0B [8] 5A 94 13 4F 6A 12 8A 53
1506533700.458931,can1 18FEBF0B [8] AD 0B 7B 74 E3 E8 B4 3A
1506533700.459351,can1 18FEBF0B [8] 76 53 66 4D A6 F7 66 5E
1506533700.45982,can1 18FEBF0B [8] F0 AB 8B 02 5A 35 C0 3A
1506533700.460269,can1 18FEBF0B [8] 74 66 C0 59 B1 53 4D 2D
1506533700.460702,can1 18FEBF0B [8] D4 22 CD 7A 92 38 0A 16
1506533700.461113,can1 18FEBF0B [8] B9 95 6D 29 44 2C 9F 3D
1506533700.46157,can1 18FEBF0B [8] 24 FC 2D 2E 83 8A BD 7C
1506533700.464811,can1 18FEBF0B [8] 23 58 BA 4B 30 A2 59 1D
1506533700.465373,can1 18FEBF0B [8] 10 5F 59 4E CD 61 DA 70
1506533700.465957,can1 18FEBF0B [8] 8E 30 36 2D 58 5D 9F 26
1506533700.466407,can1 18FEBF0B [8] 00 F3 91 51 5A 1E 0D 7F
1506533700.466909,can1 18FEBF0B [8] EC 8C E3 52 9C 35 FB 7A
1506533700.467381,can1 18FEBF0B [8] 53 A8 04 5B D5 61 1A 25
1506533700.467934,can1 18FEBF0B [8] 32 6E CC 74 5A 1E D3 0D
1506533700.468979,can1 18FEBF0B [8] A4 20 9C 72 9C 5F 8E 1B
1506533700.469692,can1 18FEBF0B [8] 40 B9 7A 7B 45 90 B3 46
1506533700.470243,can1 18FEBF0B [8] 36 A5 2E 5D 5A 75 DF 60
1506533700.47074,can1 18FEBF0B [8] F6 D4 B9 67 CA 5E 7D 3B
1506533700.471231,can1 18FEBF0B [8] FD 00 EA 1E CE 2D 01 2F
1506533700.473907,can1 18FEBF0B [8] 5E 0B 00 57 EA 6E 42 54
1506533700.47454,can1 18FEBF0B [8] 57 CE 11 43 39 87 B5 62
1506533700.475087,can1 18FEBF0B [8] 19 0C BE 58 EA 51 E6 33
1506533700.475657,can1 18FEBF0B [8] 9C 64 DF 6F F3 80 84 15
1506533700.47616,can1 18FEBF0B [8] 45 DE 26 3C 06 2C 1F 1B
1506533700.476634,can1 18FEBF0B [8] 01 2C 7B 63 5E 86 03 45
1506533700.477096,can1 18FEBF0B [8] 30 1C D1 1C 7B 9B 02 38
1506533700.477624,can1 18FEBF0B [8] 35 7C D0 7E 70 61 84 36
1506533700.478048,can1 18FEBF0B [8] 35 13 F4 3C 88 24 D5 59
1506533700.478517,can1 18FEBF0B [8] 41 1F EC 1A 3D 90 07 64
1506533700.478978,can1 18FEBF0B [8] 03 8A C7 2E E6 32 57 6E
1506533700.479494,can1 18FEBF0B [8] 67 F0 EA 2B 79 61 1F 03
1506533700.479979,can1 0CFE6E0B [8] 00 00 00 00 00 00 00 00
1506533700.480391,can1 18FEBF0B [8] 70 6E 4B 23 F1 08 0C 58
1506533700.480856,can1 18FEBF0B [8] EA 02 6F 10 9C 0C 09 12
1506533700.481374,can1 18FEBF0B [8] 2E 7E 44 1E 25 24 BE 03
1506533700.483963,can1 18FEBF0B [8] A5 A0 A0 1A BA 5C 8C 53
1506533700.484503,can1 18FEBF0B [8] DA 9A AD 36 30 C9 59 46
1506533700.484948,can1 18FEBF0B [8] 43 57 3B 5A B7 08 99 3C
1506533700.485454,can1 18FEBF0B [8] 3F 78 33 72 F0 ED 2E 59
1506533700.485878,can1 18FEBF0B [8] 25 A9 68 69 08 7E CA 34
1506533700.486275,can1 18FEBF0B [8] 91 88 89 40 CD BE D0 1A
1506533700.48666,can1 18FEBF0B [8] 58 AC 97 77 7A B4 A2 7F
1506533700.487106,can1 18FEBF0B [8] 5A FF 09 3E 84 0C 99 37
1506533700.487522,can1 18FEBF0B [8] E6 7B 32 1D 05 E5 BD 52
1506533700.487922,can1 18FEBF0B [8] 91 08 94 17 27 9B 1E 38
1506533700.488308,can1 18FEBF0B [8] 4F 00 5E 4E 54 0F 78 47
1506533700.488786,can1 18FEBF0B [8] 4B 17 45 42 37 87 67 6E
1506533700.489305,can1 18FEBF0B [8] 4E A2 C3 26 3C 48 50 61
1506533700.489795,can1 18FEBF0B [8] 7A 49 16 05 A9 D3 64 1F
1506533700.490265,can1 18FEBF0B [8] 83 C7 9A 19 4A 4D D8 64
1506533700.490733,can1 18FEBF0B [8] EB 7C C9 3E EA 90 DC 7A
1506533700.49122,can1 18FEBF0B [8] 43 E2 C8 4F E8 91 21 5A
1506533700.491701,can1 18FEBF0B [8] EB 83 6F 38 78 D0 5C 13
1506533700.494309,can1 18FEBF0B [8] 2E 5D D6 5C 0B 42 AF 64
1506533700.49491,can1 18FEBF0B [8] B1 07 85 0D 4A 71 FF 59
1506533700.495441,can1 18FEBF0B [8] C5 97 E0 26 B6 A9 58 69
1506533700.495873,can1 18FEBF0B [8] 43 67 16 67 36 20 5B 20
1506533700.496349,can1 18FEBF0B [8] 89 FE EC 11 A5 01 7B 22
1506533700.496873,can1 18FEBF0B [8] 60 C6 24 26 66 89 D7 70
1506533700.497366,can1 18FEBF0B [8] 18 74 2F 4A 67 FF CB 4F
1506533700.497843,can1 18FEBF0B [8] DF 1E 16 73 67 74 8D 18
1506533700.498306,can1 18FEBF0B [8] C8 37 84 69 E4 72 99 39
1506533700.498812,can1 18FEBF0B [8] 1B E0 1E 37 21 45 17 50
1506533700.499247,can1 18FEBF0B [8] 7A 04 FE 32 04 63 48 2A
1506533700.499723,can1 18FEBF0B [8] F9 64 FF 41 DC F0 81 52
1506533700.500181,can1 18FEBF0B [8] 80 4A 14 0C 4F 06 31 52
1506533700.500649,can1 0CFE6E0B [8] 00 00 00 00 00 00 00 00
1506533700.501186,can1 18F00131 [8] 00 00 00 00 00 00 00 00
1506533700.501614,can1 18F0010B [8] 00 00 00 00 00 00 00 00
1506533700.504283,can1 18FEBF0B [8] C4 B1 89 45 B5 9D D5 69
1506533700.504911,can1 18FEF117 [8] 00 00 00 00 00 00 00 00
1506533700.505434,can1 18FEBF0B [8] 3B 64 6B 5C E9 66 B2 63
1506533700.505922,can1 18FEBF0B [8] 46 FC C4 10 CA 28 BE 2A
1506533700.506396,can1 18FEBF0B [8] E9 92 78 3A 2F 6A C3 40
1506533700.506941,can1 18FEBF0B [8] CD 35 38 5A D5 AC A6 3E
1506533700.507376,can1 18FEBF0B [8] F3 14 DD 26 95 11 C9 6D
1506533700.507849,can1 18FEBF0B [8] 2A 36 9F 33 93 CD D0 55
1506533700.508319,can1 18F0010B [8] CF FF F0 FF FF DC FF FF
1506533700.508847,can1 18FEBF0B [8] F2 57 40 5D 75 D6 9E 7E
1506533700.509319,can1 18FEBF0B [8] 3F E3 E7 3D E3 5D 62 6B
1506533700.509785,can1 18FEBF0B [8] 37 B1 28 65 04 22 52 5D
1506533700.510198,can1 18FEBF0B [8] E7 42 08 72 00 E9 AC 4E
1506533700.51072,can1 18FEBF0B [8] A0 39 AA 59 52 BC 5C 61
1506533700.511196,can1 18FEBF0B [8] 9B 91 7D 15 3E A2 67 4E
1506533700.511654,can1 18FEBF0B [8] 1C 9F F9 30 31 4D F9 6D
1506533700.51424,can1 18FEBF0B [8] C3 53 89 38 80 B6 E3 03
1506533700.514876,can1 18FEBF0B [8] 23 2C 02 64 4F 8F BD 12
1506533700.515392,can1 18FEBF0B [8] BE 28 3E 37 A8 82 85 08
1506533700.515883,can1 18FEF121 [8] 00 00 00 00 00 00 00 00
1506533700.516414,can1 18FEBF0B [8] A6 4D 93 6C 43 1E 5A 59
1506533700.516913,can1 18FEBF0B [8] 4D 76 B5 73 AF 97 6D 7C
1506533700.517386,can1 18FEBF0B [8] 99 68 BF 2B C5 DD F7 02
1506533700.517854,can1 18FEBF0B [8] 98 E2 01 3E 77 33 20 16
1506533700.518371,can1 18FEBF0B [8] 6B AD 36 45 74 58 F3 5A
1506533700.519373,can1 18FEBF0B [8] B6 EC 65 25 73 E4 5B 4B
1506533700.519978,can1 18FEBF0B [8] 55 EF 02 45 31 6F 5C 18
1506533700.520595,can1 18FEBF0B [8] 09 BC C7 58 C7 83 DC 6D
1506533700.521111,can1 18FEBF0B [8] F7 DC 16 38 CA 20 42 70
1506533700.521603,can1 18FEBF0B [8] B4 40 84 10 97 16 C1 11
1506533700.52432,can1 18FEBF0B [8] F1 5C 00 50 74 CF D2 54
1506533700.52492,can1 18FEBF0B [8] E5 EF E4 2C 45 B1 BD 11
1506533700.52543,can1 18FEBF0B [8] 41 CD A9 2C BE 38 2F 02
1506533700.525909,can1 18FEBF0B [8] 9F 87 D8 7B 7D 92 25 08
1506533700.526476,can1 18FEBF0B [8] 97 24 F0 7F C5 2B E0 5E
1506533700.52691,can1 18FEBF0B [8] 15 6A 19 73 17 00 B0 00
1506533700.52739,can1 18FEF128 [8] 00 00 00 00 00 00 00 00
1506533700.527879,can1 18FEBF0B [8] 43 F4 F4 0D B8 13 43 51
1506533700.528421,can1 18E00017 [8] 00 00 00 00 00 00 00 00
1506533700.528908,can1 18FEBF0B [8] 27 0E 59 77 28 4C 88 68
1506533700.529368,can1 18E00019 [8] 00 00 00 00 00 00 00 00
1506533700.529773,can1 18FEBF0B [8] 70 15 40 28 42 B6 1F 5E
1506533700.530318,can1 18E00021 [8] 00 00 00 00 00 00 00 00
1506533700.5308,can1 18FEBF0B [8] 28 B5 C3 49 9E 45 8B 64
1506533700.531269,can1 18E00028 [8] 00 00 00 00 00 00 00 00
1506533700.531733,can1 18FEBF0B [8] DE 9C 4A 2A 64 EF 50 44
1506533700.534469,can1 18E00031 [8] 00 00 00 00 00 00 00 00
1506533700.534972,can1 18FEBF0B [8] 17 2B E7 60 40 AE 00 40
1506533700.535475,can1 18FEBF0B [8] F5 E8 3C 2A E9 F5 A5 75
1506533700.536268,can1 18FEBF0B [8] 64 7D EC 1D 55 1D AA 7A
1506533700.536832,can1 18FEBF0B [8] 42 2F 6B 20 B2 6D BD 19
1506533700.537342,can1 18FEBF0B [8] 21 CD 06 17 34 8C 6B 70
1506533700.537845,can1 18FEBF0B [8] 7A 7B 8C 42 D6 13 A5 37
1506533700.538349,can1 18FEBF0B [8] EB 29 D2 5E 31 F1 6C 6E
1506533700.538843,can1 18FEBF0B [8] DD 01 B2 6C CA 83 76 54
1506533700.539311,can1 18FEBF0B [8] 42 B3 50 68 03 97 C6 3F
1506533700.539833,can1 18FEBF0B [8] 7D A3 EE 6F D8 61 74 31
1506533700.540317,can1 18FEBF0B [8] F4 3C 29 7D 17 0D D4 0B
1506533700.540738,can1 18FEF017 [8] 00 00 00 00 00 00 00 00
1506533700.541208,can1 18FEBF0B [8] 17 18 FB 0E AB 00 78 1E
1506533700.541712,can1 18FEBF0B [8] BC 20 65 5D B1 14 BA 0F
1506533700.544364,can1 18FEBF0B [8] 63 B0 FE 50 E7 03 DD 5A
1506533700.544918,can1 18FEBF0B [8] 08 D7 B0 44 EF 87 AB 53
1506533700.545365,can1 18FEBF0B [8] C6 65 5C 6B E2 47 B6 35
1506533700.546002,can1 18FEBF0B [8] 73 D5 14 44 68 83 76 52
1506533700.546449,can1 18FEBF0B [8] E7 61 20 1C 4D 25 91 13
1506533700.546931,can1 18FEBF0B [8] 8A D1 9E 34 11 0F 4A 40
1506533700.547401,can1 18FEBF0B [8] D3 A8 AD 3E 43 B0 B6 2D
1506533700.547935,can1 18FEBF0B [8] FF 32 42 59 4D 24 3A 01
1506533700.551507,can1 18FEBF0B [8] B4 30 EB 2D C9 C2 5E 2E
1506533700.557983,can1 18FEBF0B [8] E5 8A 94 26 C2 EE EB 78
1506533700.55863,can1 18FEBF0B [8] 1B 77 72 30 7F E5 D6 2D
1506533700.559165,can1 18FEBF0B [8] 99 15 4C 09 12 1F 0C 07
1506533700.559777,can1 18FEBF0B [8] 2F 23 2D 5F A1 95 33 61
1506533700.560276,can1 18FEBF0B [8] 0A 2E 00 06 51 A3 F0 61
1506533700.560755,can1 18FEF021 [8] 00 00 00 00 00 00 00 00
1506533700.569153,can1 18FEBF0B [8] 5A DE 4D 7A 13 11 EA 36
1506533700.570005,can1 18FEBF0B [8] 7E 86 6F 66 FA 53 19 78
1506533700.570592,can1 18FEBF0B [8] 3C 23 B6 16 20 CF C3 6D
1506533700.571177,can1 18FEBF0B [8] AC 1F 7E 2A 0B D9 C5 4D
1506533700.571714,can1 18FEBF0B [8] EF DD 4D 5D 0E 74 11 66
1506533700.574538,can1 18FEBF0B [8] 41 B1 BA 48 D2 2F 0F 45
1506533700.575179,can1 18FEBF0B [8] EA 83 19 32 80 B2 52 31
1506533700.57571,can1 18FEBF0B [8] 9F 52 A9 29 AA 3C C1 3B
1506533700.576238,can1 18FEBF0B [8] 6F 92 58 08 62 F0 B4 16
1506533700.576731,can1 18FEBF0B [8] 0D 22 9A 69 23 C3 43 36
1506533700.577276,can1 18FEBF0B [8] 58 3C E4 03 8C BD A5 53
1506533700.577767,can1 18FEBF0B [8] AB 13 09 24 9F 75 7A 66
1506533700.57824,can1 18FEBF0B [8] B4 96 69 20 7A A3 66 3C
1506533700.578698,can1 18FEBF0B [8] 53 67 D8 0F FA 24 04 48
1506533700.589328,can1 18FEBF0B [8] 67 3D 20 21 DB 94 95 1C
1506533700.589955,can1 18FEBF0B [8] 54 62 6D 34 46 CC C3 56
1506533700.590479,can1 18FEF028 [8] 00 00 00 00 00 00 00 00
1506533700.591073,can1 18FEBF0B [8] 97 20 E5 6C 5E A8 3D 6E
1506533700.591571,can1 18FEBF0B [8] 60 A8 10 69 16 0D 4D 42
1506533700.594265,can1 18FEBF0B [8] 22 EB E7 46 13 C9 E0 0A
1506533700.594941,can1 18FEBF0B [8] F7 60 80 6C B2 58 4E 03
1506533700.595462,can1 18FEBF0B [8] 00 15 9D 04 11 2E 04 61
1506533700.595962,can1 18FEBF0B [8] E5 F6 DB 22 1D F1 A7 46
1506533700.596494,can1 18FEBF0B [8] 13 22 34 55 7C B6 97 79
1506533700.596998,can1 18FEBF0B [8] BE F7 8D 45 35 CA C6 46
1506533700.597474,can1 18FEBF0B [8] 06 C5 89 1C 77 D7 87 6D
1506533700.59794,can1 18FEBF0B [8] 83 CF 8D 17 5F 01 6E 20
1506533700.608327,can1 18FEBF0B [8] 0A 56 08 47 DD 27 D3 29
1506533700.609105,can1 18FEBF0B [8] 38 EA FD 32 0D 15 13 55
1506533700.609673,can1 18FEBF0B [8] 69 7D 81 77 FB 61 DE 05
1506533700.610268,can1 18FEBF0B [8] 24 11 8D 22 6A 0D 98 3E
1506533700.610793,can1 18FEBF0B [8] B4 F5 6F 42 94 0E 27 04
1506533700.611285,can1 18FEBF0B [8] DC EB 70 52 95 05 A0 33
1506533700.611766,can1 18FEF031 [8] 00 00 00 00 00 00 00 00
1506533700.614612,can1 18FEBF0B [8] B7 AE D5 2C 51 BD 27 1D
1506533700.615155,can1 0CFE6E0B [8] 00 00 00 00 00 00 00 00
1506533700.615644,can1 18FEBF0B [8] F4 E3 8D 1A 40 57 73 3A
1506533700.616199,can1 0CFE6E0B [8] 00 00 00 00 00 00 00 00
1506533700.616703,can1 18FEBF0B [8] 8A 75 53 17 06 7B 61 72
1506533700.61718,can1 0CFE6E0B [8] 00 00 00 00 00 00 00 00
1506533700.617648,can1 18FEBF0B [8] 8B 00 08 10 40 E9 45 7C
1506533700.621695,can1 18FEBF0B [8] E7 0B 34 7D 7C BF 10 17
1506533700.624822,can1 18FEBF0B [8] F4 CE EE 4B 11 B7 3B 39
1506533700.625386,can1 18FEBF0B [8] C3 39 7D 0E FE 35 D9 5C
1506533700.625977,can1 18FEBF0B [8] 05 4D AD 35 77 FB 78 40
1506533700.626494,can1 18FEBF0B [8] 3F C4 AC 65 8E 74 03 45
1506533700.626975,can1 18FEBF0B [8] A9 43 0B 5D 4A 1A B5 2C
1506533700.627448,can1 18FEBF0B [8] 18 4F 43 20 06 AD 5A 4E
1506533700.627931,can1 18FEBF0B [8] E3 66 76 64 03 01 86 45
1506533700.628419,can1 18FEBF0B [8] 6F 70 B5 1F 62 0A 9A 41
1506533700.628905,can1 18FEBF0B [8] D2 6E 79 3C A0 17 F3 72
1506533700.629376,can1 18FEBF0B [8] 1A 0A 06 44 A1 FE 32 40
1506533700.629892,can1 18FEBF0B [8] 3A 3A 52 68 A7 6B C0 78
1506533700.63037,can1 18FEF131 [8] 00 00 00 00 00 00 00 00
1506533700.630843,can1 18FEBF0B [8] 00 64 CA 66 1D 65 F9 3F
1506533700.63125,can1 18FEBF0B [8] F0 5F EF 01 B6 AE 6B 22
1506533700.631772,can1 18FEBF0B [8] 07 06 81 51 45 8D 81 78
1506533700.634412,can1 18FEBF0B [8] 2D 29 AD 48 DF AA 48 25
1506533700.634938,can1 18FEBF0B [8] 6B 23 FB 33 17 4A 5E 5D
1506533700.635479,can1 18FEBF0B [8] 6E 70 59 65 D0 B0 15 0B
1506533700.635999,can1 18FEBF0B [8] 88 E3 91 56 12 76 10 11
1506533700.636753,can1 18FEBF0B [8] E9 E7 D0 3E 92 5A A5 2B
1506533700.637271,can1 18FEBF0B [8] BD 04 7D 02 41 D2 D0 39
1506533700.637842,can1 18FEBF0B [8] D0 17 BB 72 D5 53 C0 22
1506533700.638336,can1 18FEBF0B [8] 91 90 D2 00 D5 34 BA 1F
1506533700.638811,can1 18FEBF0B [8] C6 1B F4 67 DC 6A 4C 3D
1506533700.639283,can1 0CFE6E0B [8] 00 00 00 00 00 00 00 00
1506533700.639841,can1 18FEBF0B [8] D4 E9 1D 32 7B 5E DA 1D
1506533700.640326,can1 18FEBF0B [8] A7 76 3C 58 4E 74 B8 66
1506533700.640792,can1 18FEBF0B [8] B9 5B 64 71 70 DA 23 7B
1506533700.641255,can1 18FEBF0B [8] 3C 4D C5 04 3A 0E 95 38
1506533700.641794,can1 18FEBF0B [8] 58 83 F3 55 D7 3B A2 2E
1506533700.644537,can1 18FEBF0B [8] 32 92 98 51 86 D4 5E 62
1506533700.645077,can1 18FEBF0B [8] 28 CC 53 6A 56 06 B6 49
1506533700.645654,can1 18FEBF0B [8] D3 78 DB 78 F9 F9 21 50
1506533700.646148,can1 18FEBF0B [8] 24 83 C7 77 64 C3 25 2C
1506533700.646585,can1 18FEBF0B [8] 3C 1C F8 5F EF FC 7D 71
1506533700.647062,can1 18FEBF0B [8] 08 EC AD 06 4A E8 CC 25
1506533700.647601,can1 18FEBF0B [8] 82 3B 99 67 F8 CB A5 36
1506533700.648088,can1 18FEBF0B [8] 27 F3 2A 1B BB 74 06 25
1506533700.648555,can1 18FEBF0B [8] 50 FD 31 75 B8 83 FD 1B
1506533700.649012,can1 18FEBF0B [8] 32 FE 96 2C 21 E6 64 5C
1506533700.649544,can1 18FEBF0B [8] 96 89 D8 13 4E 6F 6A 1D
1506533700.650023,can1 18FEBF0B [8] 06 4C 99 26 9C 34 B5 7D
1506533700.651033,can1 18FEBF0B [8] 62 7A 2E 20 4E 18 F9 31
1506533700.651733,can1 18FEBF0B [8] F1 E7 63 24 BF 46 FD 6B
1506533700.654735,can1 18FEBF0B [8] 61 C5 DD 4D B6 3B 4A 64
1506533700.655443,can1 18FEBF0B [8] CF 50 86 55 03 C7 81 17
1506533700.655962,can1 18FEBF0B [8] 96 6F 18 6C 11 13 9B 44
1506533700.656394,can1 18FEBF0B [8] F3 AF 13 59 EE 9E 11 30
1506533700.656861,can1 18FEBF0B [8] E9 E7 58 5D 2A C0 C4 6D
1506533700.657399,can1 18FEBF0B [8] BF 87 E3 02 94 FE 34 0A
1506533700.657878,can1 18FEBF0B [8] 7F E9 2D 3D BD 13 AC 5F
1506533700.658365,can1 18FEBF0B [8] 79 2A C8 66 73 3D 94 43
1506533700.658767,can1 18FEBF0B [8] A8 C9 F3 62 FC 54 63 5C
1506533700.659315,can1 0CFE6E0B [8] 00 00 00 00 00 00 00 00
1506533700.659789,can1 18F00131 [8] 00 00 00 00 00 00 00 00
1506533700.660218,can1 18F0010B [8] 00 00 00 00 00 00 00 00
1506533700.660688,can1 18FEBF0B [8] 52 93 C9 76 F9 4A 9A 46
1506533700.661152,can1 18FEF117 [8] 00 00 00 00 00 00 00 00
1506533700.661624,can1 18FEBF0B [8] 00 00 7D 7D FE FE FF FF
1506533700.66478,can1 18FEF121 [8] 00 00 00 00 00 00 00 00
1506533700.66533,can1 18FEBF0B [8] 00 00 7D 7D FE FE FF FF
1506533700.665873,can1 18FEF128 [8] 00 00 00 00 00 00 00 00
1506533700.666371,can1 18FEF131 [8] 00 00 00 00 00 00 00 00
1506533700.66686,can1 18E00017 [8] 00 00 00 00 00 00 00 00
1506533700.66737,can1 18E00019 [8] 00 00 00 00 00 00 00 00
1506533700.667839,can1 18E00021 [8] 00 00 00 00 00 00 00 00
1506533700.668269,can1 18E00028 [8] 00 00 00 00 00 00 00 00
1506533700.668792,can1 18E00031 [8] 00 00 00 00 00 00 00 00
1506533700.669233,can1 18FEF017 [8] 00 00 00 00 00 00 00 00
1506533700.66972,can1 18FEF021 [8] 00 00 00 00 00 00 00 00
1506533700.670126,can1 18FEF028 [8] 00 00 00 00 00 00 00 00
1506533700.670653,can1 18FEF031 [8] 00 00 00 00 00 00 00 00
1506533700.671148,can1 18FEF521 [8] 00 00 00 00 00 00 00 00
1506533700.671575,can1 18FEBF0B [8] 86 D3 63 49 85 91 60 23
1506533700.674157,can1 18FEBF0B [8] 75 22 68 32 EE EA 94 04
1506533700.674808,can1 18FEBF0B [8] 45 2A 58 70 B3 86 E1 0A
1506533700.675342,can1 18FEBF0B [8] 4E F2 34 00 C8 45 BB 22
1506533700.675834,can1 18FEBF0B [8] B6 04 F2 41 BA 32 8C 01
1506533700.67632,can1 18FEBF0B [8] D2 69 ED 15 57 13 47 78
1506533700.676878,can1 18FEBF0B [8] 09 2E 10 01 3F 0C CF 62
1506533700.677366,can1 18FEBF0B [8] 67 8C F2 6B EA 00 D6 38
1506533700.67784,can1 18FEBF0B [8] B5 62 3B 70 8C 98 CF 67
1506533700.678256,can1 18FEBF0B [8] 90 8F 0C 5D A4 B7 51 02
1506533700.678793,can1 18FEBF0B [8] 01 FF EF 6D C2 65 A4 4D
1506533700.679271,can1 18FEBF0B [8] 8A 6D A4 68 20 71 8B 08
1506533700.679748,can1 18FEBF0B [8] 62 D9 08 57 67 DD B2 7F
1506533700.680215,can1 18FEBF0B [8] 94 0E 60 39 3F DE 29 00
1506533700.680744,can1 0CFE6E0B [8] 00 00 00 00 00 00 00 00
1506533700.681228,can1 18FEBF0B [8] 82 FE F7 13 DC 77 95 0A
1506533700.681693,can1 18FEBF0B [8] 9B E4 B6 38 B4 19 CD 3F
1506533700.684365,can1 18FEBF0B [8] 07 E2 94 3E 11 07 1F 6B
1506533700.684943,can1 18FEBF0B [8] 75 83 DE 44 EC EC 2C 3D
1506533700.68546,can1 18FEBF0B [8] E0 78 39 09 C6 EF 48 31
1506533700.685946,can1 18FEBF0B [8] F8 A5 47 0B 95 06 E0 76
1506533700.686431,can1 18FEBF0B [8] EE BB 23 27 50 54 E3 29
1506533700.686926,can1 18FEBF0B [8] D2 03 4B 48 80 57 4A 45
1506533700.687404,can1 18FEBF0B [8] BB 86 0E 10 69 ED 71 04
1506533700.687867,can1 18FEBF0B [8] 9E C6 62 5A 72 97 8B 74
1506533700.688384,can1 18FEBF0B [8] 0E AA C6 5A C6 26 6A 63
1506533700.688871,can1 18FEBF0B [8] FE DB 83 3E 9C 2C 95 3C
1506533700.689337,can1 18FEBF0B [8] C3 C1 20 0F D0 20 BC 20
1506533700.689814,can1 18FEBF0B [8] 17 9F 1E 52 B9 34 63 23
1506533700.690332,can1 18FEBF0B [8] 93 2B F8 4D E5 84 BF 00
1506533700.690763,can1 18FEBF0B [8] 1E 6F AF 78 02 88 30 64
1506533700.691238,can1 18FEBF0B [8] 22 3E C8 19 55 EA 27 7A
1506533700.691699,can1 18FEBF0B [8] B8 D6 E8 2B A2 66 D3 64
1506533700.694386,can1 18FEBF0B [8] F9 D0 22 58 2D 5A C7 70
1506533700.694944,can1 18FEBF0B [8] 89 2C A0 21 14 69 60 5C
1506533700.695449,can1 18FEBF0B [8] A3 2C 74 69 7A 02 8C 3D
1506533700.695933,can1 18FEBF0B [8] D3 43 AA 4E 4B 5D 61 03
1506533700.696431,can1 18FEBF0B [8] A9 D7 8F 6F B7 C5 D6 4E
1506533700.69692,can1 18FEBF0B [8] 24 0E 19 79 FE 13 9E 06
1506533700.697394,can1 18FEBF0B [8] CC C6 1F 60 A0 D6 BD 37
1506533700.697864,can1 18FEBF0B [8] AB EF 8B 61 16 28 B0 4B
1506533700.698392,can1 18FEBF0B [8] C4 6E 27 5E 0B 57 F2 18
1506533700.698881,can1 0CFE6E0B [8] 00 00 00 00 00 00 00 00
1506533700.699353,can1 18FEBF0B [8] 71 6A 8A 17 78 38 1C 3E
1506533700.69982,can1 18FEBF0B [8] 7D 6E 73 26 1B AC 9E 0E
1506533700.700353,can1 18FEBF0B [8] 92 67 BC 41 48 05 29 07
1506533700.700775,can1 18FEBF0B [8] 1F 52 B0 78 AD FB 99 15
1506533700.701239,can1 18FEBF0B [8] D0 25 97 39 5A E3 D0 2E
1506533700.701699,can1 18FEBF0B [8] A3 B6 45 6F 04 2A 46 35
1506533700.704298,can1 18FEBF0B [8] E5 64 86 0B F4 18 5D 4B
1506533700.704854,can1 18FEBF0B [8] 68 83 E8 43 6E 91 26 2D
1506533700.70535,can1 18FEBF0B [8] 92 A8 79 79 E1 62 10 7E
1506533700.705889,can1 18FEBF0B [8] F9 49 E7 72 21 36 39 1E
1506533700.706397,can1 18FEBF0B [8] AA D1 4D 53 54 91 AA 49
1506533700.70683,can1 18FEBF0B [8] EC DE C6 50 1B E0 6C 10
1506533700.707297,can1 18FEBF0B [8] E5 9B D8 72 FE D8 02 58
1506533700.70782,can1 18FEBF0B [8] 84 27 6C 24 A3 14 2E 39
1506533700.70831,can1 18FEBF0B [8] B0 4D 1F 60 99 D3 86 00
1506533700.708789,can1 18FEBF0B [8] A4 D2 98 3F 49 EC EC 0F
1506533700.709262,can1 18FEBF0B [8] 1A 82 EC 27 D5 DC 6C 0E
1506533700.709765,can1 18FEBF0B [8] F1 63 05 20 4A 03 1F 4E
1506533700.710245,can1 18FEBF0B [8] C5 C1 2D 59 E3 B6 A7 38
1506533700.710716,can1 18FEBF0B [8] D4 70 66 1E 4E 38 17 3F
1506533700.711132,can1 18FEBF0B [8] AC 1F 91 42 0C 8E 1A 7B
1506533700.711639,can1 18FEBF0B [8] 40 E9 2D 48 6D D2 41 1F
1506533700.714253,can1 18FEBF0B [8] D2 F1 FF 25 47 88 7D 35
1506533700.714805,can1 18FEBF0B [8] 0A F4 02 4A 64 9A 79 1F
1506533700.715298,can1 18FEBF0B [8] BB 3D 34 62 B9 5E 74 1D
1506533700.715854,can1 18FEBF0B [8] DC 56 56 59 4B 1D 22 6F
1506533700.716354,can1 18FEBF0B [8] 9A 61 CE 0E A1 CF F1 12
1506533700.716824,can1 18FEBF0B [8] 2D 96 13 3B 5A 08 0E 37
1506533700.717297,can1 18FEBF0B [8] 86 33 0B 25 B1 8E 45 29
1506533700.71783,can1 18FEBF0B [8] 08 46 1C 21 2F AD E9 62
1506533700.718254,can1 18FEBF0B [8] 8A FB B2 64 31 3A EC 1F
1506533700.718727,can1 18FEBF0B [8] 42 77 4D 4C 39 06 CC 4C
1506533700.719195,can1 18FEBF0B [8] 66 ED 5F 12 27 9F AE 4D
1506533700.71973,can1 0CFE6E0B [8] 00 00 00 00 00 00 00 00
1506533700.720214,can1 18FEBF0B [8] 66 7D C7 72 7B 22 5E 16
1506533700.720678,can1 18FEBF0B [8] EB B5 ED 42 73 8F 21 48
1506533700.721145,can1 18FEBF0B [8] 8A 41 2D 4D 64 00 1B 4B
1506533700.721663,can1 18FEBF0B [8] A8 54 C7 17 1E 5C AD 34
1506533700.724239,can1 18FEBF0B [8] 41 4D 71 49 C9 7B 6F 2F
1506533700.724797,can1 18FEBF0B [8] 21 1C F2 69 3C 7B 77 3B
1506533700.725366,can1 18FEBF0B [8] 93 F2 BF 56 DD 59 26 4C
1506533700.725885,can1 18FEBF0B [8] 92 E2 F3 04 5C B8 45 22
1506533700.726378,can1 18FEBF0B [8] 27 95 B2 29 67 4C 15 5E
1506533700.726857,can1 18FEBF0B [8] A2 30 11 62 E6 5B A7 64
1506533700.727388,can1 18FEBF0B [8] 1E 27 BB 2B D6 72 24 3B
1506533700.727874,can1 18FEBF0B [8] 77 33 50 12 AC D1 B7 35
1506533700.728345,can1 18FEBF0B [8] C2 B1 0C 43 57 A2 95 77
1506533700.728804,can1 18FEBF0B [8] F7 A1 2C 33 02 B1 05 24
1506533700.729311,can1 18FEBF0B [8] 37 AA 29 44 9B 03 7F 6E
1506533700.72974,can1 18FEBF0B [8] 63 04 FF 26 85 9A B3 14
1506533700.730209,can1 18FEBF0B [8] A7 67 1E 11 09 28 53 67
1506533700.730667,can1 18FEBF0B [8] 80 97 51 36 48 24 69 16
1506533700.731119,can1 18FEBF0B [8] ED F0 76 08 9A 1B E8 1A
1506533700.731653,can1 18FEBF0B [8] 64 34 4D 2B 41 9C A0 61
1506533700.734309,can1 18FEBF0B [8] 5D A4 F8 45 06 80 12 47
1506533700.734877,can1 18FEBF0B [8] 73 F4 F4 7F 65 5E 10 2C
1506533700.735462,can1 18FEBF0B [8] 05 6E 57 4C 05 D7 E8 04
1506533700.735972,can1 18FEBF0B [8] D1 92 F7 1C 5D 56 88 78
1506533700.73665,can1 18FEBF0B [8] 53 EE 7A 35 22 17 5E 78
1506533700.737263,can1 18FEBF0B [8] BD 6A C7 29 94 8E D2 1F
1506533700.737782,can1 18FEBF0B [8] 49 FB CD 16 CC 20 CF 49
1506533700.738788,can1 18FEBF0B [8] B4 14 31 4A E5 E0 99 53
1506533700.739487,can1 18FEBF0B [8] 32 6F 7E 1A 4B E1 5C 05
1506533700.74003,can1 18FEBF0B [8] F8 9F 49 05 C7 83 DA 7D
1506533700.74053,can1 18FEBF0B [8] 9D E3 CF 21 A0 E0 AF 6F
1506533700.741076,can1 18FEBF0B [8] 93 E4 ED 2D CF 88 3E 5D
1506533700.74158,can1 18FEBF0B [8] 2D 70 25 10 4A F4 7F 21
1506533700.74426,can1 18FEBF0B [8] 0F 76 63 2A E5 C3 30 73
1506533700.745524,can1 0CFE6E0B [8] 00 00 00 00 00 00 00 00
1506533700.746277,can1 18FEBF0B [8] B7 7F 6C 1A BC 4D DA 3C
1506533700.746906,can1 18FEBF0B [8] 29 E9 DE 78 B0 21 5B 6E
1506533700.747447,can1 18FEBF0B [8] FE 82 CF 2D 16 6E 3C 59
1506533700.747943,can1 18FEBF0B [8] 03 09 3D 6E 39 83 79 0E
1506533700.748421,can1 18FEBF0B [8] 7B 30 4D 79 D4 9B 34 0B
1506533700.748955,can1 18FEBF0B [8] 3F 6F 60 4E DE 36 05 30
1506533700.749393,can1 18FEBF0B [8] F3 BB 24 63 E5 93 DB 4C
1506533700.749876,can1 18FEBF0B [8] B6 F3 A7 78 69 4C A0 77
1506533700.750347,can1 18FEBF0B [8] 03 B2 7E 1D C9 BB F9 0E
1506533700.750885,can1 18FEBF0B [8] 90 C2 61 02 F0 37 03 1A
1506533700.751339,can1 18F0010B [8] CF FF F0 FF FF DC FF FF
1506533700.751767,can1 18FEBF0B [8] F6 D3 B0 28 18 6A 38 54
1506533700.754402,can1 18FEBF0B [8] E0 88 C2 65 DC DE 64 1D
1506533700.754969,can1 18FEBF0B [8] 5C 86 57 59 A6 F8 45 77
1506533700.75551,can1 18FEBF0B [8] 52 68 7F 7E FB 88 47 33
1506533700.755996,can1 18FEBF0B [8] 29 59 53 43 95 FE 1D 7B
1506533700.756428,can1 18FEBF0B [8] D1 78 71 5C 92 7B A0 7F
1506533700.756974,can1 18FEBF0B [8] E9 A7 50 71 00 1D BE 35
1506533700.757468,can1 18FEBF0B [8] CE 8D 18 64 68 B3 9B 79
1506533700.757947,can1 18FEBF0B [8] 3E 9F 34 2D AA AB EA 07
1506533700.75836,can1 18FEBF0B [8] 87 74 C7 0D 67 D3 10 6A
1506533700.758915,can1 18FEBF0B [8] C5 AE E9 6A C6 E3 27 5C
1506533700.759402,can1 18FEBF0B [8] D4 40 D0 2C CF 6B 13 7A
1506533700.759876,can1 18FEBF0B [8] 9E 86 7A 78 F4 E4 08 01
1506533700.760335,can1 18FEBF0B [8] 05 A6 94 3F 86 2E 3E 02
1506533700.760864,can1 18FEBF0B [8] 9B 8D 27 59 A7 6B 61 3B
1506533700.761339,can1 18FEBF0B [8] 8C 81 41 60 5F 78 88 71
1506533700.761763,can1 18FEBF0B [8] 1F CA F8 69 DE F7 A8 7F
1506533700.765,can1 18FEBF0B [8] 00 00 7D 7D FE FE FF FF
1506533700.765538,can1 18FEBF0B [8] D3 80 B0 37 3A B4 A9 7A
1506533700.766043,can1 18FEBF0B [8] 54 18 D1 6F 2B FA F0 09
1506533700.766595,can1 18FEBF0B [8] B6 8B BE 3A B8 2C 59 28
1506533700.767094,can1 18FEBF0B [8] F2 F3 2E 13 BF E1 E6 70
1506533700.767517,can1 18FEBF0B [8] E5 77 17 5B E6 2B 93 74
1506533700.767986,can1 18FEBF0B [8] 62 81 88 22 2A E8 90 00
1506533700.768518,can1 0CFE6E0B [8] 00 00 00 00 00 00 00 00
1506533700.769005,can1 18F00131 [8] 00 00 00 00 00 00 00 00
1506533700.769477,can1 18F0010B [8] 00 00 00 00 00 00 00 00
1506533700.769941,can1 18FEBF0B [8] A4 65 85 4D C1 FC 5C 7E
1506533700.770462,can1 18FEBF0B [8] 12 27 DA 2C 3B F8 35 11
1506533700.770888,can1 18FEBF0B [8] 7F 91 1B 19 3D 57 5E 77
1506533700.77136,can1 18FEBF0B [8] 6A 72 3F 22 53 D2 EB 45
1506533700.773924,can1 18FEBF0B [8] D2 5F E2 7C F4 96 3D 75
1506533700.774599,can1 18FEBF0B [8] 9A 77 0E 7D 0F B2 43 6A
1506533700.775138,can1 18FEBF0B [8] 86 45 10 62 D3 EC 53 64
1506533700.775632,can1 18FEBF0B [8] 22 9D DB 7B 09 CF 63 3C
1506533700.776167,can1 18FEBF0B [8] 19 F2 3B 78 EB 26 7C 51
1506533700.776664,can1 18FEBF0B [8] 8B EB 6C 08 DD 6F 9F 48
1506533700.777139,can1 18FEF117 [8] 00 00 00 00 00 00 00 00
1506533700.777607,can1 18FEBF0B [8] F3 72 6D 69 9C 93 DD 54
1506533700.778113,can1 18FEBF0B [8] F7 3B 26 5C 29 09 D4 53
1506533700.77856,can1 18FEBF0B [8] B8 AE 3E 4C 9D BA 86 5E
1506533700.779047,can1 18FEBF0B [8] 7D C2 2E 05 3F 3F 61 46
1506533700.779522,can1 18FEBF0B [8] C8 D1 B1 60 5F FA A9 56
1506533700.780047,can1 18FEBF0B [8] A8 0A D7 7A 3C 90 12 6E
1506533700.780536,can1 18FEBF0B [8] ED 24 85 19 1C D6 C5 3A
1506533700.781312,can1 18FEBF0B [8] 62 81 02 5D B8 6C 98 38
1506533700.783959,can1 18FEBF0B [8] F9 86 D1 73 E8 EC 9F 62
1506533700.78458,can1 18FEBF0B [8] 7A 19 37 72 CB E6 B3 70
1506533700.785188,can1 18FEBF0B [8] 7F A2 A1 6A 3E 6D 45 7B
1506533700.785646,can1 18FEBF0B [8] BC B0 D4 2D 54 46 74 6B
1506533700.78627,can1 18FEBF0B [8] CA 4D 1E 0E B8 DE 08 7E
1506533700.786717,can1 18FEBF0B [8] F4 55 CB 52 4D 70 DC 1C
1506533700.787199,can1 18FEBF0B [8] 4D B8 43 19 0D AA F0 57
1506533700.787669,can1 18FEBF0B [8] 5E 62 BE 68 F3 5B 75 66
1506533700.788216,can1 18FEF121 [8] 00 00 00 00 00 00 00 00
1506533700.788697,can1 18FEBF0B [8] 50 F6 0E 07 C8 26 3D 70
1506533700.789164,can1 18FEBF0B [8] 71 37 09 7A A0 19 F0 0E
1506533700.789623,can1 18FEBF0B [8] 79 6B AA 2A BC CE AE 59
1506533700.790157,can1 18FEBF0B [8] 98 02 D0 6E 21 FA 52 40
1506533700.790575,can1 18FEBF0B [8] FA ED 12 42 33 C9 7E 36
1506533700.791045,can1 18FEBF0B [8] 90 3F D5 78 B5 9B 6C 3A
1506533700.791508,can1 18FEBF0B [8] 0B 99 D6 4D 3C 28 01 6B
1506533700.794127,can1 18FEBF0B [8] 55 0B 5B 0B 80 F0 F0 50
1506533700.794712,can1 18FEBF0B [8] 9F 68 E6 27 A2 4E 6F 6F
1506533700.795213,can1 18FEBF0B [8] 4C 16 88 4A 1E 0B 88 12
1506533700.79591,can1 18FEBF0B [8] 0B 40 B2 08 03 8D 14 37
1506533700.796481,can1 18FEBF0B [8] E6 A3 71 18 45 23 88 32
1506533700.796992,can1 18FEBF0B [8] AC E7 04 78 01 BF 50 68
1506533700.797477,can1 18FEBF0B [8] 8D 37 D8 0C 69 22 A9 10
1506533700.798037,can1 18FEBF0B [8] 40 82 91 3B 6B AF F3 76
1506533700.798529,can1 18FEBF0B [8] 83 67 FB 63 94 DE 73 06
1506533700.79901,can1 18FEF128 [8] 00 00 00 00 00 00 00 00
1506533700.799473,can1 18FEBF0B [8] 50 95 7D 76 36 2A B3 44
1506533700.800019,can1 18E00017 [8] 00 00 00 00 00 00 00 00
1506533700.800499,can1 18FEBF0B [8] 38 D0 09 4A 3C 4D AF 42
1506533700.800917,can1 18E00019 [8] 00 00 00 00 00 00 00 00
1506533700.801383,can1 18FEBF0B [8] 80 A6 9A 0A 16 59 A6 64
1506533700.804037,can1 18E00021 [8] 00 00 00 00 00 00 00 00
1506533700.804647,can1 18FEBF0B [8] 80 77 8C 1C 6B E4 63 68
1506533700.805161,can1 18E00028 [8] 00 00 00 00 00 00 00 00
1506533700.805728,can1 18FEBF0B [8] 79 C6 A6 36 16 24 CB 61
1506533700.806232,can1 18E00031 [8] 00 00 00 00 00 00 00 00
1506533700.806706,can1 18FEBF0B [8] 45 8E D3 33 1F F3 6D 65
1506533700.807162,can1 18FEBF0B [8] 78 73 68 20 0A 29 76 12
1506533700.807698,can1 18FEBF0B [8] BC ED 0C 33 5D FD 32 3A
1506533700.808172,can1 18FEBF0B [8] 46 28 95 40 EE 1C B6 40
1506533700.808651,can1 18FEBF0B [8] 84 56 96 7F 52 68 47 49
1506533700.809066,can1 18FEBF0B [8] 3F F9 47 5D B2 C0 46 13
1506533700.809599,can1 18FEBF0B [8] 4F BF 4C 69 A9 01 D0 33
1506533700.81008,can1 18FEBF0B [8] 3C F6 EC 75 9D 13 5A 40
1506533700.81054,can1 18FEBF0B [8] D7 57 19 17 8A 83 E8 6A
1506533700.810997,can1 18FEBF0B [8] EE E0 84 25 18 1E 5B 63
1506533700.811521,can1 18FEBF0B [8] 3D 1C A7 49 F0 0B BE 54
1506533700.814067,can1 18FEF017 [8] 00 00 00 00 00 00 00 00
1506533700.814715,can1 18FEBF0B [8] 6F 14 0A 21 D9 82 BD 61
1506533700.81529,can1 18FEBF0B [8] 9D D1 90 76 60 CA 90 08
1506533700.815803,can1 18FEBF0B [8] 8E 06 F5 3C 99 5E 0F 45
1506533700.816236,can1 18FEBF0B [8] 7D BA C7 3F D9 53 80 62
1506533700.816713,can1 18FEBF0B [8] 20 44 18 13 3F 2E F5 61
1506533700.817239,can1 18FEBF0B [8] 5D D0 08 19 33 16 14 05
1506533700.817733,can1 18FEBF0B [8] 4C 0F E3 0D 67 17 40 37
1506533700.818202,can1 18FEBF0B [8] 2D 00 74 50 11 2E 76 3B
1506533700.818665,can1 18FEBF0B [8] 8D AD 7B 42 B4 86 DB 13
1506533700.819165,can1 18FEBF0B [8] 3B E0 C3 0A CC A6 C3 1F
1506533700.819644,can1 18FEBF0B [8] 66 9A F4 36 49 3E 6F 7A
1506533700.820065,can1 18FEBF0B [8] 83 C2 E0 56 FC A4 69 65
1506533700.82055,can1 18FEBF0B [8] B1 F9 14 08 03 D2 5D 6A
1506533700.821069,can1 18FEBF0B [8] 4E 04 89 3B 82 23 61 31
1506533700.821566,can1 18FEBF0B [8] 79 84 36 50 C2 B6 3C 77
1506533700.824147,can1 18FEBF0B [8] EC 7D 4F 4A E8 D6 0E 4F
1506533700.824713,can1 18FEF021 [8] 00 00 00 00 00 00 00 00
1506533700.825302,can1 18FEBF0B [8] 00 65 7A 09 05 E4 03 57
1506533700.825809,can1 18FEBF0B [8] 0B BB 6C 79 BC 74 FC 66
1506533700.826291,can1 18FEBF0B [8] DE 9B 4F 6E 26 C9 6A 04
1506533700.826758,can1 18FEBF0B [8] 3A 45 40 70 A9 A5 6F 6B
1506533700.827302,can1 18FEBF0B [8] 77 70 88 0D 96 14 4D 39
1506533700.453363,can0 0CF00203 [8] 00 00 00 00 00 00 00 00
1506533700.454078,can0 08FF0303 [8] 00 00 00 00 00 00 00 00
1506533700.46213,can0 08FF0001 [8] 00 00 00 00 00 00 00 00
1506533700.462811,can0 0CF00203 [8] 00 00 00 00 00 00 00 00
1506533700.463407,can0 08FF0303 [8] 00 00 00 00 00 00 00 00
1506533700.464031,can0 18F00503 [8] 00 00 00 00 00 00 00 00
1506533700.472076,can0 08FF0001 [8] 00 00 00 00 00 00 00 00
1506533700.472768,can0 0CF00203 [8] 00 00 00 00 00 00 00 00
1506533700.473425,can0 08FF0303 [8] 00 00 00 00 00 00 00 00
1506533700.482067,can0 08FF0001 [8] 00 00 00 00 00 00 00 00
1506533700.482776,can0 0CF00203 [8] 00 00 00 00 00 00 00 00
1506533700.483421,can0 08FF0303 [8] 00 00 00 00 00 00 00 00
1506533700.492104,can0 08FF0001 [8] 00 00 00 00 00 00 00 00
1506533700.492742,can0 0CF00203 [8] 00 00 00 00 00 00 00 00
1506533700.493378,can0 08FF0303 [8] 00 00 00 00 00 00 00 00
1506533700.502071,can0 08FF0001 [8] 00 00 00 00 00 00 00 00
1506533700.502781,can0 0CF00203 [8] 00 00 00 00 00 00 00 00
1506533700.503438,can0 08FF0303 [8] 00 00 00 00 00 00 00 00
1506533700.512137,can0 08FF0001 [8] 00 00 00 00 00 00 00 00
1506533700.512848,can0 0CF00203 [8] 00 00 00 00 00 00 00 00
1506533700.51344,can0 08FF0303 [8] 00 00 00 00 00 00 00 00
1506533700.522199,can0 08FF0001 [8] 00 00 00 00 00 00 00 00
1506533700.522902,can0 0CF00203 [8] 00 00 00 00 00 00 00 00
1506533700.523481,can0 08FF0303 [8] 00 00 00 00 00 00 00 00
1506533700.532178,can0 08FF0001 [8] 00 00 00 00 00 00 00 00
1506533700.532858,can0 0CF00203 [8] 00 00 00 00 00 00 00 00
1506533700.533452,can0 08FF0303 [8] 00 00 00 00 00 00 00 00
1506533700.542125,can0 08FF0001 [8] 00 00 00 00 00 00 00 00
1506533700.542802,can0 0CF00203 [8] 00 00 00 00 00 00 00 00
1506533700.543371,can0 08FF0303 [8] 00 00 00 00 00 00 00 00
1506533700.552158,can0 08FF0001 [8] 00 00 00 00 00 00 00 00
1506533700.553028,can0 0CF00203 [8] 00 00 00 00 00 00 00 00
1506533700.553686,can0 08FF0303 [8] 00 00 00 00 00 00 00 00
1506533700.562116,can0 08FF0001 [8] 00 00 00 00 00 00 00 00
1506533700.562909,can0 0CF00203 [8] 00 00 00 00 00 00 00 00
1506533700.563648,can0 08FF0303 [8] 00 00 00 00 00 00 00 00
1506533700.564177,can0 18F00503 [8] 00 00 00 00 00 00 00 00
1506533700.57216,can0 08FF0001 [8] 00 00 00 00 00 00 00 00
1506533700.572889,can0 0CF00203 [8] 00 00 00 00 00 00 00 00
1506533700.573569,can0 08FF0303 [8] 00 00 00 00 00 00 00 00
1506533700.582184,can0 08FF0001 [8] 00 00 00 00 00 00 00 00
1506533700.583084,can0 0CF00203 [8] 00 00 00 00 00 00 00 00
1506533700.583664,can0 08FF0303 [8] 00 00 00 00 00 00 00 00
1506533700.592157,can0 08FF0001 [8] 00 00 00 00 00 00 00 00
1506533700.592919,can0 0CF00203 [8] 00 00 00 00 00 00 00 00
1506533700.593507,can0 08FF0303 [8] 00 00 00 00 00 00 00 00
1506533700.602142,can0 08FF0001 [8] 00 00 00 00 00 00 00 00
1506533700.603081,can0 0CF00203 [8] 00 00 00 00 00 00 00 00
1506533700.60363,can0 08FF0303 [8] 00 00 00 00 00 00 00 00
1506533700.612209,can0 08FF0001 [8] 00 00 00 00 00 00 00 00
1506533700.612921,can0 0CF00203 [8] 00 00 00 00 00 00 00 00
1506533700.613519,can0 08FF0303 [8] 00 00 00 00 00 00 00 00
1506533700.622181,can0 08FF0001 [8] 00 00 00 00 00 00 00 00
1506533700.622961,can0 0CF00203 [8] 00 00 00 00 00 00 00 00
1506533700.623564,can0 08FF0303 [8] 00 00 00 00 00 00 00 00
1506533700.632117,can0 08FF0001 [8] 00 00 00 00 00 00 00 00
1506533700.632772,can0 0CF00203 [8] 00 00 00 00 00 00 00 00
1506533700.633331,can0 08FF0303 [8] 00 00 00 00 00 00 00 00
1506533700.642077,can0 08FF0001 [8] 00 00 00 00 00 00 00 00
1506533700.642771,can0 0CF00203 [8] 00 00 00 00 00 00 00 00
1506533700.643466,can0 08FF0303 [8] 00 00 00 00 00 00 00 00
1506533700.652163,can0 08FF0001 [8] 00 00 00 00 00 00 00 00
1506533700.652889,can0 0CF00203 [8] 00 00 00 00 00 00 00 00
1506533700.653694,can0 08FF0303 [8] 00 00 00 00 00 00 00 00
1506533700.662121,can0 08FF0001 [8] 00 00 00 00 00 00 00 00
1506533700.662826,can0 0CF00203 [8] 00 00 00 00 00 00 00 00
1506533700.663427,can0 08FF0303 [8] 00 00 00 00 00 00 00 00
1506533700.66398,can0 18F00503 [8] 00 00 00 00 00 00 00 00
1506533700.672071,can0 08FF0001 [8] 00 00 00 00 00 00 00 00
1506533700.672789,can0 0CF00203 [8] 00 00 00 00 00 00 00 00
1506533700.673368,can0 08FF0303 [8] 00 00 00 00 00 00 00 00
1506533700.682081,can0 08FF0001 [8] 00 00 00 00 00 00 00 00
1506533700.682847,can0 0CF00203 [8] 00 00 00 00 00 00 00 00
1506533700.683429,can0 08FF0303 [8] 00 00 00 00 00 00 00 00
1506533700.692187,can0 08FF0001 [8] 00 00 00 00 00 00 00 00
1506533700.692853,can0 0CF00203 [8] 00 00 00 00 00 00 00 00
1506533700.693428,can0 08FF0303 [8] 00 00 00 00 00 00 00 00
1506533700.702155,can0 08FF0001 [8] 00 00 00 00 00 00 00 00
1506533700.702808,can0 0CF00203 [8] 00 00 00 00 00 00 00 00
1506533700.703372,can0 08FF0303 [8] 00 00 00 00 00 00 00 00
1506533700.712076,can0 08FF0001 [8] 00 00 00 00 00 00 00 00
1506533700.712713,can0 0CF00203 [8] 00 00 00 00 00 00 00 00
1506533700.713286,can0 08FF0303 [8] 00 00 00 00 00 00 00 00
1506533700.722076,can0 08FF0001 [8] 00 00 00 00 00 00 00 00
1506533700.722793,can0 0CF00203 [8] 00 00 00 00 00 00 00 00
1506533700.723419,can0 08FF0303 [8] 00 00 00 00 00 00 00 00
1506533700.73214,can0 08FF0001 [8] 00 00 00 00 00 00 00 00
1506533700.732805,can0 0CF00203 [8] 00 00 00 00 00 00 00 00
1506533700.733449,can0 08FF0303 [8] 00 00 00 00 00 00 00 00
1506533700.742156,can0 08FF0001 [8] 00 00 00 00 00 00 00 00
1506533700.742836,can0 0CF00203 [8] 00 00 00 00 00 00 00 00
1506533700.743554,can0 08FF0303 [8] 00 00 00 00 00 00 00 00
1506533700.752123,can0 08FF0001 [8] 00 00 00 00 00 00 00 00
1506533700.752862,can0 0CF00203 [8] 00 00 00 00 00 00 00 00
1506533700.753445,can0 08FF0303 [8] 00 00 00 00 00 00 00 00
1506533700.762131,can0 08FF0001 [8] 00 00 00 00 00 00 00 00
1506533700.762842,can0 0CF00203 [8] 00 00 00 00 00 00 00 00
1506533700.763418,can0 08FF0303 [8] 00 00 00 00 00 00 00 00
1506533700.763943,can0 18F00503 [8] 00 00 00 00 00 00 00 00
1506533700.772197,can0 08FF0001 [8] 00 00 00 00 00 00 00 00
1506533700.772887,can0 0CF00203 [8] 00 00 00 00 00 00 00 00
1506533700.773472,can0 08FF0303 [8] 00 00 00 00 00 00 00 00
1506533700.782191,can0 08FF0001 [8] 00 00 00 00 00 00 00 00
1506533700.782866,can0 0CF00203 [8] 00 00 00 00 00 00 00 00
1506533700.783429,can0 08FF0303 [8] 00 00 00 00 00 00 00 00
1506533700.79208,can0 08FF0001 [8] 00 00 00 00 00 00 00 00
1506533700.792742,can0 0CF00203 [8] 00 00 00 00 00 00 00 00
1506533700.79337,can0 08FF0303 [8] 00 00 00 00 00 00 00 00
1506533700.802153,can0 08FF0001 [8] 00 00 00 00 00 00 00 00
1506533700.802821,can0 0CF00203 [8] 00 00 00 00 00 00 00 00
1506533700.803454,can0 08FF0303 [8] 00 00 00 00 00 00 00 00
1506533700.812146,can0 08FF0001 [8] 00 00 00 00 00 00 00 00
1506533700.812797,can0 0CF00203 [8] 00 00 00 00 00 00 00 00
1506533700.813426,can0 08FF0303 [8] 00 00 00 00 00 00 00 00
1506533700.822082,can0 08FF0001 [8] 00 00 00 00 00 00 00 00
1506533700.822719,can0 0CF00203 [8] 00 00 00 00 00 00 00 00
1506533700.823363,can0 08FF0303 [8] 00 00 00 00 00 00 00 00
1506533700.832172,can0 08FF0001 [8] 00 00 00 00 00 00 00 00
1506533700.832903,can0 0CF00203 [8] 00 00 00 00 00 00 00 00
1506533700.833502,can0 08FF0303 [8] 00 00 00 00 00 00 00 00
1506533700.842152,can0 08FF0001 [8] 00 00 00 00 00 00 00 00
1506533700.842885,can0 0CF00203 [8] 00 00 00 00 00 00 00 00
1506533700.843468,can0 08FF0303 [8] 00 00 00 00 00 00 00 00
1506533700.852144,can0 08FF0001 [8] 00 00 00 00 00 00 00 00
1506533700.852879,can0 0CF00203 [8] 00 00 00 00 00 00 00 00
1506533700.853455,can0 08FF0303 [8] 00 00 00 00 00 00 00 00
1506533700.862144,can0 08FF0001 [8] 00 00 00 00 00 00 00 00
1506533700.862812,can0 0CF00203 [8] 00 00 00 00 00 00 00 00
1506533700.863389,can0 08FF0303 [8] 00 00 00 00 00 00 00 00
1506533700.864031,can0 18F00503 [8] 00 00 00 00 00 00 00 00
1506533700.872078,can0 08FF0001 [8] 00 00 00 00 00 00 00 00
1506533700.872798,can0 0CF00203 [8] 00 00 00 00 00 00 00 00
1506533700.873371,can0 08FF0303 [8] 00 00 00 00 00 00 00 00
1506533700.882136,can0 08FF0001 [8] 00 00 00 00 00 00 00 00
1506533700.88279,can0 0CF00203 [8] 00 00 00 00 00 00 00 00
1506533700.828258,can1 18FEBF0B [8] F9 DC 4C 4E A3 58 82 6E
1506533700.828995,can1 18FEBF0B [8] 75 C1 FE 1C F6 04 1C 4E
1506533700.829549,can1 18FEBF0B [8] 95 1A 4A 51 E9 22 BC 2E
1506533700.830056,can1 18FEBF0B [8] 97 3C C0 06 F2 F2 F4 53
1506533700.83054,can1 18FEBF0B [8] BB 56 75 0A 03 63 7E 68
1506533700.831087,can1 18FEBF0B [8] 5A 4C CE 26 B7 FE C7 5D
1506533700.831526,can1 18FEBF0B [8] F8 F9 2D 37 FB 7F AE 21
1506533700.834201,can1 18FEBF0B [8] 46 F7 01 3F D5 29 92 70
1506533700.834928,can1 18FEBF0B [8] 3C 68 32 67 E8 F7 80 73
1506533700.835475,can1 18FEBF0B [8] 7C 50 A6 78 86 C9 AB 32
1506533700.835911,can1 18FEBF0B [8] E5 D6 31 4C 49 A9 7A 71
1506533700.836388,can1 18FEBF0B [8] EC 40 FE 44 23 5B C5 16
1506533700.837231,can1 18FEBF0B [8] 41 31 5A 59 E3 C4 A4 5E
1506533700.837753,can1 18FEF031 [8] 00 00 00 00 00 00 00 00
1506533700.838238,can1 18FEBF0B [8] 0B E2 11 11 B1 34 B0 7A
1506533700.838786,can1 0CFE6E0B [8] 00 00 00 00 00 00 00 00
1506533700.83924,can1 18FEBF0B [8] 18 F9 C8 4B BF 0F 1C 58
1506533700.839743,can1 0CFE6E0B [8] 00 00 00 00 00 00 00 00
1506533700.840219,can1 18FEBF0B [8] 51 5C F2 19 40 43 DD 70
1506533700.840746,can1 0CFE6E0B [8] 00 00 00 00 00 00 00 00
1506533700.841236,can1 18FEBF0B [8] 89 26 47 0F D5 65 1F 6A
1506533700.841705,can1 18FEBF0B [8] A8 43 D8 57 09 8E B1 18
1506533700.844384,can1 18FEBF0B [8] C3 7F F6 77 C2 C0 50 7E
1506533700.845017,can1 18FEBF0B [8] 2E 31 C5 28 42 0F C0 1B
1506533700.845524,can1 18FEBF0B [8] D5 7A 18 08 6A 99 F7 0F
1506533700.846012,can1 18FEBF0B [8] F5 53 ED 2C A8 B0 87 5A
1506533700.846553,can1 18FEBF0B [8] D8 2D BC 49 5A 41 18 1C
1506533700.847066,can1 18FEBF0B [8] 4D E5 20 5E 22 5D 43 02
1506533700.847537,can1 18FEBF0B [8] A2 5E 13 56 F5 6A 33 51
1506533700.847949,can1 18FEBF0B [8] 96 7D 0D 17 78 C0 D1 52
1506533700.848473,can1 18FEBF0B [8] 83 72 F5 0A 3D 73 21 2E
1506533700.848971,can1 18FEF131 [8] 00 00 00 00 00 00 00 00
1506533700.849382,can1 18FEBF0B [8] BD BB 47 58 C2 4F F7 33
1506533700.849867,can1 18FEBF0B [8] 9D E4 6E 0D 31 7E 1F 4A
1506533700.850369,can1 18FEBF0B [8] FB BA 0B 01 9E C1 D2 6E
1506533700.850813,can1 18FEBF0B [8] 88 97 EE 6A 6B 4A 04 0E
1506533700.851305,can1 18FEBF0B [8] BD A1 FE 13 6C CE FC 04
1506533700.851717,can1 0CFE6E0B [8] 00 00 00 00 00 00 00 00
1506533700.854392,can1 18FEBF0B [8] 34 C3 82 4B 4E D0 77 4D
1506533700.854903,can1 18FEBF0B [8] 8A BC 40 0F 2A 17 70 78
1506533700.855425,can1 18FEBF0B [8] 95 F9 AC 6E F1 A2 A7 6B
1506533700.855913,can1 18FEBF0B [8] 0E 59 AD 0D EB 4F D3 04
1506533700.856416,can1 18FEBF0B [8] 25 3C 5F 7A 86 A7 8E 3B
1506533700.856931,can1 18FEBF0B [8] 98 26 DB 65 D7 14 F7 3E
1506533700.85735,can1 18FEBF0B [8] F4 62 DD 14 D4 55 AD 61
1506533700.857836,can1 18FEBF0B [8] 07 C2 B7 31 E1 1D 88 72
1506533700.858351,can1 18F0010B [8] CF FF F0 FF FF DC FF FF
1506533700.858801,can1 18FEBF0B [8] 26 3D F6 0A B6 B8 99 3F
1506533700.85929,can1 18FEBF0B [8] 17 08 67 34 96 9F 67 65
1506533700.859693,can1 18FEBF0B [8] 6C CA EA 35 8A 14 79 7F
1506533700.860215,can1 18FEBF0B [8] 76 75 01 32 46 F4 66 4C
1506533700.860698,can1 18FEBF0B [8] 8D 02 DB 2A 69 0E 8A 19
1506533700.861185,can1 18FEBF0B [8] DB CA 55 75 E1 36 59 57
1506533700.861586,can1 18FEBF0B [8] F3 D7 6B 21 15 5C E1 5F
1506533700.864806,can1 18FEBF0B [8] AF 27 79 09 B5 C8 51 26
1506533700.865381,can1 18FEBF0B [8] FD 1B DF 70 2E 67 12 29
1506533700.865885,can1 18FEBF0B [8] 66 B2 9A 0C BC AF 38 14
1506533700.866464,can1 18FEBF0B [8] 80 3B FC 1F 32 CA 23 10
1506533700.866952,can1 18FEBF0B [8] 3E AD CF 69 99 FD C6 03
1506533700.867437,can1 18FEBF0B [8] 48 A5 98 41 58 FE BA 05
1506533700.86796,can1 18FEBF0B [8] 45 5B 07 5F 33 04 8B 1D
1506533700.868457,can1 18FEBF0B [8] 41 7A 2D 0F DA 82 3A 15
1506533700.868934,can1 18FEBF0B [8] 25 17 AB 74 96 C4 5A 4D
1506533700.869357,can1 0CFE6E0B [8] 00 00 00 00 00 00 00 00
1506533700.869885,can1 18F00131 [8] 00 00 00 00 00 00 00 00
1506533700.870372,can1 18F0010B [8] 00 00 00 00 00 00 00 00
1506533700.870847,can1 18FEBF0B [8] 83 68 63 2A 07 85 54 00
1506533700.871327,can1 18FEBF0B [8] 37 35 5A 32 47 20 AD 6E
1506533700.873885,can1 18FEBF0B [8] 63 8C 38 21 DC DD 04 7F
1506533700.874506,can1 18FEBF0B [8] 6E CD B4 07 38 39 FC 36
1506533700.875039,can1 18FEBF0B [8] EC 3F E7 60 49 98 0A 7D
1506533700.875534,can1 18FEBF0B [8] 52 B9 DC 12 71 46 8E 67
1506533700.876101,can1 18FEBF0B [8] B8 CE FE 7F 5D 6F 74 18
1506533700.876598,can1 18FEBF0B [8] BC F2 1E 50 56 B3 D6 0E
1506533700.877022,can1 18FEBF0B [8] 1F A7 86 46 83 B4 D7 3E
1506533700.877497,can1 18FEBF0B [8] 1D A5 05 79 0E 3C 31 55
1506533700.878033,can1 18FEBF0B [8] 65 33 6A 32 95 90 A8 69
1506533700.878531,can1 18FEF117 [8] 00 00 00 00 00 00 00 00
1506533700.878997,can1 18FEBF0B [8] BE B9 CA 6F C0 21 73 6A
1506533700.879457,can1 18FEBF0B [8] AB 44 EC 43 43 5A A7 7A
1506533700.879997,can1 18FEBF0B [8] 32 07 B0 10 B8 3B DD 67
1506533700.880485,can1 18FEBF0B [8] 66 4E 4A 07 BC 03 BA 51
1506533700.880959,can1 18FEBF0B [8] 8A 82 E5 5A A2 A4 C8 41
1506533700.88137,can1 18FEBF0B [8] F8 87 CD 6E 69 5A 10 72
1506533700.88462,can1 18FEBF0B [8] C1 AD D8 33 69 91 99 63
1506533700.885337,can1 18FEBF0B [8] CD 5B F2 60 93 AA 5C 7D
1506533700.885981,can1 18FEBF0B [8] 10 18 C2 4B 3F 15 B4 5D
1506533700.886488,can1 18FEBF0B [8] 38 E4 7F 0D 62 D1 9E 5E
1506533700.886985,can1 18FEBF0B [8] 53 CE 90 2A 2B 7D 02 19
1506533700.887506,can1 18FEBF0B [8] AF 45 35 41 7C 9D 72 1E
1506533700.88801,can1 18FEBF0B [8] CC 84 CA 48 EF 07 DA 61
1506533700.888437,can1 18FEBF0B [8] 89 5E 3E 72 62 2B 44 33
1506533700.888909,can1 18FEBF0B [8] 9C 8F 75 72 AB D7 2F 47
1506533700.889427,can1 18FEBF0B [8] E8 54 68 2F C9 A8 88 79
1506533700.889923,can1 18FEF121 [8] 00 00 00 00 00 00 00 00
1506533700.890393,can1 18FEBF0B [8] 6D 2E 26 51 4A 0C 21 42
1506533700.890858,can1 18FEBF0B [8] 93 01 01 35 ED BD 80 6C
1506533700.891359,can1 18FEBF0B [8] BD 73 69 4E A5 CF 22 50
1506533700.891799,can1 18FEBF0B [8] 3E 00 37 23 B2 3F AD 69
1506533700.894526,can1 18FEBF0B [8] 30 DC FE 16 3C 32 FB 2A
1506533700.895067,can1 18FEBF0B [8] 77 8F 0E 1D AD CC 43 15
1506533700.895643,can1 18FEBF0B [8] F1 BF 5D 71 EF D7 25 3B
1506533700.896147,can1 18FEBF0B [8] D5 AC 7D 54 3E 6D 7A 11
1506533700.896634,can1 18FEBF0B [8] F8 F8 08 10 28 7B 0E 7F
1506533700.897107,can1 18FEBF0B [8] 46 A6 65 0F 94 D6 B2 51
1506533700.897648,can1 18FEBF0B [8] 50 EF 7B 45 8D 2C 65 4E
1506533700.898122,can1 18FEBF0B [8] 42 0E 0F 29 06 58 41 71
1506533700.898596,can1 18FEBF0B [8] 97 6D 5B 0B 74 B8 2A 6D
1506533700.899008,can1 18FEBF0B [8] B4 49 BA 29 B6 F3 04 6E
1506533700.899543,can1 18FEBF0B [8] 68 AF D4 35 FA 9F 93 3E
1506533700.900021,can1 18FEF128 [8] 00 00 00 00 00 00 00 00
1506533700.900484,can1 18FEBF0B [8] 54 62 9B 48 61 BF 53 33
1506533700.900942,can1 18E00017 [8] 00 00 00 00 00 00 00 00
1506533700.901469,can1 18FEBF0B [8] 36 CD 86 44 5A 56 6C 17
1506533700.90409,can1 18E00021 [8] 00 00 00 00 00 00 00 00
1506533700.904688,can1 18E00028 [8] 00 00 00 00 00 00 00 00
1506533700.905283,can1 18FEBF0B [8] A0 89 D6 21 6D C5 6C 25
1506533700.905784,can1 18E00031 [8] 00 00 00 00 00 00 00 00
1506533700.906266,can1 18FEBF0B [8] BC 3B C9 16 F3 8B 8F 72
1506533700.906733,can1 18FEBF0B [8] E3 AE CF 26 C7 B3 10 33
1506533700.907271,can1 18FEBF0B [8] DF 69 41 38 0A 38 CD 3D
1506533700.907705,can1 18FEBF0B [8] 15 89 A7 41 C9 BE 87 73
1506533700.908184,can1 18FEBF0B [8] 6D DF F8 5D 5B 2F 0D 51
1506533700.908654,can1 18FEBF0B [8] D4 6A E3 5F 9F 9E E4 50
1506533700.909173,can1 18FEBF0B [8] FE B5 66 0C 7A 50 EE 00
1506533700.909659,can1 18FEBF0B [8] C6 CB BC 51 07 75 A1 2F
1506533700.910128,can1 18FEBF0B [8] EA 3D C4 16 54 FE 06 71
1506533700.910597,can1 18FEBF0B [8] 7F 06 F0 54 14 F6 D8 3A
1506533700.911119,can1 18FEBF0B [8] 0D 33 CE 19 4E 03 56 6E
1506533700.911549,can1 18FEF017 [8] 00 00 00 00 00 00 00 00
1506533700.91418,can1 18FEBF0B [8] 46 31 46 6C 5A 8E 04 73
1506533700.914866,can1 18FEBF0B [8] EC 00 01 7E E2 60 06 60
1506533700.915351,can1 18FEBF0B [8] D9 56 E6 30 CF 1C 89 1F
1506533700.915851,can1 18FEBF0B [8] B4 88 C6 1C CC 7A 72 68
1506533700.916322,can1 18FEBF0B [8] 2B 4D 20 4C 3B 71 3F 3B
1506533700.917374,can1 18FEBF0B [8] BC D8 BE 70 B0 72 D9 70
1506533700.917991,can1 18FEBF0B [8] 87 13 20 6D F7 03 C8 12
1506533700.918515,can1 18FEBF0B [8] BD 0A FC 14 1D 10 08 21
1506533700.919122,can1 18FEBF0B [8] 65 95 CB 6D 91 75 DF 74
1506533700.91963,can1 18FEBF0B [8] 79 86 46 1E AF A5 B3 0C
1506533700.920104,can1 18FEBF0B [8] 57 93 1F 5F 12 DE E7 5F
1506533700.920566,can1 18FEBF0B [8] B9 14 4D 2E D5 78 AD 12
1506533700.921116,can1 18FEBF0B [8] EB A7 BB 19 F8 91 9B 25
1506533700.921593,can1 18FEBF0B [8] 57 45 D5 43 6E 12 0A 01
1506533700.924263,can1 18FEBF0B [8] E5 BB BD 6E 7B CB 6B 2E
1506533700.924916,can1 18FEF021 [8] 00 00 00 00 00 00 00 00
1506533700.925434,can1 18FEBF0B [8] D5 DE BC 3A 46 A5 46 10
1506533700.925924,can1 18FEBF0B [8] D1 0C 08 13 57 C6 00 2D
1506533700.926404,can1 18FEBF0B [8] 06 2F 66 75 E0 22 B3 6A
1506533700.926958,can1 18FEBF0B [8] 03 F7 4B 47 E7 51 66 51
1506533700.927375,can1 18FEBF0B [8] 81 C2 D8 30 19 69 77 15
1506533700.927842,can1 18FEBF0B [8] 32 68 63 73 32 34 55 68
1506533700.928318,can1 18FEBF0B [8] 92 0F 50 7B AB EE A9 11
1506533700.928855,can1 18FEBF0B [8] C6 EB 09 2F A1 C1 58 5A
1506533700.929333,can1 18FEBF0B [8] 3D 4F 66 28 B4 57 14 5B
1506533700.929795,can1 18FEBF0B [8] D7 BB F9 20 69 9F A6 3B
1506533700.930257,can1 18FEBF0B [8] EC FE FF 24 C6 FC 81 4D
