1531493169.076078,can0 08FF0001 [8] 00 00 00 00 00 00 00 00
1531493169.103381,can0 0CF00203 [8] 00 00 00 00 00 00 00 00
1531493169.104284,can0 08FF0303 [8] 00 00 00 00 00 00 00 00
1531493169.104951,can0 08FF0001 [8] 00 00 00 00 00 00 00 00
1531493169.105426,can0 0CF00203 [8] 00 00 00 00 00 00 00 00
1531493169.113018,can0 08FF0303 [8] 00 00 00 00 00 00 00 00
1531493169.113686,can0 08FF0001 [8] 00 00 00 00 00 00 00 00
1531493169.114172,can0 0CF00203 [8] 00 00 00 00 00 00 00 00
1531493169.114612,can0 08FF0303 [8] 00 00 00 00 00 00 00 00
1531493169.115095,can0 18F00503 [8] 00 00 00 00 00 00 00 00
1531493169.123934,can0 08FF0001 [8] 00 00 00 00 00 00 00 00
1531493169.124579,can0 0CF00203 [8] 00 00 00 00 00 00 00 00
1531493169.131629,can0 08FF0303 [8] 00 00 00 00 00 00 00 00
1531493169.132293,can0 08FF0001 [8] 00 00 00 00 00 00 00 00
1531493169.13278,can0 0CF00203 [8] 00 00 00 00 00 00 00 00
1531493169.133332,can0 08FF0303 [8] 00 00 00 00 00 00 00 00
1531493169.133767,can0 08FF0001 [8] 00 00 00 00 00 00 00 00
1531493169.134182,can0 0CF00203 [8] 00 00 00 00 00 00 00 00
1531493169.134579,can0 08FF0303 [8] 00 00 00 00 00 00 00 00
1531493169.140145,can0 08FF0001 [8] 00 00 00 00 00 00 00 00
1531493169.141017,can0 0CF00203 [8] 00 00 00 00 00 00 00 00
1531493169.141591,can0 08FF0303 [8] 00 00 00 00 00 00 00 00
1531493169.142111,can0 08FF0001 [8] 00 00 00 00 00 00 00 00
1531493169.146633,can0 0CF00203 [8] 00 00 00 00 00 00 00 00
1531493169.147318,can0 08FF0303 [8] 00 00 00 00 00 00 00 00
1531493169.147907,can0 08FF0001 [8] 00 00 00 00 00 00 00 00
1531493169.148545,can0 0CF00203 [8] 00 00 00 00 00 00 00 00
1531493169.149128,can0 08FF0303 [8] 00 00 00 00 00 00 00 00
1531493169.149637,can0 08FF0001 [8] 00 00 00 00 00 00 00 00
1531493169.150164,can0 0CF00203 [8] 00 00 00 00 00 00 00 00
1531493169.154713,can0 08FF0303 [8] 00 00 00 00 00 00 00 00
1531493169.155253,can0 08FF0001 [8] 00 00 00 00 00 00 00 00
1531493169.155693,can0 0CF00203 [8] 00 00 00 00 00 00 00 00
1531493169.156108,can0 08FF0303 [8] 00 00 00 00 00 00 00 00
1531493169.156608,can0 08FF0001 [8] 00 00 00 00 00 00 00 00
1531493169.15703,can0 0CF00203 [8] 00 00 00 00 00 00 00 00
1531493169.157557,can0 08FF0303 [8] 00 00 00 00 00 00 00 00
1531493169.158069,can0 08FF0001 [8] 00 00 00 00 00 00 00 00
1531493169.162654,can0 0CF00203 [8] 00 00 00 00 00 00 00 00
1531493169.163234,can0 08FF0303 [8] 00 00 00 00 00 00 00 00
1531493169.163748,can0 08FF0001 [8] 00 00 00 00 00 00 00 00
1531493169.164303,can0 0CF00203 [8] 00 00 00 00 00 00 00 00
1531493169.164757,can0 08FF0303 [8] 00 00 00 00 00 00 00 00
1531493169.165256,can0 08FF0001 [8] 00 00 00 00 00 00 00 00
1531493169.165732,can0 0CF00203 [8] 00 00 00 00 00 00 00 00
1531493169.170314,can0 08FF0303 [8] 00 00 00 00 00 00 00 00
1531493169.170909,can0 08FF0001 [8] 00 00 00 00 00 00 00 00
1531493169.171445,can0 0CF00203 [8] 00 00 00 00 00 00 00 00
1531493169.172015,can0 08FF0303 [8] 00 00 00 00 00 00 00 00
1531493169.17247,can0 08FF0001 [8] 00 00 00 00 00 00 00 00
1531493169.172889,can0 0CF00203 [8] 00 00 00 00 00 00 00 00
1531493169.17329,can0 08FF0303 [8] 00 00 00 00 00 00 00 00
1531493169.17368,can0 08FF0001 [8] 00 00 00 00 00 00 00 00
1531493169.178274,can0 0CF00203 [8] 00 00 00 00 00 00 00 00
1531493169.17891,can0 08FF0303 [8] 00 00 00 00 00 00 00 00
1531493169.179482,can0 08FF0001 [8] 00 00 00 00 00 00 00 00
1531493169.180235,can0 0CF00203 [8] 00 00 00 00 00 00 00 00
1531493169.180835,can0 08FF0303 [8] 00 00 00 00 00 00 00 00
1531493169.181278,can0 08FF0001 [8] 00 00 00 00 00 00 00 00
1531493169.185838,can0 0CF00203 [8] 00 00 00 00 00 00 00 00
1531493169.186421,can0 08FF0303 [8] 00 00 00 00 00 00 00 00
1531493169.186881,can0 18F00503 [8] 00 00 00 00 00 00 00 00
1531493169.187401,can0 08FF0001 [8] 00 00 00 00 00 00 00 00
1531493169.188002,can0 0CF00203 [8] 00 00 00 00 00 00 00 00
1531493169.188567,can0 08FF0303 [8] 00 00 00 00 00 00 00 00
1531493169.189061,can0 08FF0001 [8] 00 00 00 00 00 00 00 00
1531493169.193627,can0 0CF00203 [8] 00 00 00 00 00 00 00 00
1531493169.194148,can0 08FF0303 [8] 00 00 00 00 00 00 00 00
1531493169.194593,can0 08FF0001 [8] 00 00 00 00 00 00 00 00
1531493169.195002,can0 0CF00203 [8] 00 00 00 00 00 00 00 00
1531493169.195478,can0 08FF0303 [8] 00 00 00 00 00 00 00 00
1531493169.195908,can0 18F00503 [8] 00 00 00 00 00 00 00 00
1531493169.196315,can0 08FF0001 [8] 00 00 00 00 00 00 00 00
1531493169.196716,can0 0CF00203 [8] 00 00 00 00 00 00 00 00
1531493169.199529,can0 08FF0303 [8] 00 00 00 00 00 00 00 00
1531493169.200372,can0 08FF0001 [8] 00 00 00 00 00 00 00 00
1531493169.20088,can0 0CF00203 [8] 00 00 00 00 00 00 00 00
1531493169.203627,can0 08FF0303 [8] 00 00 00 00 00 00 00 00
1531493169.204251,can0 08FF0001 [8] 00 00 00 00 00 00 00 00
1531493169.204721,can0 0CF00203 [8] 00 00 00 00 00 00 00 00
1531493169.205225,can0 08FF0303 [8] 00 00 00 00 00 00 00 00
1531493169.205734,can0 08FF0001 [8] 00 00 00 00 00 00 00 00
1531493169.206167,can0 0CF00203 [8] 00 00 00 00 00 00 00 00
1531493169.206574,can0 08FF0303 [8] 00 00 00 00 00 00 00 00
1531493169.20697,can0 08FF0001 [8] 00 00 00 00 00 00 00 00
1531493169.211519,can0 0CF00203 [8] 00 00 00 00 00 00 00 00
1531493169.212003,can0 08FF0303 [8] 00 00 00 00 00 00 00 00
1531493169.212439,can0 08FF0001 [8] 00 00 00 00 00 00 00 00
1531493169.212843,can0 0CF00203 [8] 00 00 00 00 00 00 00 00
1531493169.213351,can0 08FF0303 [8] 00 00 00 00 00 00 00 00
1531493169.213771,can0 08FF0001 [8] 00 00 00 00 00 00 00 00
1531493169.214174,can0 0CF00203 [8] 00 00 00 00 00 00 00 00
1531493169.214568,can0 08FF0303 [8] 00 00 00 00 00 00 00 00
1531493169.219153,can0 08FF0001 [8] 00 00 00 00 00 00 00 00
1531493169.219883,can0 0CF00203 [8] 00 00 00 00 00 00 00 00
1531493169.220437,can0 08FF0303 [8] 00 00 00 00 00 00 00 00
1531493169.220957,can0 08FF0001 [8] 00 00 00 00 00 00 00 00
1531493169.221402,can0 0CF00203 [8] 00 00 00 00 00 00 00 00
1531493169.221814,can0 08FF0303 [8] 00 00 00 00 00 00 00 00
1531493169.222215,can0 08FF0001 [8] 00 00 00 00 00 00 00 00
1531493169.222603,can0 0CF00203 [8] 00 00 00 00 00 00 00 00
1531493169.225026,can0 08FF0303 [8] 00 00 00 00 00 00 00 00
1531493169.225499,can0 08FF0001 [8] 00 00 00 00 00 00 00 00
1531493169.225923,can0 0CF00203 [8] 00 00 00 00 00 00 00 00
1531493169.226327,can0 08FF0303 [8] 00 00 00 00 00 00 00 00
1531493169.226797,can0 08FF0001 [8] 00 00 00 00 00 00 00 00
1531493169.230393,can0 0CF00203 [8] 00 00 00 00 00 00 00 00
1531493169.231,can0 08FF0303 [8] 00 00 00 00 00 00 00 00
1531493169.231447,can0 08FF0001 [8] 00 00 00 00 00 00 00 00
1531493169.231861,can0 0CF00203 [8] 00 00 00 00 00 00 00 00
1531493169.23226,can0 08FF0303 [8] 00 00 00 00 00 00 00 00
1531493169.232741,can0 08FF0001 [8] 00 00 00 00 00 00 00 00
1531493169.233168,can0 0CF00203 [8] 00 00 00 00 00 00 00 00
1531493169.233573,can0 08FF0303 [8] 00 00 00 00 00 00 00 00
1531493169.233971,can0 08FF0001 [8] 00 00 00 00 00 00 00 00
1531493169.234358,can0 0CF00203 [8] 00 00 00 00 00 00 00 00
1531493169.234829,can0 08FF0303 [8] 00 00 00 00 00 00 00 00
1531493169.242499,can0 08FF0001 [8] 00 00 00 00 00 00 00 00
1531493169.243121,can0 0CF00203 [8] 00 00 00 00 00 00 00 00
1531493169.243591,can0 08FF0303 [8] 00 00 00 00 00 00 00 00
1531493169.244097,can0 08FF0001 [8] 00 00 00 00 00 00 00 00
1531493169.244655,can0 0CF00203 [8] 00 00 00 00 00 00 00 00
1531493169.245149,can0 08FF0303 [8] 00 00 00 00 00 00 00 00
1531493169.245616,can0 18F00503 [8] 00 00 00 00 00 00 00 00
1531493169.250346,can0 08FF0001 [8] 00 00 00 00 00 00 00 00
1531493169.250951,can0 0CF00203 [8] 00 00 00 00 00 00 00 00
1531493169.251413,can0 08FF0303 [8] 00 00 00 00 00 00 00 00
1531493169.251833,can0 08FF0001 [8] 00 00 00 00 00 00 00 00
1531493169.252339,can0 0CF00203 [8] 00 00 00 00 00 00 00 00
1531493169.252756,can0 08FF0303 [8] 00 00 00 00 00 00 00 00
1531493169.257603,can0 08FF0001 [8] 00 00 00 00 00 00 00 00
1531493169.258352,can0 0CF00203 [8] 00 00 00 00 00 00 00 00
1531493169.258955,can0 08FF0303 [8] 00 00 00 00 00 00 00 00
1531493169.259514,can0 18F00503 [8] 00 00 00 00 00 00 00 00
1531493169.260128,can0 08FF0001 [8] 00 00 00 00 00 00 00 00
1531493169.117837,can1 0CF00400 [8] 38 FE FE FE FE 00 FF FE
1531493169.126004,can1 0CF00203 [8] FF 00 00 FF FF AD 47 03
1531493169.129302,can1 0CF00300 [8] D1 00 FE FF FF FF 00 FF
1531493169.130144,can1 14FFA000 [8] FC FF FF FF FF FF FF FF
1531493169.130757,can1 18FEF200 [8] 00 00 00 00 00 00 FF FF
1531493169.135317,can1 0CFE6E0B [8] 00 00 00 00 00 00 00 00
1531493169.135804,can1 0CF00400 [8] 38 FE FE FE FE 00 FF FE
1531493169.136229,can1 0CF00203 [8] FF 00 00 FF FF AD 47 03
1531493169.136633,can1 0CFE6E0B [8] 00 00 00 00 00 00 00 00
1531493169.137253,can1 18FEDF00 [8] FE FE FE FF FE FF BF FF
1531493169.137827,can1 18F0010B [8] CF FF F0 FF FF DC FF FF
1531493169.138371,can1 0CF00400 [8] 38 FE FE FE FE 00 FF FE
1531493169.14298,can1 1CEBFF00 [8] 01 47 FF 71 02 0D 01 3F
1531493169.143621,can1 0CF00203 [8] FF 00 00 FF FF AD 47 03
1531493169.144149,can1 18FEBF0B [8] 00 00 7D 7D 7D 7D FF FF
1531493169.144716,can1 0CFE6E0B [8] 00 00 00 00 00 00 00 00
1531493169.14519,can1 0CF00400 [8] 38 FE FE FE FE 00 FF FE
1531493169.145703,can1 0CF00203 [8] FF 00 00 FF FF AD 47 03
1531493169.146207,can1 0CFE6E0B [8] 00 00 00 00 00 00 00 00
1531493169.150785,can1 18F00131 [8] 00 00 00 00 00 00 00 00
1531493169.151316,can1 18F0010B [8] 00 00 00 00 00 00 00 00
1531493169.151754,can1 18FEF000 [8] FF FF FF 00 00 FC 00 FF
1531493169.152169,can1 18FEF117 [8] 00 00 00 00 00 00 00 00
1531493169.152661,can1 18FEF128 [8] 00 00 00 00 00 00 00 00
1531493169.153085,can1 18FEF121 [8] 00 00 00 00 00 00 00 00
1531493169.153482,can1 18FEF131 [8] 00 00 00 00 00 00 00 00
1531493169.1539,can1 18E00017 [8] 00 00 00 00 00 00 00 00
1531493169.158284,can1 18E00019 [8] 00 00 00 00 00 00 00 00
1531493169.158957,can1 18E00021 [8] 00 00 00 00 00 00 00 00
1531493169.159532,can1 18E00028 [8] 00 00 00 00 00 00 00 00
1531493169.160088,can1 18E00031 [8] 00 00 00 00 00 00 00 00
1531493169.160788,can1 18FEF017 [8] 00 00 00 00 00 00 00 00
1531493169.161374,can1 18FEF021 [8] 00 00 00 00 00 00 00 00
1531493169.161817,can1 18FEF028 [8] 00 00 00 00 00 00 00 00
1531493169.166358,can1 0CF00400 [8] 38 FE FE FE FE 00 FF FE
1531493169.166941,can1 18FEF031 [8] 00 00 00 00 00 00 00 00
1531493169.167521,can1 0CF00203 [8] FF 00 00 FF FF AD 47 03
1531493169.168122,can1 18FEE000 [8] A2 01 00 00 A2 01 00 00
1531493169.168677,can1 0CFE6E0B [8] 00 00 00 00 00 00 00 00
1531493169.169207,can1 18F00131 [8] 00 00 00 00 00 00 00 00
1531493169.169726,can1 0CF00400 [8] 38 FE FE FE FE 00 FF FE
1531493169.174209,can1 18F0010B [8] 00 00 00 00 00 00 00 00
1531493169.174715,can1 0CF00203 [8] FF 00 00 FF FF AD 47 03
1531493169.175141,can1 0CFE6E0B [8] 00 00 00 00 00 00 00 00
1531493169.175559,can1 0CF00300 [8] D1 00 FE FF FF FF 00 FF
1531493169.176035,can1 18FEF117 [8] 00 00 00 00 00 00 00 00
1531493169.176463,can1 18FEF100 [8] C3 00 00 D0 00 00 00 30
1531493169.176869,can1 18FEF121 [8] 00 00 00 00 00 00 00 00
1531493169.177368,can1 18FEF128 [8] 00 00 00 00 00 00 00 00
1531493169.181832,can1 18FEF131 [8] 00 00 00 00 00 00 00 00
1531493169.182383,can1 18E00017 [8] 00 00 00 00 00 00 00 00
1531493169.182831,can1 18E00019 [8] 00 00 00 00 00 00 00 00
1531493169.183238,can1 18E00021 [8] 00 00 00 00 00 00 00 00
1531493169.183702,can1 18E00028 [8] 00 00 00 00 00 00 00 00
1531493169.184141,can1 18E00031 [8] 00 00 00 00 00 00 00 00
1531493169.184546,can1 18FEF017 [8] 00 00 00 00 00 00 00 00
1531493169.184942,can1 18FEF021 [8] 00 00 00 00 00 00 00 00
1531493169.185332,can1 0CF00400 [8] 38 FE FE FE FE 00 FF FE
1531493169.189852,can1 18FEF028 [8] 00 00 00 00 00 00 00 00
1531493169.190461,can1 0CF00203 [8] FF 00 00 FF FF AD 47 03
1531493169.190928,can1 18FEF031 [8] 00 00 00 00 00 00 00 00
1531493169.191346,can1 18FEDF00 [8] FE FE FE FF FE FF BF FF
1531493169.191848,can1 18FE4A03 [8] FF FF F3 FF F0 F7 FF FF
1531493169.19226,can1 18F00503 [8] FF 57 9E FF 20 2D 2D 2D
1531493169.192658,can1 0CFE6E0B [8] 00 00 00 00 00 00 00 00
1531493169.193045,can1 0CF00400 [8] 38 FE FE FE FE 00 FF FE
1531493169.198409,can1 1CEBFF00 [8] 02 0A 08 7F 5B 00 08 01
1531493169.201431,can1 0CFE6E0B [8] 00 00 00 00 00 00 00 00
1531493169.202015,can1 0CF00203 [8] FF 00 00 FF FF AD 47 03
1531493169.202473,can1 18F00100 [8] FF FF FF FF FA FF FF FF
1531493169.207135,can1 0CF00400 [8] 38 FE FE FE FE 00 FF FE
1531493169.207826,can1 0CF00203 [8] FF 00 00 FF FF AD 47 03
1531493169.208445,can1 18F0000F [8] 00 7D FF FF 0F 7D FF FF
1531493169.209069,can1 0CFE6E0B [8] 00 00 00 00 00 00 00 00
1531493169.209645,can1 0CF00400 [8] 38 FE FE FE FE 00 FF FE
1531493169.210191,can1 0CF00203 [8] FF 00 00 FF FF AD 47 03
1531493169.210729,can1 0CFE6E0B [8] 00 00 00 00 00 00 00 00
1531493169.21519,can1 18FF3000 [8] 00 00 FF FF FF FF FF FF
1531493169.215694,can1 0CF00400 [8] 38 FE FE FE FE 00 FF FE
1531493169.216124,can1 0CF00203 [8] FF 00 00 FF FF AD 47 03
1531493169.216532,can1 0CF00300 [8] D1 00 FE FF FF FF 00 FF
1531493169.217036,can1 14FFA000 [8] FC FF FF FF FF FF FF FF
1531493169.217611,can1 18FEF200 [8] 00 00 00 00 00 00 FF FF
1531493169.218168,can1 0CFE6E0B [8] 00 00 00 00 00 00 00 00
1531493169.218701,can1 0CF00400 [8] 38 FE FE FE FE 00 FF FE
1531493169.223256,can1 0CF00203 [8] FF 00 00 FF FF AD 47 03
1531493169.223726,can1 0CFE6E0B [8] 00 00 00 00 00 00 00 00
1531493169.224149,can1 18FEDF00 [8] FE FE FE FF FE FF BF FF
1531493169.227517,can1 18F0010B [8] CF FF F0 FF FF DC FF FF
1531493169.228336,can1 0CF00400 [8] 38 FE FE FE FE 00 FF FE
1531493169.22905,can1 1CEBFF00 [8] 03 71 02 0E 08 73 0C 09
1531493169.229633,can1 0CF00203 [8] FF 00 00 FF FF AD 47 03
1531493169.237562,can1 18FEBF0B [8] 00 00 7D 7D 7D 7D FF FF
1531493169.238236,can1 0CFE6E0B [8] 00 00 00 00 00 00 00 00
1531493169.238895,can1 0CF00400 [8] 38 FE FE FE FE 00 FF FE
1531493169.239474,can1 0CF00203 [8] FF 00 00 FF FF AD 47 03
1531493169.240013,can1 0CFE6E0B [8] 00 00 00 00 00 00 00 00
1531493169.240609,can1 18F00131 [8] 00 00 00 00 00 00 00 00
1531493169.241148,can1 18F0010B [8] 00 00 00 00 00 00 00 00
1531493169.241622,can1 18FEF000 [8] FF FF FF 00 00 FC 00 FF
1531493169.242097,can1 18FEF117 [8] 00 00 00 00 00 00 00 00
1531493169.246506,can1 18FEF128 [8] 00 00 00 00 00 00 00 00
1531493169.24707,can1 18FEF121 [8] 00 00 00 00 00 00 00 00
1531493169.247675,can1 18FEF131 [8] 00 00 00 00 00 00 00 00
1531493169.248353,can1 18E00017 [8] 00 00 00 00 00 00 00 00
1531493169.248918,can1 18E00019 [8] 00 00 00 00 00 00 00 00
1531493169.249413,can1 18E00021 [8] 00 00 00 00 00 00 00 00
1531493169.249947,can1 18E00028 [8] 00 00 00 00 00 00 00 00
1531493169.253568,can1 18E00031 [8] 00 00 00 00 00 00 00 00
1531493169.254093,can1 18FEF017 [8] 00 00 00 00 00 00 00 00
1531493169.25455,can1 18FEF021 [8] 00 00 00 00 00 00 00 00
1531493169.254969,can1 18FEF028 [8] 00 00 00 00 00 00 00 00
1531493169.255367,can1 0CF00400 [8] 38 FE FE FE FE 00 FF FE
1531493169.255761,can1 18FEF031 [8] 00 00 00 00 00 00 00 00
1531493169.256236,can1 0CF00203 [8] FF 00 00 FF FF AD 47 03
1531493169.256639,can1 18FEE000 [8] A2 01 00 00 A2 01 00 00
1531493169.262105,can1 0CFE6E0B [8] 00 00 00 00 00 00 00 00
1531493169.262791,can1 18F00131 [8] 00 00 00 00 00 00 00 00
1531493169.263335,can1 0CF00400 [8] 38 FE FE FE FE 00 FF FE
1531493169.263905,can1 18F0010B [8] 00 00 00 00 00 00 00 00
1531493169.264429,can1 0CF00203 [8] FF 00 00 FF FF AD 47 03
1531493169.264919,can1 0CFE6E0B [8] 00 00 00 00 00 00 00 00
1531493169.265345,can1 0CF00300 [8] D1 00 FE FF FF FF 00 FF
1531493169.266891,can1 18FEF117 [8] 00 00 00 00 00 00 00 00
1531493169.271442,can1 18FEF100 [8] C3 00 00 D0 00 00 00 30
1531493169.272115,can1 18FEF121 [8] 00 00 00 00 00 00 00 00
1531493169.272643,can1 18FEF128 [8] 00 00 00 00 00 00 00 00
1531493169.273087,can1 18FEF131 [8] 00 00 00 00 00 00 00 00
1531493169.273561,can1 18E00017 [8] 00 00 00 00 00 00 00 00
1531493169.273995,can1 18E00019 [8] 00 00 00 00 00 00 00 00
1531493169.274403,can1 18E00021 [8] 00 00 00 00 00 00 00 00
1531493169.274837,can1 18E00028 [8] 00 00 00 00 00 00 00 00
1531493169.275243,can1 18E00031 [8] 00 00 00 00 00 00 00 00
1531493169.275714,can1 18FEF017 [8] 00 00 00 00 00 00 00 00
1531493169.276132,can1 18FEF021 [8] 00 00 00 00 00 00 00 00
1531493169.277065,can1 0CF00400 [8] 38 FE FE FE FE 00 FF FE
1531493169.281758,can1 18FEF028 [8] 00 00 00 00 00 00 00 00
1531493169.282281,can1 0CF00203 [8] FF 00 00 FF FF AD 47 03
1531493169.282712,can1 18FEF031 [8] 00 00 00 00 00 00 00 00
1531493169.283119,can1 18FEDF00 [8] FE FE FE FF FE FF BF FF
1531493169.283621,can1 18FE4A03 [8] FF FF F3 FF F0 F7 FF FF
1531493169.284038,can1 18F00503 [8] FF 57 9E FF 20 2D 2D 2D
1531493169.284433,can1 18FEEF00 [8] FF FF FF FF FF FF FF FA
1531493169.284825,can1 0CFE6E0B [8] 00 00 00 00 00 00 00 00
1531493169.285282,can1 0CF00400 [8] 38 FE FE FE FE 00 FF FE
1531493169.285697,can1 1CEBFF00 [8] 04 01 6F 00 03 01 FF FF
1531493169.286101,can1 0CFE6E0B [8] 00 00 00 00 00 00 00 00
1531493169.286494,can1 0CF00203 [8] FF 00 00 FF FF AD 47 03
1531493169.286879,can1 18F00100 [8] FF FF FF FF FA FF FF FF
1531493169.291153,can1 0CF00400 [8] 38 FE FE FE FE 00 FF FE
1531493169.29171,can1 0CF00203 [8] FF 00 00 FF FF AD 47 03
1531493169.292166,can1 18F0000F [8] 00 7D FF FF 0F 7D FF FF
1531493169.301045,can1 0CFE6E0B [8] 00 00 00 00 00 00 00 00
1531493169.301598,can1 0CF00400 [8] 38 FE FE FE FE 00 FF FE
1531493169.302054,can1 0CF00203 [8] FF 00 00 FF FF AD 47 03
1531493169.303478,can1 0CFE6E0B [8] 00 00 00 00 00 00 00 00
1531493169.311315,can1 18FF3000 [8] 00 00 FF FF FF FF FF FF
1531493169.311963,can1 0CF00400 [8] 38 FE FE FE FE 00 FF FE
1531493169.312439,can1 0CF00203 [8] FF 00 00 FF FF AD 47 03
1531493169.313004,can1 0CF00300 [8] D1 00 FE FF FF FF 00 FF
1531493169.313444,can1 14FFA000 [8] FC FF FF FF FF FF FF FF
1531493169.313865,can1 18FEF200 [8] 00 00 00 00 00 00 FF FF
1531493169.318736,can1 0CFE6E0B [8] 00 00 00 00 00 00 00 00
1531493169.319414,can1 0CF00400 [8] 38 FE FE FE FE 00 FF FE
1531493169.319999,can1 0CF00203 [8] FF 00 00 FF FF AD 47 03
1531493169.320619,can1 0CFE6E0B [8] 00 00 00 00 00 00 00 00
1531493169.321068,can1 18FEDF00 [8] FE FE FE FF FE FF BF FF
1531493169.321483,can1 18FF6411 [8] F8 FF FF FF FF FF FF FF
1531493169.330438,can1 18F0010B [8] CF FF F0 FF FF DC FF FF
1531493169.331035,can1 0CF00400 [8] 38 FE FE FE FE 00 FF FE
1531493169.331497,can1 0CF00203 [8] FF 00 00 FF FF AD 47 03
1531493169.337679,can1 0CFE6E0B [8] 00 00 00 00 00 00 00 00
1531493169.338595,can1 18FEBF0B [8] 00 00 7D 7D 7D 7D FF FF
1531493169.339194,can1 0CF00400 [8] 38 FE FE FE FE 00 FF FE
1531493169.339757,can1 0CF00203 [8] FF 00 00 FF FF AD 47 03
1531493169.344364,can1 0CFE6E0B [8] 00 00 00 00 00 00 00 00
1531493169.344911,can1 18F00131 [8] 00 00 00 00 00 00 00 00
1531493169.345365,can1 18F0010B [8] 00 00 00 00 00 00 00 00
1531493169.345918,can1 18FEF000 [8] FF FF FF 00 00 FC 00 FF
1531493169.346422,can1 18FEF117 [8] 00 00 00 00 00 00 00 00
1531493169.346906,can1 18FEF128 [8] 00 00 00 00 00 00 00 00
1531493169.347418,can1 18FEF121 [8] 00 00 00 00 00 00 00 00
1531493169.355833,can1 18FEF131 [8] 00 00 00 00 00 00 00 00
1531493169.35641,can1 18E00017 [8] 00 00 00 00 00 00 00 00
1531493169.356861,can1 18E00019 [8] 00 00 00 00 00 00 00 00
1531493169.357397,can1 18E00021 [8] 00 00 00 00 00 00 00 00
1531493169.358039,can1 18E00028 [8] 00 00 00 00 00 00 00 00
1531493169.358585,can1 18E00031 [8] 00 00 00 00 00 00 00 00
1531493169.359106,can1 18FEF017 [8] 00 00 00 00 00 00 00 00
1531493169.367595,can1 18FEF021 [8] 00 00 00 00 00 00 00 00
1531493169.368317,can1 0CF00400 [8] 38 FE FE FE FE 00 FF FE
1531493169.368981,can1 18FEF028 [8] 00 00 00 00 00 00 00 00
1531493169.369631,can1 0CF00203 [8] FF 00 00 FF FF AD 47 03
1531493169.37019,can1 18FEF031 [8] 00 00 00 00 00 00 00 00
1531493169.370743,can1 14FD3E00 [8] FF FF FF FF FF FF FF FF
1531493169.377656,can1 18FEE000 [8] A2 01 00 00 A2 01 00 00
1531493169.378556,can1 0CFE6E0B [8] 00 00 00 00 00 00 00 00
1531493169.379271,can1 18F00131 [8] 00 00 00 00 00 00 00 00
1531493169.379851,can1 0CF00400 [8] 38 FE FE FE FE 00 FF FE
1531493169.380396,can1 18F0010B [8] 00 00 00 00 00 00 00 00
1531493169.380831,can1 0CF00203 [8] FF 00 00 FF FF AD 47 03
1531493169.389653,can1 0CFE6E0B [8] 00 00 00 00 00 00 00 00
1531493169.390368,can1 0CF00300 [8] D1 00 FE FF FF FF 00 FF
1531493169.390922,can1 18FEF117 [8] 00 00 00 00 00 00 00 00
1531493169.391371,can1 18FEF100 [8] C3 00 00 D0 00 00 00 30
1531493169.391792,can1 18FEF121 [8] 00 00 00 00 00 00 00 00
1531493169.392193,can1 18FEF128 [8] 00 00 00 00 00 00 00 00
1531493169.400527,can1 18FEF131 [8] 00 00 00 00 00 00 00 00
1531493169.401372,can1 18E00017 [8] 00 00 00 00 00 00 00 00
1531493169.401894,can1 18E00019 [8] 00 00 00 00 00 00 00 00
1531493169.410258,can1 18E00021 [8] 00 00 00 00 00 00 00 00
1531493169.411023,can1 18E00028 [8] 00 00 00 00 00 00 00 00
1531493169.411499,can1 18E00031 [8] 00 00 00 00 00 00 00 00
1531493169.411933,can1 18FEF017 [8] 00 00 00 00 00 00 00 00
1531493169.412444,can1 18FEF021 [8] 00 00 00 00 00 00 00 00
1531493169.412872,can1 0CF00400 [8] 38 FE FE FE FE 00 FF FE
1531493169.413277,can1 18FEF028 [8] 00 00 00 00 00 00 00 00
1531493169.413671,can1 0CF00203 [8] FF 00 00 FF FF AD 47 03
1531493169.420013,can1 18FEF031 [8] 00 00 00 00 00 00 00 00
1531493169.420736,can1 18FEDF00 [8] FE FE FE FF FE FF BF FF
1531493169.421227,can1 18FE4A03 [8] FF FF F3 FF F0 F7 FF FF
1531493169.421653,can1 18F00503 [8] FF 57 9E FF 20 2D 2D 2D
1531493169.422148,can1 0CFE6E0B [8] 00 00 00 00 00 00 00 00
1531493169.422585,can1 0CF00400 [8] 38 FE FE FE FE 00 FF FE
1531493169.423004,can1 0CF00203 [8] FF 00 00 FF FF AD 47 03
1531493169.423406,can1 0CFE6E0B [8] 00 00 00 00 00 00 00 00
1531493169.423796,can1 18F00100 [8] FF FF FF FF FA FF FF FF
1531493169.428343,can1 0CF00400 [8] 38 FE FE FE FE 00 FF FE
1531493169.428951,can1 0CF00203 [8] FF 00 00 FF FF AD 47 03
1531493169.429454,can1 18F0000F [8] 00 7D FF FF 0F 7D FF FF
1531493169.430007,can1 18FEF600 [8] FF 00 FF FF FF FF FF FF
1531493169.430504,can1 0CFE6E0B [8] 00 00 00 00 00 00 00 00
1531493169.430932,can1 0CF00400 [8] 38 FE FE FE FE 00 FF FE
1531493169.431333,can1 0CF00203 [8] FF 00 00 FF FF AD 47 03
1531493169.435269,can1 0CFE6E0B [8] 00 00 00 00 00 00 00 00
1531493169.435868,can1 18FF3000 [8] 00 00 FF FF FF FF FF FF
1531493169.43633,can1 0CF00400 [8] 38 FE FE FE FE 00 FF FE
1531493169.436749,can1 0CF00203 [8] FF 00 00 FF FF AD 47 03
1531493169.43715,can1 0CF00300 [8] D1 00 FE FF FF FF 00 FF
1531493169.441871,can1 14FFA000 [8] FC FF FF FF FF FF FF FF
1531493169.442429,can1 18FEF200 [8] 00 00 00 00 00 00 FF FF
1531493169.442937,can1 0CFE6E0B [8] 00 00 00 00 00 00 00 00
1531493169.443484,can1 0CF00400 [8] 38 FE FE FE FE 00 FF FE
1531493169.443989,can1 0CF00203 [8] FF 00 00 FF FF AD 47 03
1531493169.444473,can1 0CFE6E0B [8] 00 00 00 00 00 00 00 00
1531493169.444948,can1 18FEDF00 [8] FE FE FE FF FE FF BF FF
1531493169.445648,can1 18F0010B [8] CF FF F0 FF FF DC FF FF
1531493169.446196,can1 0CF00400 [8] 38 FE FE FE FE 00 FF FE
1531493169.4467,can1 0CF00203 [8] FF 00 00 FF FF AD 47 03
1531493169.447123,can1 0CFE6E0B [8] 00 00 00 00 00 00 00 00
1531493169.451495,can1 18FEBF0B [8] 00 00 7D 7D 7D 7D FF FF
1531493169.451991,can1 0CF00400 [8] 38 FE FE FE FE 00 FF FE
1531493169.45242,can1 0CF00203 [8] FF 00 00 FF FF AD 47 03
1531493169.452826,can1 0CFE6E0B [8] 00 00 00 00 00 00 00 00
1531493169.453294,can1 18F00131 [8] 00 00 00 00 00 00 00 00
1531493169.453724,can1 18F0010B [8] 00 00 00 00 00 00 00 00
1531493169.454134,can1 18FEF000 [8] FF FF FF 00 00 FC 00 FF
1531493169.454524,can1 18FEF117 [8] 00 00 00 00 00 00 00 00
1531493169.454913,can1 18FEF128 [8] 00 00 00 00 00 00 00 00
1531493169.455372,can1 18FEF121 [8] 00 00 00 00 00 00 00 00
1531493169.455784,can1 18FEF131 [8] 00 00 00 00 00 00 00 00
1531493169.456177,can1 18E00017 [8] 00 00 00 00 00 00 00 00
1531493169.456578,can1 18E00019 [8] 00 00 00 00 00 00 00 00
1531493169.456966,can1 18E00021 [8] 00 00 00 00 00 00 00 00
1531493169.461144,can1 18E00028 [8] 00 00 00 00 00 00 00 00
1531493169.461738,can1 18E00031 [8] 00 00 00 00 00 00 00 00
1531493169.462274,can1 18FEF017 [8] 00 00 00 00 00 00 00 00
1531493169.462769,can1 18FEF021 [8] 00 00 00 00 00 00 00 00
1531493169.463336,can1 0CF00400 [8] 38 FE FE FE FE 00 FF FE
1531493169.463822,can1 18FEF028 [8] 00 00 00 00 00 00 00 00
1531493169.261483,can0 0CF00203 [8] 00 00 00 00 00 00 00 00
1531493169.266147,can0 08FF0303 [8] 00 00 00 00 00 00 00 00
1531493169.26756,can0 08FF0001 [8] 00 00 00 00 00 00 00 00
1531493169.26829,can0 0CF00203 [8] 00 00 00 00 00 00 00 00
1531493169.269023,can0 08FF0303 [8] 00 00 00 00 00 00 00 00
