1538623867.206411,can1 0CF00400 [8] 38 FE FE FE FE 00 FF FE
1538623867.219899,can1 0CF00203 [8] FF 00 00 FF FF AD 47 03
1538623867.22177,can1 0CF00300 [8] D1 00 FE FF FF FF 00 FF
1538623867.227848,can1 18FEF100 [8] CF 00 00 D0 FF 00 00 30
1538623867.229601,can1 18F0010B [8] CF FF F0 FF FF DC FF FF
1538623867.235701,can1 0CF00400 [8] 38 FE FE FE FE 00 FF FE
1538623867.237609,can1 0CF00203 [8] FF 00 00 FF FF AD 47 03
1538623867.243232,can1 18FEDF00 [8] FE FE FE FF FE FF BF FF
1538623867.245314,can1 18FE4A03 [8] FF FF F3 FF F0 F7 FF FF
1538623867.250886,can1 18F00503 [8] FF 57 9E FF 20 2D 2D 2D
1538623867.252981,can1 18FEBF0B [8] 00 00 7D 7D 7D 7D FF FF
1538623867.258827,can1 0CF00400 [8] 38 FE FE FE FE 00 FF FE
1538623867.260605,can1 1CECFF00 [8] 20 12 00 03 FF CA FE 00
1538623867.266192,can1 0CF00203 [8] FF 00 00 FF FF AD 47 03
1538623867.267885,can1 18F00100 [8] FF FF FF FF 53 FF FF FF
1538623867.269371,can1 18DA00F1 [8] 30 08 00 00 00 00 00 00
1538623867.279128,can1 0CF00400 [8] 38 FE FE FE FE 00 FF FE
1538623867.280795,can1 0CF00203 [8] FF 00 00 FF FF AD 47 03
1538623867.286492,can1 18F0000F [8] 51 7D FF FF 0F 72 FF FF
1538623867.288086,can1 0CF00400 [8] 38 FE FE FE FE 00 FF FE
1538623867.293767,can1 0CF00203 [8] FF 00 00 FF FF AD 47 03
1538623867.295597,can1 18FF3000 [8] 00 00 FF FF FF FF FF FF
1538623867.29697,can1 0CF00400 [8] 38 FE FE FE FE 00 FF FE
1538623867.302826,can1 0CF00203 [8] FF 00 00 FF FF AD 47 03
1538623867.304811,can1 0CF00300 [8] D1 00 FE FF FF FF 00 FF
1538623867.310582,can1 14FFA000 [8] FC FF FF FF FF FF FF FF
1538623867.312248,can1 18FEF200 [8] 00 00 00 00 00 00 FF FF
1538623867.317929,can1 0CF00400 [8] 38 FE FE FE FE 00 FF FE
1538623867.319596,can1 0CF00203 [8] FF 00 00 FF FF AD 47 03
1538623867.325017,can1 18FEDF00 [8] FE FE FE FF FE FF BF FF
1538623867.32667,can1 0CF00400 [8] 38 FE FE FE FE 00 FF FE
1538623867.327999,can1 1CEBFF00 [8] 01 47 FF 71 02 0D 01 3F
1538623867.333886,can1 18DA00F1 [8] 30 08 00 00 00 00 00 00
1538623867.335418,can1 0CF00203 [8] FF 00 00 FF FF AD 47 03
1538623867.340995,can1 0CF00400 [8] 38 FE FE FE FE 00 FF FE
1538623867.342967,can1 0CF00203 [8] FF 00 00 FF FF AD 47 03
1538623867.348835,can1 18FEF000 [8] FF FF FF 00 00 FC 00 FF
1538623867.350409,can1 0CF00400 [8] 38 FE FE FE FE 00 FF FE
1538623867.356201,can1 0CF00203 [8] FF 00 00 FF FF AD 47 03
1538623867.357712,can1 18FEE000 [8] A2 01 00 00 A2 01 00 00
1538623867.359182,can1 0CF00400 [8] 38 FE FE FE FE 00 FF FE
1538623867.363876,can1 0CF00203 [8] FF 00 00 FF FF AD 47 03
1538623867.365304,can1 0CF00300 [8] D1 00 FE FF FF FF 00 FF
1538623867.366709,can1 18FEF100 [8] CF 00 00 D0 FF 00 00 30
1538623867.378428,can1 18F0010B [8] CF FF F0 FF FF DC FF FF
1538623867.380198,can1 0CF00400 [8] 38 FE FE FE FE 00 FF FE
1538623867.385693,can1 0CF00203 [8] FF 00 00 FF FF AD 47 03
1538623867.387313,can1 18FEDF00 [8] FE FE FE FF FE FF BF FF
1538623867.388773,can1 18FE4A03 [8] FF FF F3 FF F0 F7 FF FF
1538623867.394645,can1 18F00503 [8] FF 57 9E FF 20 2D 2D 2D
1538623867.396388,can1 18DA00F1 [8] 30 08 00 00 00 00 00 00
1538623867.401929,can1 18FEBF0B [8] 00 00 7D 7D 7D 7D FF FF
1538623867.40399,can1 0CF00400 [8] 38 FE FE FE FE 00 FF FE
1538623867.40965,can1 1CEBFF00 [8] 02 0A 08 01 5B 00 08 01
1538623867.411449,can1 0CF00203 [8] FF 00 00 FF FF AD 47 03
1538623867.417055,can1 18F00100 [8] FF FF FF FF 53 FF FF FF
1538623867.418778,can1 0CF00400 [8] 38 FE FE FE FE 00 FF FE
1538623867.420101,can1 0CF00203 [8] FF 00 00 FF FF AD 47 03
1538623867.425751,can1 18F0000F [8] 51 7D FF FF 0F 72 FF FF
1538623867.427252,can1 0CF00400 [8] 38 FE FE FE FE 00 FF FE
1538623867.433022,can1 0CF00203 [8] FF 00 00 FF FF AD 47 03
1538623867.434707,can1 18FF3000 [8] 00 00 FF FF FF FF FF FF
1538623867.440084,can1 18DA00F1 [8] 02 10 03 00 00 00 00 00
1538623867.441583,can1 18DAF100 [8] 06 50 03 00 14 00 C8 20
1538623867.443606,can1 0CF00400 [8] 38 FE FE FE FE 00 FF FE
1538623867.449181,can1 0CF00203 [8] FF 00 00 FF FF AD 47 03
1538623867.450794,can1 0CF00300 [8] D1 00 FE FF FF FF 00 FF
1538623867.456233,can1 14FFA000 [8] FC FF FF FF FF FF FF FF
1538623867.457804,can1 18FEF200 [8] 00 00 00 00 00 00 FF FF
1538623867.459095,can1 18DA00F1 [8] 30 08 00 00 00 00 00 00
1538623867.464773,can1 0CF00400 [8] 38 FE FE FE FE 00 FF FE
1538623867.466253,can1 0CF00203 [8] FF 00 00 FF FF AD 47 03
1538623867.470416,can1 18FEDF00 [8] FE FE FE FF FE FF BF FF
1538623867.474371,can1 0CF00400 [8] 38 FE FE FE FE 00 FF FE
1538623867.478182,can1 1CEBFF00 [8] 03 71 02 0E 02 FF FF FF
1538623867.48002,can1 0CF00203 [8] FF 00 00 FF FF AD 47 03
1538623867.481671,can1 0CF00400 [8] 38 FE FE FE FE 00 FF FE
1538623867.483499,can1 0CF00203 [8] FF 00 00 FF FF AD 47 03
1538623867.485176,can1 18FEF000 [8] FF FF FF 00 00 FC 00 FF
1538623867.486438,can1 0CF00400 [8] 38 FE FE FE FE 00 FF FE
1538623867.487916,can1 0CF00203 [8] FF 00 00 FF FF AD 47 03
1538623867.489245,can1 18FEE000 [8] A2 01 00 00 A2 01 00 00
1538623867.490687,can1 0CF00400 [8] 38 FE FE FE FE 00 FF FE
1538623867.49194,can1 0CF00203 [8] FF 00 00 FF FF AD 47 03
1538623867.493672,can1 0CF00300 [8] D1 00 FE FF FF FF 00 FF
1538623867.495128,can1 18FEF100 [8] CF 00 00 D0 FF 00 00 30
1538623867.496359,can1 18DA00F1 [8] 30 08 00 00 00 00 00 00
1538623867.497685,can1 18F0010B [8] CF FF F0 FF FF DC FF FF
1538623867.499173,can1 0CF00400 [8] 38 FE FE FE FE 00 FF FE
1538623867.500534,can1 0CF00203 [8] FF 00 00 FF FF AD 47 03
1538623867.502068,can1 18FEDF00 [8] FE FE FE FF FE FF BF FF
1538623867.503664,can1 18FE4A03 [8] FF FF F3 FF F0 F7 FF FF
1538623867.505376,can1 18F00503 [8] FF 57 9E FF 20 2D 2D 2D
1538623867.506719,can1 18FEEF00 [8] FF FF FF FF FF FF FF FA
1538623867.508076,can1 18FEBF0B [8] 00 00 7D 7D 7D 7D FF FF
1538623867.509431,can1 0CF00400 [8] 38 FE FE FE FE 00 FF FE
1538623867.511027,can1 0CF00203 [8] FF 00 00 FF FF AD 47 03
1538623867.512497,can1 18F00100 [8] FF FF FF FF 53 FF FF FF
1538623867.514136,can1 0CF00400 [8] 38 FE FE FE FE 00 FF FE
1538623867.515464,can1 0CF00203 [8] FF 00 00 FF FF AD 47 03
1538623867.516809,can1 18F0000F [8] 51 7D FF FF 0F 72 FF FF
1538623867.51812,can1 0CF00400 [8] 38 FE FE FE FE 00 FF FE
1538623867.519347,can1 0CF00203 [8] FF 00 00 FF FF AD 47 03
1538623867.520646,can1 18FF3000 [8] 00 00 FF FF FF FF FF FF
1538623867.522069,can1 18DA00F1 [8] 30 08 00 00 00 00 00 00
1538623867.523577,can1 0CF00400 [8] 38 FE FE FE FE 00 FF FE
1538623867.525162,can1 0CF00203 [8] FF 00 00 FF FF AD 47 03
1538623867.526528,can1 0CF00300 [8] D1 00 FE FF FF FF 00 FF
1538623867.528002,can1 14FFA000 [8] FC FF FF FF FF FF FF FF
1538623867.529251,can1 18FEF200 [8] 00 00 00 00 00 00 FF FF
1538623867.530727,can1 0CF00400 [8] 38 FE FE FE FE 00 FF FE
1538623867.532204,can1 0CF00203 [8] FF 00 00 FF FF AD 47 03
1538623867.533925,can1 18FEDF00 [8] FE FE FE FF FE FF BF FF
1538623867.535187,can1 18FF6411 [8] F8 FF FF FF FF FF FF FF
1538623867.536542,can1 0CF00400 [8] 38 FE FE FE FE 00 FF FE
1538623867.537867,can1 0CF00203 [8] FF 00 00 FF FF AD 47 03
1538623867.539231,can1 0CF00400 [8] 38 FE FE FE FE 00 FF FE
1538623867.540577,can1 0CF00203 [8] FF 00 00 FF FF AD 47 03
1538623867.542159,can1 18FEF000 [8] FF FF FF 00 00 FC 00 FF
1538623867.543867,can1 0CF00400 [8] 38 FE FE FE FE 00 FF FE
1538623867.545494,can1 0CF00203 [8] FF 00 00 FF FF AD 47 03
1538623867.546766,can1 14FD3E00 [8] FF FF FF FF FF FF FF FF
1538623867.548279,can1 18DA00F1 [8] 30 08 00 00 00 00 00 00
1538623867.549612,can1 18FEE000 [8] A2 01 00 00 A2 01 00 00
1538623867.550979,can1 0CF00400 [8] 38 FE FE FE FE 00 FF FE
1538623867.552601,can1 0CF00203 [8] FF 00 00 FF FF AD 47 03
1538623867.554082,can1 0CF00300 [8] D1 00 FE FF FF FF 00 FF
1538623867.555418,can1 18FEF100 [8] CF 00 00 D0 FF 00 00 30
1538623867.556831,can1 18F0010B [8] CF FF F0 FF FF DC FF FF
1538623867.558196,can1 0CF00400 [8] 38 FE FE FE FE 00 FF FE
1538623867.559528,can1 0CF00203 [8] FF 00 00 FF FF AD 47 03
1538623867.560748,can1 18FEDF00 [8] FE FE FE FF FE FF BF FF
1538623867.562215,can1 18FE4A03 [8] FF FF F3 FF F0 F7 FF FF
1538623867.563682,can1 18F00503 [8] FF 57 9E FF 20 2D 2D 2D
1538623867.565002,can1 18FEBF0B [8] 00 00 7D 7D 7D 7D FF FF
1538623867.567703,can1 0CF00400 [8] 38 FE FE FE FE 00 FF FE
1538623867.569283,can1 0CF00203 [8] FF 00 00 FF FF AD 47 03
1538623867.570586,can1 18F00100 [8] FF FF FF FF 53 FF FF FF
1538623867.578052,can1 0CF00400 [8] 38 FE FE FE FE 00 FF FE
1538623867.578736,can1 0CF00203 [8] FF 00 00 FF FF AD 47 03
1538623867.579226,can1 18F0000F [8] 51 7D FF FF 0F 72 FF FF
1538623867.579657,can1 18FEF600 [8] FF 00 FF FF FF FF FF FF
1538623867.580067,can1 18DA00F1 [8] 30 08 00 00 00 00 00 00
1538623867.580525,can1 0CF00400 [8] 38 FE FE FE FE 00 FF FE
1538623867.580963,can1 0CF00203 [8] FF 00 00 FF FF AD 47 03
1538623867.581482,can1 18FF3000 [8] 00 00 FF FF FF FF FF FF
1538623867.581908,can1 0CF00400 [8] 38 FE FE FE FE 00 FF FE
1538623867.582438,can1 0CF00203 [8] FF 00 00 FF FF AD 47 03
1538623867.582957,can1 0CF00300 [8] D1 00 FE FF FF FF 00 FF
1538623867.583447,can1 14FFA000 [8] FC FF FF FF FF FF FF FF
1538623867.583876,can1 18FEF200 [8] 00 00 00 00 00 00 FF FF
1538623867.584278,can1 0CF00400 [8] 38 FE FE FE FE 00 FF FE
1538623867.584766,can1 0CF00203 [8] FF 00 00 FF FF AD 47 03
1538623867.585295,can1 18FEDF00 [8] FE FE FE FF FE FF BF FF
1538623867.585736,can1 0CF00400 [8] 38 FE FE FE FE 00 FF FE
1538623867.586245,can1 0CF00203 [8] FF 00 00 FF FF AD 47 03
1538623867.586762,can1 0CF00400 [8] 38 FE FE FE FE 00 FF FE
1538623867.587179,can1 18DA00F1 [8] 30 08 00 00 00 00 00 00
1538623867.587596,can1 0CF00203 [8] FF 00 00 FF FF AD 47 03
1538623867.587998,can1 18FEF000 [8] FF FF FF 00 00 FC 00 FF
1538623867.588465,can1 18DA00F1 [8] 02 10 03 00 00 00 00 00
1538623867.588887,can1 0CF00400 [8] 38 FE FE FE FE 00 FF FE
1538623867.589299,can1 0CF00203 [8] FF 00 00 FF FF AD 47 03
1538623867.589693,can1 18FEE000 [8] A2 01 00 00 A2 01 00 00
1538623867.591894,can1 18DAF100 [8] 06 50 03 00 14 00 C8 20
1538623867.592496,can1 0CF00400 [8] 38 FE FE FE FE 00 FF FE
1538623867.593053,can1 0CF00203 [8] FF 00 00 FF FF AD 47 03
1538623867.593663,can1 0CF00300 [8] D1 00 FE FF FF FF 00 FF
1538623867.594288,can1 18FEF100 [8] CF 00 00 D0 FF 00 00 30
1538623867.600941,can1 18F0010B [8] CF FF F0 FF FF DC FF FF
1538623867.602211,can1 0CF00400 [8] 38 FE FE FE FE 00 FF FE
1538623867.602764,can1 0CF00203 [8] FF 00 00 FF FF AD 47 03
1538623867.603369,can1 18FEDF00 [8] FE FE FE FF FE FF BF FF
1538623867.603989,can1 18FE4A03 [8] FF FF F3 FF F0 F7 FF FF
1538623867.604518,can1 18F00503 [8] FF 57 9E FF 20 2D 2D 2D
1538623867.610955,can1 18FEBF0B [8] 00 00 7D 7D 7D 7D FF FF
1538623867.612165,can1 0CF00400 [8] 38 FE FE FE FE 00 FF FE
1538623867.612729,can1 0CF00203 [8] FF 00 00 FF FF AD 47 03
1538623867.613336,can1 18F00100 [8] FF FF FF FF 53 FF FF FF
1538623867.616299,can1 18DA00F1 [8] 30 08 00 00 00 00 00 00
1538623867.622174,can1 0CF00400 [8] 38 FE FE FE FE 00 FF FE
1538623867.622738,can1 0CF00203 [8] FF 00 00 FF FF AD 47 03
1538623867.623326,can1 18F0000F [8] 51 7D FF FF 0F 72 FF FF
1538623867.632174,can1 0CF00400 [8] 38 FE FE FE FE 00 FF FE
1538623867.632747,can1 0CF00203 [8] FF 00 00 FF FF AD 47 03
1538623867.633357,can1 18FF3000 [8] 00 00 FF FF FF FF FF FF
1538623867.642185,can1 0CF00400 [8] 38 FE FE FE FE 00 FF FE
1538623867.642746,can1 0CF00203 [8] FF 00 00 FF FF AD 47 03
1538623867.643318,can1 0CF00300 [8] D1 00 FE FF FF FF 00 FF
1538623867.64395,can1 14FFA000 [8] FC FF FF FF FF FF FF FF
1538623867.644559,can1 18FEF200 [8] 00 00 00 00 00 00 FF FF
1538623867.652114,can1 0CF00400 [8] 38 FE FE FE FE 00 FF FE
1538623867.652725,can1 0CF00203 [8] FF 00 00 FF FF AD 47 03
1538623867.653267,can1 18FEDF00 [8] FE FE FE FF FE FF BF FF
1538623867.660424,can1 18DA00F1 [8] 30 08 00 00 00 00 00 00
1538623867.662133,can1 0CF00400 [8] 38 FE FE FE FE 00 FF FE
1538623867.662697,can1 0CF00203 [8] FF 00 00 FF FF AD 47 03
1538623867.672389,can1 0CF00400 [8] 38 FE FE FE FE 00 FF FE
1538623867.673363,can1 0CF00203 [8] FF 00 00 FF FF AD 47 03
1538623867.674019,can1 18FEF000 [8] FF FF FF 00 00 FC 00 FF
1538623867.682283,can1 0CF00400 [8] 38 FE FE FE FE 00 FF FE
1538623867.682865,can1 0CF00203 [8] FF 00 00 FF FF AD 47 03
1538623867.683386,can1 18FEE000 [8] A2 01 00 00 A2 01 00 00
1538623867.692476,can1 0CF00400 [8] 38 FE FE FE FE 00 FF FE
1538623867.693057,can1 0CF00203 [8] FF 00 00 FF FF AD 47 03
1538623867.693631,can1 0CF00300 [8] D1 00 FE FF FF FF 00 FF
1538623867.694217,can1 18FEF100 [8] CF 00 00 D0 FF 00 00 30
1538623867.697481,can1 18DA00F1 [8] 03 22 F1 A0 00 00 00 00
1538623867.701054,can1 18F0010B [8] CF FF F0 FF FF DC FF FF
1538623867.701735,can1 18DAF100 [8] 10 14 62 F1 A0 42 6C 61
1538623867.702329,can1 0CF00400 [8] 38 FE FE FE FE 00 FF FE
1538623867.702887,can1 0CF00203 [8] FF 00 00 FF FF AD 47 03
1538623867.70352,can1 18FEDF00 [8] FE FE FE FF FE FF BF FF
1538623867.704038,can1 18FE4A03 [8] FF FF F3 FF F0 F7 FF FF
1538623867.704665,can1 18DA00F1 [8] 30 08 00 00 00 00 00 00
1538623867.705187,can1 18F00503 [8] FF 57 9E FF 20 2D 2D 2D
1538623867.705742,can1 18DAF100 [8] 21 6B 65 20 57 61 73 20
1538623867.706332,can1 18DAF100 [8] 22 48 65 72 65 20 20 20
1538623867.711081,can1 18FEBF0B [8] 00 00 7D 7D 7D 7D FF FF
1538623867.71216,can1 0CF00400 [8] 38 FE FE FE FE 00 FF FE
1538623867.712731,can1 0CF00203 [8] FF 00 00 FF FF AD 47 03
1538623867.71337,can1 18F00100 [8] FF FF FF FF 53 FF FF FF
1538623867.722189,can1 0CF00400 [8] 38 FE FE FE FE 00 FF FE
1538623867.722755,can1 0CF00203 [8] FF 00 00 FF FF AD 47 03
1538623867.723315,can1 18F0000F [8] 51 7D FF FF 0F 72 FF FF
1538623867.733096,can1 0CF00400 [8] 38 FE FE FE FE 00 FF FE
1538623867.733858,can1 0CF00203 [8] FF 00 00 FF FF AD 47 03
1538623867.734354,can1 18FF3000 [8] 00 00 FF FF FF FF FF FF
1538623867.742349,can1 0CF00400 [8] 38 FE FE FE FE 00 FF FE
1538623867.743233,can1 0CF00203 [8] FF 00 00 FF FF AD 47 03
1538623867.743809,can1 0CF00300 [8] D1 00 FE FF FF FF 00 FF
1538623867.744276,can1 14FFA000 [8] FC FF FF FF FF FF FF FF
1538623867.744858,can1 18FEF200 [8] 00 00 00 00 00 00 FF FF
1538623867.748789,can1 18DA00F1 [8] 30 08 00 00 00 00 00 00
1538623867.752248,can1 0CF00400 [8] 38 FE FE FE FE 00 FF FE
1538623867.752986,can1 0CF00203 [8] FF 00 00 FF FF AD 47 03
1538623867.753545,can1 18FEDF00 [8] FE FE FE FF FE FF BF FF
1538623867.762366,can1 0CF00400 [8] 38 FE FE FE FE 00 FF FE
1538623867.763174,can1 0CF00203 [8] FF 00 00 FF FF AD 47 03
1538623867.772336,can1 0CF00400 [8] 38 FE FE FE FE 00 FF FE
1538623867.773369,can1 0CF00203 [8] FF 00 00 FF FF AD 47 03
1538623867.774114,can1 18FEF000 [8] FF FF FF 00 00 FC 00 FF
1538623867.782304,can1 0CF00400 [8] 38 FE FE FE FE 00 FF FE
1538623867.782886,can1 0CF00203 [8] FF 00 00 FF FF AD 47 03
1538623867.7834,can1 18FEE000 [8] A2 01 00 00 A2 01 00 00
1538623867.792462,can1 0CF00400 [8] 38 FE FE FE FE 00 FF FE
1538623867.793,can1 18DA00F1 [8] 30 08 00 00 00 00 00 00
1538623867.793571,can1 0CF00203 [8] FF 00 00 FF FF AD 47 03
1538623867.794188,can1 0CF00300 [8] D1 00 FE FF FF FF 00 FF
1538623867.794757,can1 18FEF100 [8] CF 00 00 D0 FF 00 00 30
1538623867.80122,can1 18F0010B [8] CF FF F0 FF FF DC FF FF
1538623867.802205,can1 0CF00400 [8] 38 FE FE FE FE 00 FF FE
1538623867.802788,can1 0CF00203 [8] FF 00 00 FF FF AD 47 03
1538623867.803346,can1 18FEDF00 [8] FE FE FE FF FE FF BF FF
1538623867.803957,can1 18FE4A03 [8] FF FF F3 FF F0 F7 FF FF
1538623867.804508,can1 18F00503 [8] FF 57 9E FF 20 2D 2D 2D
1538623867.811198,can1 18FEBF0B [8] 00 00 7D 7D 7D 7D FF FF
1538623867.81217,can1 0CF00400 [8] 38 FE FE FE FE 00 FF FE
1538623867.812761,can1 0CF00203 [8] FF 00 00 FF FF AD 47 03
1538623867.813328,can1 18F00100 [8] FF FF FF FF 53 FF FF FF
1538623867.822183,can1 0CF00400 [8] 38 FE FE FE FE 00 FF FE
1538623867.822784,can1 0CF00203 [8] FF 00 00 FF FF AD 47 03
1538623867.82331,can1 18F0000F [8] 51 7D FF FF 0F 72 FF FF
1538623867.824357,can1 18DA00F1 [8] 02 10 03 00 00 00 00 00
1538623867.831721,can1 18DAF100 [8] 06 50 03 00 14 00 C8 20
1538623867.832312,can1 0CF00400 [8] 38 FE FE FE FE 00 FF FE
1538623867.832964,can1 0CF00203 [8] FF 00 00 FF FF AD 47 03
1538623867.833467,can1 18FF3000 [8] 00 00 FF FF FF FF FF FF
1538623867.836963,can1 18DA00F1 [8] 30 08 00 00 00 00 00 00
1538623867.842248,can1 0CF00400 [8] 38 FE FE FE FE 00 FF FE
1538623867.843366,can1 0CF00203 [8] FF 00 00 FF FF AD 47 03
1538623867.843993,can1 0CF00300 [8] D1 00 FE FF FF FF 00 FF
1538623867.844612,can1 14FFA000 [8] FC FF FF FF FF FF FF FF
1538623867.845072,can1 18FEF200 [8] 00 00 00 00 00 00 FF FF
1538623867.852341,can1 18ECFFFA [8] 20 1C 00 04 FF EB FE 00
1538623867.852931,can1 18EBFFFA [8] 01 53 59 4E 45 52 2A 53
1538623867.853453,can1 18EBFFFA [8] 02 53 53 32 2D 30 32 2A
1538623867.854563,can1 18EBFFFA [8] 03 58 58 58 58 2A 55 4E
1538623867.855198,can1 18EBFFFA [8] 04 49 56 45 52 53 41 4C
1538623867.855694,can1 0CF00400 [8] 38 FE FE FE FE 00 FF FE
1538623867.856238,can1 0CF00203 [8] FF 00 00 FF FF AD 47 03
1538623867.856676,can1 18FEDF00 [8] FE FE FE FF FE FF BF FF
1538623867.862191,can1 0CF00400 [8] 38 FE FE FE FE 00 FF FE
1538623867.862741,can1 0CF00203 [8] FF 00 00 FF FF AD 47 03
1538623867.872303,can1 0CF00400 [8] 38 FE FE FE FE 00 FF FE
1538623867.873071,can1 0CF00203 [8] FF 00 00 FF FF AD 47 03
1538623867.873936,can1 18FEF000 [8] FF FF FF 00 00 FC 00 FF
1538623867.881344,can1 18DA00F1 [8] 30 08 00 00 00 00 00 00
1538623867.882486,can1 0CF00400 [8] 38 FE FE FE FE 00 FF FE
1538623867.883464,can1 0CF00203 [8] FF 00 00 FF FF AD 47 03
1538623867.884161,can1 18FEE000 [8] A2 01 00 00 A2 01 00 00
1538623867.892886,can1 0CF00400 [8] 38 FE FE FE FE 00 FF FE
1538623867.893845,can1 1CECFF0F [8] 20 13 00 03 FF E1 FE 00
1538623867.894608,can1 0CF00203 [8] FF 00 00 FF FF AD 47 03
1538623867.895423,can1 0CF00300 [8] D1 00 FE FF FF FF 00 FF
1538623867.896246,can1 18FEF100 [8] CF 00 00 D0 FF 00 00 30
1538623867.897057,can1 18FDE000 [8] FF FF FF FF FF FF FF FF
1538623867.897725,can1 18FF6000 [8] 36 01 00 C8 1F 0A 3C FC
1538623867.898361,can1 1CFEAB03 [8] FF FF 7E FF FF FF FF FF
1538623867.901423,can1 18F0010B [8] CF FF F0 FF FF DC FF FF
1538623867.902355,can1 0CF00400 [8] 38 FE FE FE FE 00 FF FE
1538623867.903275,can1 1CECFF00 [8] 20 27 00 06 FF E3 FE 00
1538623867.904039,can1 0CF00203 [8] FF 00 00 FF FF AD 47 03
1538623867.904836,can1 18FEDF00 [8] FE FE FE FF FE FF BF FF
1538623867.905667,can1 18FE4A03 [8] FF FF F3 FF F0 F7 FF FF
1538623867.906322,can1 18F00503 [8] FF 57 9E FF 20 2D 2D 2D
1538623867.907041,can1 18FEEF00 [8] FF FF FF FF FF FF FF FA
1538623867.91146,can1 18FEBF0B [8] 00 00 7D 7D 7D 7D FF FF
1538623867.912348,can1 0CF00400 [8] 38 FE FE FE FE 00 FF FE
1538623867.913404,can1 0CF00203 [8] FF 00 00 FF FF AD 47 03
1538623867.914185,can1 18F00100 [8] FF FF FF FF 53 FF FF FF
1538623867.915012,can1 18E0FF00 [8] FF FF FF FF FF F3 FF FF
1538623867.91567,can1 18FCDC00 [8] E0 FE FE FF FF FF FF FF
1538623867.92241,can1 0CF00400 [8] 38 FE FE FE FE 00 FF FE
1538623867.923271,can1 0CF00203 [8] FF 00 00 FF FF AD 47 03
1538623867.923946,can1 18F0000F [8] 51 7D FF FF 0F 72 FF FF
1538623867.925301,can1 18DA00F1 [8] 30 08 00 00 00 00 00 00
1538623867.93238,can1 0CF00400 [8] 38 FE FE FE FE 00 FF FE
1538623867.933159,can1 0CF00203 [8] FF 00 00 FF FF AD 47 03
1538623867.93391,can1 18FF3000 [8] 00 00 FF FF FF FF FF FF
1538623867.94237,can1 0CF00400 [8] 38 FE FE FE FE 00 FF FE
1538623867.943155,can1 1CEBFF0F [8] 01 03 03 60 22 4A 80 4D
1538623867.944029,can1 0CF00203 [8] FF 00 00 FF FF AD 47 03
1538623867.944775,can1 0CF00300 [8] D1 00 FE FF FF FF 00 FF
1538623867.945506,can1 14FFA000 [8] FC FF FF FF FF FF FF FF
1538623867.946293,can1 18FEF200 [8] 00 00 00 00 00 00 FF FF
1538623867.946933,can1 18FEF500 [8] FF FF FF FF FF FF FF FF
1538623867.952308,can1 0CF00400 [8] 38 FE FE FE FE 00 FF FE
1538623867.953075,can1 0CF00203 [8] FF 00 00 FF FF AD 47 03
1538623867.953974,can1 18FEDF00 [8] FE FE FE FF FE FF BF FF
1538623867.954719,can1 18FF6411 [8] F8 FF FF FF FF FF FF FF
1538623867.955359,can1 18FECA11 [8] 03 FF 00 00 00 00 FF FF
1538623867.962303,can1 0CF00400 [8] 38 FE FE FE FE 00 FF FE
1538623867.963092,can1 1CEBFF00 [8] 01 A0 0F B5 00 41 B6 F8
1538623867.964003,can1 0CF00203 [8] FF 00 00 FF FF AD 47 03
1538623867.964746,can1 18FEEE00 [8] FF FF FF FF FF FF FF FF
1538623867.965461,can1 18FF1703 [8] FC FF FF FF FF FF FF FF
1538623867.972932,can1 18DA00F1 [8] 30 08 00 00 00 00 00 00
1538623867.974849,can1 0CF00400 [8] 38 FE FE FE FE 00 FF FE
1538623867.975857,can1 0CF00203 [8] FF 00 00 FF FF AD 47 03
1538623867.976561,can1 18FEF000 [8] FF FF FF 00 00 FC 00 FF
1538623867.977325,can1 18FEA400 [8] FF FF FF FF 66 B1 A0 5B
1538623867.977994,can1 18FECA03 [8] 03 FF 00 00 00 00 FF FF
1538623867.983442,can1 0CF00400 [8] 38 FE FE FE FE 00 FF FE
1538623867.984555,can1 0CF00203 [8] FF 00 00 FF FF AD 47 03
1538623867.987744,can1 14FD3E00 [8] FF FF FF FF FF FF FF FF
1538623867.988537,can1 18FEE000 [8] A2 01 00 00 A2 01 00 00
1538623867.993015,can1 0CF00400 [8] 38 FE FE FE FE 00 FF FE
1538623867.994088,can1 1CEBFF0F [8] 02 27 28 2D 2B B8 42 1D
1538623867.999189,can1 0CF00203 [8] FF 00 00 FF FF AD 47 03
1538623868.000134,can1 0CF00300 [8] D1 00 FE FF FF FF 00 FF
1538623868.00144,can1 18FEF100 [8] CF 00 00 D0 FF 00 00 30
1538623868.005863,can1 18FEBD00 [8] FF FF FF FF FF FF FF FF
1538623868.007143,can1 18FD0700 [8] 47 F4 C0 FF FF FF FF FF
1538623868.007905,can1 18F0010B [8] CF FF F0 FF FF DC FF FF
1538623868.011029,can1 0CF00400 [8] 38 FE FE FE FE 00 FF FE
1538623868.014221,can1 0CF00203 [8] FF 00 00 FF FF AD 47 03
1538623868.015322,can1 18FEDF00 [8] FE FE FE FF FE FF BF FF
1538623868.018265,can1 18FE4A03 [8] FF FF F3 FF F0 F7 FF FF
1538623868.019202,can1 18F00503 [8] FF 57 9E FF 20 2D 2D 2D
1538623868.026039,can1 18FF7400 [8] 5D 01 FF FF FF FF FF FF
1538623868.027149,can1 18FEBF0B [8] 00 00 7D 7D 7D 7D FF FF
1538623868.030538,can1 0CF00400 [8] 38 FE FE FE FE 00 FF FE
1538623868.031526,can1 1CEBFF00 [8] 02 1B C6 C0 26 E1 A8 34
1538623868.034732,can1 0CF00203 [8] FF 00 00 FF FF AD 47 03
1538623868.03762,can1 18F00100 [8] FF FF FF FF 53 FF FF FF
1538623868.03871,can1 18FD7C00 [8] FF FF D0 34 FD FF FF FF
1538623868.04295,can1 18DA00F1 [8] 30 08 00 00 00 00 00 00
1538623868.044242,can1 0CF00400 [8] 38 FE FE FE FE 00 FF FE
1538623868.045189,can1 0CF00203 [8] FF 00 00 FF FF AD 47 03
1538623868.046,can1 18F0000F [8] 51 7D FF FF 0F 72 FF FF
1538623868.051524,can1 18FEF600 [8] FF 00 FF FF FF FF FF FF
1538623868.052816,can1 18FEE400 [8] 00 3F FD FF 00 7F FF FF
1538623868.053873,can1 0CF00400 [8] 38 FE FE FE FE 00 FF FE
1538623868.0546,can1 0CF00203 [8] FF 00 00 FF FF AD 47 03
1538623868.059528,can1 18FF3000 [8] 00 00 FF FF FF FF FF FF
1538623868.060491,can1 0CF00400 [8] 38 FE FE FE FE 00 FF FE
1538623868.064667,can1 1CEBFF0F [8] 03 60 3B 5D 04 19 FF FF
1538623868.065961,can1 0CF00203 [8] FF 00 00 FF FF AD 47 03
1538623868.066716,can1 0CF00300 [8] D1 00 FE FF FF FF 00 FF
1538623868.067724,can1 14FFA000 [8] FC FF FF FF FF FF FF FF
1538623868.06842,can1 18FEF200 [8] 00 00 00 00 00 00 FF FF
1538623868.069179,can1 0CF00400 [8] 38 FE FE FE FE 00 FF FE
1538623868.069852,can1 0CF00203 [8] FF 00 00 FF FF AD 47 03
1538623868.070483,can1 18FEDF00 [8] FE FE FE FF FE FF BF FF
1538623868.071205,can1 18FE5600 [8] FF FF FF FF FF FF FF FF
1538623868.073554,can1 18DA00F1 [8] 30 08 00 00 00 00 00 00
1538623868.075034,can1 0CF00400 [8] 38 FE FE FE FE 00 FF FE
1538623868.075811,can1 1CEBFF00 [8] 03 D5 19 43 FF FF 83 09
1538623868.076492,can1 0CF00203 [8] FF 00 00 FF FF AD 47 03
1538623868.077269,can1 18FEC100 [8] CC 28 00 00 CC 28 00 00
1538623868.077915,can1 18DA00F1 [8] 02 10 03 00 00 00 00 00
1538623868.078607,can1 18DAF100 [8] 06 50 03 00 14 00 C8 20
1538623868.079266,can1 0CF00400 [8] 38 FE FE FE FE 00 FF FE
1538623868.079902,can1 0CF00203 [8] FF 00 00 FF FF AD 47 03
1538623868.080591,can1 18FEF000 [8] FF FF FF 00 00 FC 00 FF
1538623868.081236,can1 18FEF700 [8] FF FF FF FF F0 00 F0 00
1538623868.082515,can1 0CF00400 [8] 38 FE FE FE FE 00 FF FE
1538623868.08342,can1 0CF00203 [8] FF 00 00 FF FF AD 47 03
1538623868.084182,can1 18FEE000 [8] A2 01 00 00 A2 01 00 00
1538623868.084996,can1 18FEF803 [8] FF FF FF FF FF FF FF FF
1538623868.08565,can1 18FEFF00 [8] FF FF FF FF FF FF FF FF
1538623868.092688,can1 0CF00400 [8] 38 FE FE FE FE 00 FF FE
1538623868.093579,can1 0CF00203 [8] FF 00 00 FF FF AD 47 03
1538623868.094412,can1 0CF00300 [8] D1 00 FE FF FF FF 00 FF
1538623868.095677,can1 18FEF100 [8] CF 00 00 D0 FF 00 00 30
1538623868.101817,can1 18F0010B [8] CF FF F0 FF FF DC FF FF
1538623868.10281,can1 0CF00400 [8] 38 FE FE FE FE 00 FF FE
1538623868.103595,can1 0CF00203 [8] FF 00 00 FF FF AD 47 03
1538623868.104498,can1 18FEDF00 [8] FE FE FE FF FE FF BF FF
1538623868.10525,can1 18FE4A03 [8] FF FF F3 FF F0 F7 FF FF
1538623868.105967,can1 18F00503 [8] FF 57 9E FF 20 2D 2D 2D
1538623868.10663,can1 18DA00F1 [8] 30 08 00 00 00 00 00 00
1538623868.111846,can1 18FEBF0B [8] 00 00 7D 7D 7D 7D FF FF
1538623868.112738,can1 0CF00400 [8] 38 FE FE FE FE 00 FF FE
1538623868.113496,can1 1CEBFF00 [8] 04 80 4D 32 FF FF FF FF
1538623868.114318,can1 0CF00203 [8] FF 00 00 FF FF AD 47 03
1538623868.114978,can1 18F00100 [8] FF FF FF FF 53 FF FF FF
1538623868.122365,can1 0CF00400 [8] 38 FE FE FE FE 00 FF FE
1538623868.123146,can1 0CF00203 [8] FF 00 00 FF FF AD 47 03
1538623868.123973,can1 18F0000F [8] 51 7D FF FF 0F 72 FF FF
1538623868.132356,can1 0CF00400 [8] 38 FE FE FE FE 00 FF FE
1538623868.133153,can1 0CF00203 [8] FF 00 00 FF FF AD 47 03
1538623868.133974,can1 18FF3000 [8] 00 00 FF FF FF FF FF FF
1538623868.142379,can1 0CF00400 [8] 38 FE FE FE FE 00 FF FE
1538623868.143281,can1 0CF00203 [8] FF 00 00 FF FF AD 47 03
1538623868.144037,can1 0CF00300 [8] D1 00 FE FF FF FF 00 FF
1538623868.144762,can1 14FFA000 [8] FC FF FF FF FF FF FF FF
1538623868.145493,can1 18FEF200 [8] 00 00 00 00 00 00 FF FF
1538623868.149387,can1 18DA00F1 [8] 30 08 00 00 00 00 00 00
1538623868.152284,can1 0CF00400 [8] 38 FE FE FE FE 00 FF FE
1538623868.153197,can1 0CF00203 [8] FF 00 00 FF FF AD 47 03
1538623868.153882,can1 18FEDF00 [8] FE FE FE FF FE FF BF FF
1538623868.162281,can1 0CF00400 [8] 38 FE FE FE FE 00 FF FE
1538623868.163203,can1 1CEBFF00 [8] 05 FF FF 04 01 FF FF FF
1538623868.163885,can1 0CF00203 [8] FF 00 00 FF FF AD 47 03
1538623868.173614,can1 0CF00400 [8] 38 FE FE FE FE 00 FF FE
1538623868.174985,can1 0CF00203 [8] FF 00 00 FF FF AD 47 03
1538623868.175777,can1 18FEF000 [8] FF FF FF 00 00 FC 00 FF
1538623868.182541,can1 0CF00400 [8] 38 FE FE FE FE 00 FF FE
1538623868.183617,can1 0CF00203 [8] FF 00 00 FF FF AD 47 03
1538623868.184617,can1 18FEE000 [8] A2 01 00 00 A2 01 00 00
1538623868.192674,can1 0CF00400 [8] 38 FE FE FE FE 00 FF FE
1538623868.193562,can1 0CF00203 [8] FF 00 00 FF FF AD 47 03
1538623868.194424,can1 18DA00F1 [8] 30 08 00 00 00 00 00 00
1538623868.19518,can1 0CF00300 [8] D1 00 FE FF FF FF 00 FF
1538623868.195901,can1 18FEF100 [8] CF 00 00 D0 FF 00 00 30
1538623868.201897,can1 18F0010B [8] CF FF F0 FF FF DC FF FF
1538623868.202687,can1 0CF00400 [8] 38 FE FE FE FE 00 FF FE
1538623868.203581,can1 0CF00203 [8] FF 00 00 FF FF AD 47 03
1538623868.204335,can1 18FEDF00 [8] FE FE FE FF FE FF BF FF
1538623868.205065,can1 18FE4A03 [8] FF FF F3 FF F0 F7 FF FF
1538623868.205788,can1 18F00503 [8] FF 57 9E FF 20 2D 2D 2D
1538623868.211909,can1 18FEBF0B [8] 00 00 7D 7D 7D 7D FF FF
1538623868.212701,can1 0CF00400 [8] 38 FE FE FE FE 00 FF FE
1538623868.213748,can1 1CEBFF00 [8] 06 FF FF FF FF FF FF FF
1538623868.214594,can1 1CECFF00 [8] 20 12 00 03 FF CA FE 00
1538623868.215334,can1 0CF00203 [8] FF 00 00 FF FF AD 47 03
1538623868.216005,can1 18F00100 [8] FF FF FF FF 53 FF FF FF
1538623868.222345,can1 0CF00400 [8] 38 FE FE FE FE 00 FF FE
1538623868.223267,can1 0CF00203 [8] FF 00 00 FF FF AD 47 03
1538623868.223948,can1 18F0000F [8] 51 7D FF FF 0F 72 FF FF
1538623868.233177,can1 0CF00400 [8] 38 FE FE FE FE 00 FF FE
1538623868.234166,can1 0CF00203 [8] FF 00 00 FF FF AD 47 03
1538623868.234975,can1 18FF3000 [8] 00 00 FF FF FF FF FF FF
1538623868.239063,can1 18DA00F1 [8] 30 08 00 00 00 00 00 00
1538623868.2425,can1 0CF00400 [8] 38 FE FE FE FE 00 FF FE
1538623868.243737,can1 0CF00203 [8] FF 00 00 FF FF AD 47 03
1538623868.244715,can1 0CF00300 [8] D1 00 FE FF FF FF 00 FF
1538623868.245417,can1 14FFA000 [8] FC FF FF FF FF FF FF FF
1538623868.246074,can1 18FEF200 [8] 00 00 00 00 00 00 FF FF
1538623868.252464,can1 0CF00400 [8] 38 FE FE FE FE 00 FF FE
1538623868.253489,can1 0CF00203 [8] FF 00 00 FF FF AD 47 03
1538623868.254192,can1 18FEDF00 [8] FE FE FE FF FE FF BF FF
1538623868.262463,can1 0CF00400 [8] 38 FE FE FE FE 00 FF FE
1538623868.263552,can1 1CEBFF00 [8] 01 47 FF 71 02 0D 01 3F
1538623868.26438,can1 0CF00203 [8] FF 00 00 FF FF AD 47 03
1538623868.273382,can1 0CF00400 [8] 38 FE FE FE FE 00 FF FE
1538623868.274786,can1 0CF00203 [8] FF 00 00 FF FF AD 47 03
1538623868.275825,can1 18FEF000 [8] FF FF FF 00 00 FC 00 FF
1538623868.281988,can1 18DA00F1 [8] 30 08 00 00 00 00 00 00
1538623868.283048,can1 0CF00400 [8] 38 FE FE FE FE 00 FF FE
1538623868.283958,can1 0CF00203 [8] FF 00 00 FF FF AD 47 03
1538623868.284648,can1 18FEE000 [8] A2 01 00 00 A2 01 00 00
1538623868.292788,can1 0CF00400 [8] 38 FE FE FE FE 00 FF FE
1538623868.293946,can1 0CF00203 [8] FF 00 00 FF FF AD 47 03
1538623868.29479,can1 0CF00300 [8] D1 00 FE FF FF FF 00 FF
1538623868.295543,can1 18FEF100 [8] CF 00 00 D0 FF 00 00 30
1538623868.302173,can1 18F0010B [8] CF FF F0 FF FF DC FF FF
1538623868.303338,can1 0CF00400 [8] 38 FE FE FE FE 00 FF FE
1538623868.304261,can1 0CF00203 [8] FF 00 00 FF FF AD 47 03
1538623868.305026,can1 18FEDF00 [8] FE FE FE FF FE FF BF FF
1538623868.305779,can1 18FE4A03 [8] FF FF F3 FF F0 F7 FF FF
1538623868.306423,can1 18F00503 [8] FF 57 9E FF 20 2D 2D 2D
1538623868.310734,can1 18DA00F1 [8] 02 10 03 00 00 00 00 00
1538623868.311881,can1 18DAF100 [8] 06 50 03 00 14 00 C8 20
1538623868.31268,can1 18FEBF0B [8] 00 00 7D 7D 7D 7D FF FF
1538623868.313606,can1 0CF00400 [8] 38 FE FE FE FE 00 FF FE
1538623868.314363,can1 1CEBFF00 [8] 02 0A 08 01 5B 00 08 01
1538623868.315163,can1 0CF00203 [8] FF 00 00 FF FF AD 47 03
1538623868.315829,can1 18F00100 [8] FF FF FF FF 53 FF FF FF
1538623868.322358,can1 0CF00400 [8] 38 FE FE FE FE 00 FF FE
1538623868.32328,can1 0CF00203 [8] FF 00 00 FF FF AD 47 03
1538623868.323949,can1 18F0000F [8] 51 7D FF FF 0F 72 FF FF
1538623868.325932,can1 18DA00F1 [8] 30 08 00 00 00 00 00 00
1538623868.332363,can1 0CF00400 [8] 38 FE FE FE FE 00 FF FE
1538623868.333208,can1 0CF00203 [8] FF 00 00 FF FF AD 47 03
1538623868.333952,can1 18FF3000 [8] 00 00 FF FF FF FF FF FF
1538623868.342425,can1 0CF00400 [8] 38 FE FE FE FE 00 FF FE
1538623868.343289,can1 0CF00203 [8] FF 00 00 FF FF AD 47 03
1538623868.344057,can1 0CF00300 [8] D1 00 FE FF FF FF 00 FF
1538623868.344873,can1 14FFA000 [8] FC FF FF FF FF FF FF FF
1538623868.345541,can1 18FEF200 [8] 00 00 00 00 00 00 FF FF
1538623868.352286,can1 0CF00400 [8] 38 FE FE FE FE 00 FF FE
1538623868.353073,can1 0CF00203 [8] FF 00 00 FF FF AD 47 03
1538623868.353818,can1 18FEDF00 [8] FE FE FE FF FE FF BF FF
1538623868.362299,can1 0CF00400 [8] 38 FE FE FE FE 00 FF FE
1538623868.363271,can1 1CEBFF00 [8] 03 71 02 0E 02 FF FF FF
1538623868.364047,can1 0CF00203 [8] FF 00 00 FF FF AD 47 03
1538623868.370034,can1 18DA00F1 [8] 30 08 00 00 00 00 00 00
1538623868.373793,can1 0CF00400 [8] 38 FE FE FE FE 00 FF FE
1538623868.37494,can1 0CF00203 [8] FF 00 00 FF FF AD 47 03
1538623868.375994,can1 18FEF000 [8] FF FF FF 00 00 FC 00 FF
1538623868.382527,can1 0CF00400 [8] 38 FE FE FE FE 00 FF FE
1538623868.383581,can1 0CF00203 [8] FF 00 00 FF FF AD 47 03
1538623868.384296,can1 18FEE000 [8] A2 01 00 00 A2 01 00 00
1538623868.392693,can1 0CF00400 [8] 38 FE FE FE FE 00 FF FE
1538623868.393628,can1 0CF00203 [8] FF 00 00 FF FF AD 47 03
1538623868.394399,can1 0CF00300 [8] D1 00 FE FF FF FF 00 FF
1538623868.395124,can1 18FEF100 [8] CF 00 00 D0 FF 00 00 30
1538623868.402154,can1 18F0010B [8] CF FF F0 FF FF DC FF FF
1538623868.40307,can1 0CF00400 [8] 38 FE FE FE FE 00 FF FE
1538623868.403849,can1 0CF00203 [8] FF 00 00 FF FF AD 47 03
1538623868.404598,can1 18FEDF00 [8] FE FE FE FF FE FF BF FF
1538623868.405496,can1 18FE4A03 [8] FF FF F3 FF F0 F7 FF FF
1538623868.406157,can1 18F00503 [8] FF 57 9E FF 20 2D 2D 2D
1538623868.406994,can1 18FEEF00 [8] FF FF FF FF FF FF FF FA
1538623868.412176,can1 18FEBF0B [8] 00 00 7D 7D 7D 7D FF FF
1538623868.413112,can1 0CF00400 [8] 38 FE FE FE FE 00 FF FE
1538623868.4139,can1 0CF00203 [8] FF 00 00 FF FF AD 47 03
1538623868.415376,can1 18F00100 [8] FF FF FF FF 53 FF FF FF
1538623868.416169,can1 18DA00F1 [8] 30 08 00 00 00 00 00 00
1538623868.422449,can1 0CF00400 [8] 38 FE FE FE FE 00 FF FE
1538623868.423383,can1 0CF00203 [8] FF 00 00 FF FF AD 47 03
1538623868.424071,can1 18F0000F [8] 51 7D FF FF 0F 72 FF FF
1538623868.432384,can1 0CF00400 [8] 38 FE FE FE FE 00 FF FE
1538623868.433183,can1 0CF00203 [8] FF 00 00 FF FF AD 47 03
1538623868.433996,can1 18FF3000 [8] 00 00 FF FF FF FF FF FF
1538623868.442386,can1 0CF00400 [8] 38 FE FE FE FE 00 FF FE
1538623868.443178,can1 0CF00203 [8] FF 00 00 FF FF AD 47 03
1538623868.444071,can1 0CF00300 [8] D1 00 FE FF FF FF 00 FF
1538623868.444824,can1 14FFA000 [8] FC FF FF FF FF FF FF FF
1538623868.445472,can1 18FEF200 [8] 00 00 00 00 00 00 FF FF
1538623868.45229,can1 0CF00400 [8] 38 FE FE FE FE 00 FF FE
1538623868.453068,can1 0CF00203 [8] FF 00 00 FF FF AD 47 03
1538623868.453956,can1 18FEDF00 [8] FE FE FE FF FE FF BF FF
1538623868.454621,can1 18FF6411 [8] F8 FF FF FF FF FF FF FF
1538623868.458252,can1 18DA00F1 [8] 30 08 00 00 00 00 00 00
1538623868.462302,can1 0CF00400 [8] 38 FE FE FE FE 00 FF FE
1538623868.463078,can1 0CF00203 [8] FF 00 00 FF FF AD 47 03
1538623868.472348,can1 0CF00400 [8] 38 FE FE FE FE 00 FF FE
1538623868.473712,can1 0CF00203 [8] FF 00 00 FF FF AD 47 03
1538623868.47446,can1 18FEF000 [8] FF FF FF 00 00 FC 00 FF
1538623868.482568,can1 0CF00400 [8] 38 FE FE FE FE 00 FF FE
1538623868.483774,can1 0CF00203 [8] FF 00 00 FF FF AD 47 03
1538623868.484592,can1 14FD3E00 [8] FF FF FF FF FF FF FF FF
1538623868.485559,can1 18FEE000 [8] A2 01 00 00 A2 01 00 00
1538623868.492728,can1 0CF00400 [8] 38 FE FE FE FE 00 FF FE
1538623868.493638,can1 0CF00203 [8] FF 00 00 FF FF AD 47 03
1538623868.494403,can1 0CF00300 [8] D1 00 FE FF FF FF 00 FF
1538623868.495152,can1 18FEF100 [8] CF 00 00 D0 FF 00 00 30
1538623868.502264,can1 18F0010B [8] CF FF F0 FF FF DC FF FF
1538623868.503183,can1 0CF00400 [8] 38 FE FE FE FE 00 FF FE
1538623868.503937,can1 18DA00F1 [8] 30 08 00 00 00 00 00 00
1538623868.504742,can1 0CF00203 [8] FF 00 00 FF FF AD 47 03
1538623868.505559,can1 18FEDF00 [8] FE FE FE FF FE FF BF FF
1538623868.506272,can1 18FE4A03 [8] FF FF F3 FF F0 F7 FF FF
1538623868.506923,can1 18F00503 [8] FF 57 9E FF 20 2D 2D 2D
1538623868.512327,can1 18FEBF0B [8] 00 00 7D 7D 7D 7D FF FF
1538623868.513177,can1 0CF00400 [8] 38 FE FE FE FE 00 FF FE
1538623868.513931,can1 0CF00203 [8] FF 00 00 FF FF AD 47 03
1538623868.514661,can1 18F00100 [8] FF FF FF FF 53 FF FF FF
1538623868.522368,can1 0CF00400 [8] 38 FE FE FE FE 00 FF FE
1538623868.523157,can1 0CF00203 [8] FF 00 00 FF FF AD 47 03
1538623868.524044,can1 18F0000F [8] 51 7D FF FF 0F 72 FF FF
1538623868.524722,can1 18FEF600 [8] FF 00 FF FF FF FF FF FF
1538623868.532379,can1 0CF00400 [8] 38 FE FE FE FE 00 FF FE
1538623868.533177,can1 0CF00203 [8] FF 00 00 FF FF AD 47 03
1538623868.534,can1 18FF3000 [8] 00 00 FF FF FF FF FF FF
1538623868.542376,can1 0CF00400 [8] 38 FE FE FE FE 00 FF FE
1538623868.543146,can1 0CF00203 [8] FF 00 00 FF FF AD 47 03
1538623868.544035,can1 0CF00300 [8] D1 00 FE FF FF FF 00 FF
1538623868.544767,can1 14FFA000 [8] FC FF FF FF FF FF FF FF
1538623868.545479,can1 18FEF200 [8] 00 00 00 00 00 00 FF FF
1538623868.546469,can1 18DA00F1 [8] 30 08 00 00 00 00 00 00
1538623868.552298,can1 0CF00400 [8] 38 FE FE FE FE 00 FF FE
1538623868.55305,can1 0CF00203 [8] FF 00 00 FF FF AD 47 03
1538623868.553931,can1 18FEDF00 [8] FE FE FE FF FE FF BF FF
1538623868.554579,can1 18DA00F1 [8] 02 10 03 00 00 00 00 00
1538623868.561842,can1 18DAF100 [8] 06 50 03 00 14 00 C8 20
1538623868.56261,can1 0CF00400 [8] 38 FE FE FE FE 00 FF FE
1538623868.563436,can1 0CF00203 [8] FF 00 00 FF FF AD 47 03
1538623868.572313,can1 0CF00400 [8] 38 FE FE FE FE 00 FF FE
1538623868.574512,can1 0CF00203 [8] FF 00 00 FF FF AD 47 03
1538623868.575796,can1 18FEF000 [8] FF FF FF 00 00 FC 00 FF
1538623868.582536,can1 0CF00400 [8] 38 FE FE FE FE 00 FF FE
1538623868.583495,can1 0CF00203 [8] FF 00 00 FF FF AD 47 03
1538623868.584191,can1 18FEE000 [8] A2 01 00 00 A2 01 00 00
1538623868.590614,can1 18DA00F1 [8] 30 08 00 00 00 00 00 00
1538623868.592641,can1 0CF00400 [8] 38 FE FE FE FE 00 FF FE
1538623868.59343,can1 0CF00203 [8] FF 00 00 FF FF AD 47 03
1538623868.594314,can1 0CF00300 [8] D1 00 FE FF FF FF 00 FF
1538623868.594989,can1 18FEF100 [8] CF 00 00 D0 FF 00 00 30
1538623868.602366,can1 0CF00400 [8] 38 FE FE FE FE 00 FF FE
1538623868.603219,can1 18F0010B [8] CF FF F0 FF FF DC FF FF
1538623868.604033,can1 0CF00203 [8] FF 00 00 FF FF AD 47 03
1538623868.604787,can1 18FEDF00 [8] FE FE FE FF FE FF BF FF
1538623868.605527,can1 18FE4A03 [8] FF FF F3 FF F0 F7 FF FF
1538623868.606243,can1 18F00503 [8] FF 57 9E FF 20 2D 2D 2D
1538623868.612335,can1 0CF00400 [8] 38 FE FE FE FE 00 FF FE
1538623868.613104,can1 18FEBF0B [8] 00 00 7D 7D 7D 7D FF FF
1538623868.613987,can1 0CF00203 [8] FF 00 00 FF FF AD 47 03
1538623868.614659,can1 18F00100 [8] FF FF FF FF 53 FF FF FF
1538623868.622363,can1 0CF00400 [8] 38 FE FE FE FE 00 FF FE
1538623868.623137,can1 0CF00203 [8] FF 00 00 FF FF AD 47 03
1538623868.623954,can1 18F0000F [8] 51 7D FF FF 0F 72 FF FF
1538623868.632382,can1 0CF00400 [8] 38 FE FE FE FE 00 FF FE
1538623868.633149,can1 0CF00203 [8] FF 00 00 FF FF AD 47 03
1538623868.633974,can1 18FF3000 [8] 00 00 FF FF FF FF FF FF
1538623868.634714,can1 18DA00F1 [8] 30 08 00 00 00 00 00 00
1538623868.642366,can1 0CF00400 [8] 08 FE FE FE FE 00 FF FE
1538623868.643268,can1 0CF00203 [8] FF 00 00 FF FF AD 47 03
1538623868.644028,can1 0CF00300 [8] D1 00 FE FF FF FF 00 FF
1538623868.644762,can1 14FFA000 [8] FC FF FF FF FF FF FF FF
1538623868.64551,can1 18FEF200 [8] 00 00 00 00 00 00 FF FF
1538623868.652296,can1 0CF00400 [8] 08 FE FE FE FE 00 FF FE
1538623868.65319,can1 0CF00203 [8] FF 00 00 FF FF AD 47 03
1538623868.653878,can1 18FEDF00 [8] FE FE FE FF FE FF BF FF
1538623868.662299,can1 0CF00400 [8] 08 FE FE FE FE 00 FF FE
1538623868.663135,can1 0CF00203 [8] FF 00 00 FF FF AD 47 03
1538623868.672346,can1 0CF00400 [8] 08 FE FE FE FE 00 FF FE
1538623868.674686,can1 0CF00203 [8] FF 00 00 FF FF AD 47 03
1538623868.675749,can1 18FEF000 [8] FF FF FF 00 00 FC 00 FF
1538623868.678883,can1 18DA00F1 [8] 30 08 00 00 00 00 00 00
1538623868.682476,can1 0CF00400 [8] 08 FE FE FE FE 00 FF FE
1538623868.683366,can1 0CF00203 [8] FF 00 00 FF FF AD 47 03
1538623868.684123,can1 18FEE000 [8] A2 01 00 00 A2 01 00 00
1538623868.69267,can1 0CF00400 [8] 08 FE FE FE FE 00 FF FE
1538623868.693565,can1 0CF00203 [8] FF 00 00 FF FF AD 47 03
1538623868.69441,can1 0CF00300 [8] D1 00 FE FF FF FF 00 FF
1538623868.69507,can1 18FEF100 [8] CF 00 00 D0 FF 00 00 30
1538623868.697774,can1 18DA00F1 [8] 03 22 F1 A0 00 00 00 00
1538623868.701887,can1 18DAF100 [8] 10 14 62 F1 A0 42 6C 61
1538623868.702664,can1 0CF00400 [8] 38 FE FE FE FE 00 FF FE
1538623868.703541,can1 18F0010B [8] CF FF F0 FF FF DC FF FF
1538623868.704303,can1 0CF00203 [8] FF 00 00 FF FF AD 47 03
1538623868.705108,can1 18FEDF00 [8] FE FE FE FF FE FF BF FF
1538623868.705843,can1 18FE4A03 [8] FF FF F3 FF F0 F7 FF FF
1538623868.706487,can1 18F00503 [8] FF 57 9E FF 20 2D 2D 2D
1538623868.712341,can1 0CF00400 [8] 38 FE FE FE FE 00 FF FE
1538623868.713103,can1 18FEBF0B [8] 00 00 7D 7D 7D 7D FF FF
1538623868.713998,can1 0CF00203 [8] FF 00 00 FF FF AD 47 03
1538623868.714657,can1 18F00100 [8] FF FF FF FF 53 FF FF FF
1538623868.722373,can1 0CF00400 [8] 38 FE FE FE FE 00 FF FE
1538623868.723266,can1 0CF00203 [8] FF 00 00 FF FF AD 47 03
1538623868.724025,can1 18DA00F1 [8] 30 08 00 00 00 00 00 00
1538623868.72476,can1 18F0000F [8] 51 7D FF FF 0F 72 FF FF
1538623868.725564,can1 18DAF100 [8] 21 6B 65 20 57 61 73 20
1538623868.726207,can1 18DAF100 [8] 22 48 65 72 65 20 20 20
1538623868.732527,can1 0CF00400 [8] 38 FE FE FE FE 00 FF FE
1538623868.733688,can1 0CF00203 [8] FF 00 00 FF FF AD 47 03
1538623868.73441,can1 18FF3000 [8] 00 00 FF FF FF FF FF FF
1538623868.742518,can1 0CF00400 [8] 38 FE FE FE FE 00 FF FE
1538623868.743643,can1 0CF00203 [8] FF 00 00 FF FF AD 47 03
1538623868.744614,can1 0CF00300 [8] D1 00 FE FF FF FF 00 FF
1538623868.745919,can1 14FFA000 [8] FC FF FF FF FF FF FF FF
1538623868.750781,can1 18FEF200 [8] 00 00 00 00 00 00 FF FF
1538623868.752476,can1 0CF00400 [8] 38 FE FE FE FE 00 FF FE
1538623868.753482,can1 0CF00203 [8] FF 00 00 FF FF AD 47 03
1538623868.754191,can1 18FEDF00 [8] FE FE FE FF FE FF BF FF
1538623868.762485,can1 0CF00400 [8] 38 FE FE FE FE 00 FF FE
1538623868.763429,can1 0CF00203 [8] FF 00 00 FF FF AD 47 03
1538623868.767294,can1 18DA00F1 [8] 30 08 00 00 00 00 00 00
1538623868.772421,can1 0CF00400 [8] 38 FE FE FE FE 00 FF FE
1538623868.774982,can1 0CF00203 [8] FF 00 00 FF FF AD 47 03
1538623868.776125,can1 18FEF000 [8] FF FF FF 00 00 FC 00 FF
1538623868.782596,can1 0CF00400 [8] 38 FE FE FE FE 00 FF FE
1538623868.783745,can1 0CF00203 [8] FF 00 00 FF FF AD 47 03
1538623868.784503,can1 18FEE000 [8] A2 01 00 00 A2 01 00 00
1538623868.792761,can1 0CF00400 [8] 38 FE FE FE FE 00 FF FE
1538623868.793922,can1 0CF00203 [8] FF 00 00 FF FF AD 47 03
1538623868.79475,can1 0CF00300 [8] D1 00 FE FF FF FF 00 FF
1538623868.795515,can1 18FEF100 [8] CF 00 00 D0 FF 00 00 30
1538623868.797631,can1 18DA00F1 [8] 02 10 03 00 00 00 00 00
1538623868.801986,can1 18DAF100 [8] 06 50 03 00 14 00 C8 20
1538623868.802943,can1 0CF00400 [8] 38 FE FE FE FE 00 FF FE
1538623868.803829,can1 18F0010B [8] CF FF F0 FF FF DC FF FF
1538623868.804685,can1 0CF00203 [8] FF 00 00 FF FF AD 47 03
1538623868.805501,can1 18FEDF00 [8] FE FE FE FF FE FF BF FF
1538623868.806163,can1 18FE4A03 [8] FF FF F3 FF F0 F7 FF FF
1538623868.806802,can1 18F00503 [8] FF 57 9E FF 20 2D 2D 2D
1538623868.811333,can1 18DA00F1 [8] 30 08 00 00 00 00 00 00
1538623868.812348,can1 0CF00400 [8] 38 FE FE FE FE 00 FF FE
1538623868.81327,can1 18FEBF0B [8] 00 00 7D 7D 7D 7D FF FF
1538623868.814044,can1 0CF00203 [8] FF 00 00 FF FF AD 47 03
1538623868.814702,can1 18F00100 [8] FF FF FF FF 53 FF FF FF
1538623868.822374,can1 0CF00400 [8] 38 FE FE FE FE 00 FF FE
1538623868.82329,can1 0CF00203 [8] FF 00 00 FF FF AD 47 03
1538623868.823978,can1 18F0000F [8] 51 7D FF FF 0F 72 FF FF
1538623868.832427,can1 0CF00400 [8] 38 FE FE FE FE 00 FF FE
1538623868.833221,can1 0CF00203 [8] FF 00 00 FF FF AD 47 03
1538623868.833982,can1 18FF3000 [8] 00 00 FF FF FF FF FF FF
1538623868.842392,can1 0CF00400 [8] 38 FE FE FE FE 00 FF FE
1538623868.843171,can1 0CF00203 [8] FF 00 00 FF FF AD 47 03
1538623868.844019,can1 0CF00300 [8] D1 00 FE FF FF FF 00 FF
1538623868.844824,can1 14FFA000 [8] FC FF FF FF FF FF FF FF
1538623868.845479,can1 18FEF200 [8] 00 00 00 00 00 00 FF FF
1538623868.852304,can1 0CF00400 [8] 38 FE FE FE FE 00 FF FE
1538623868.853082,can1 0CF00203 [8] FF 00 00 FF FF AD 47 03
1538623868.853825,can1 18FEDF00 [8] FE FE FE FF FE FF BF FF
1538623868.855411,can1 18DA00F1 [8] 30 08 00 00 00 00 00 00
1538623868.862301,can1 0CF00400 [8] 38 FE FE FE FE 00 FF FE
1538623868.863082,can1 0CF00203 [8] FF 00 00 FF FF AD 47 03
1538623868.87231,can1 0CF00400 [8] 38 FE FE FE FE 00 FF FE
1538623868.874317,can1 0CF00203 [8] FF 00 00 FF FF AD 47 03
1538623868.875323,can1 18FEF000 [8] FF FF FF 00 00 FC 00 FF
1538623868.88256,can1 0CF00400 [8] 38 FE FE FE FE 00 FF FE
1538623868.883607,can1 0CF00203 [8] FF 00 00 FF FF AD 47 03
1538623868.88433,can1 18FEE000 [8] A2 01 00 00 A2 01 00 00
1538623868.892832,can1 0CF00400 [8] 38 FE FE FE FE 00 FF FE
1538623868.89377,can1 0CF00203 [8] FF 00 00 FF FF AD 47 03
1538623868.894529,can1 0CF00300 [8] D1 00 FE FF FF FF 00 FF
1538623868.895338,can1 18FEF100 [8] CF 00 00 D0 FF 00 00 30
1538623868.896089,can1 18FDE000 [8] FF FF FF FF FF FF FF FF
1538623868.896745,can1 1CFEAB03 [8] FF FF 7E FF FF FF FF FF
1538623868.899552,can1 18DA00F1 [8] 30 08 00 00 00 00 00 00
1538623868.902384,can1 0CF00400 [8] 38 FE FE FE FE 00 FF FE
1538623868.903294,can1 18F0010B [8] CF FF F0 FF FF DC FF FF
1538623868.904051,can1 0CF00203 [8] FF 00 00 FF FF AD 47 03
1538623868.904852,can1 18FEDF00 [8] FE FE FE FF FE FF BF FF
1538623868.905672,can1 18FE4A03 [8] FF FF F3 FF F0 F7 FF FF
1538623868.906334,can1 18F00503 [8] FF 57 9E FF 20 2D 2D 2D
1538623868.907039,can1 18FEEF00 [8] FF FF FF FF FF FF FF FA
1538623868.912353,can1 0CF00400 [8] 38 FE FE FE FE 00 FF FE
1538623868.91341,can1 18FEBF0B [8] 00 00 7D 7D 7D 7D FF FF
1538623868.914193,can1 0CF00203 [8] FF 00 00 FF FF AD 47 03
1538623868.915591,can1 18F00100 [8] FF FF FF FF 53 FF FF FF
1538623868.916329,can1 18E0FF00 [8] FF FF FF FF FF F3 FF FF
1538623868.917128,can1 18FCDC00 [8] E0 FE FE FF FF FF FF FF
1538623868.922469,can1 0CF00400 [8] 38 FE FE FE FE 00 FF FE
1538623868.923377,can1 0CF00203 [8] FF 00 00 FF FF AD 47 03
1538623868.924056,can1 18F0000F [8] 51 7D FF FF 0F 72 FF FF
1538623868.932447,can1 0CF00400 [8] 38 FE FE FE FE 00 FF FE
1538623868.933259,can1 0CF00203 [8] FF 00 00 FF FF AD 47 03
1538623868.934088,can1 18FF3000 [8] 00 00 FF FF FF FF FF FF
1538623868.942392,can1 0CF00400 [8] 38 FE FE FE FE 00 FF FE
1538623868.943178,can1 0CF00203 [8] FF 00 00 FF FF AD 47 03
1538623868.944073,can1 0CF00300 [8] D1 00 FE FF FF FF 00 FF
1538623868.944835,can1 18DA00F1 [8] 30 08 00 00 00 00 00 00
1538623868.945567,can1 14FFA000 [8] FC FF FF FF FF FF FF FF
1538623868.946372,can1 18FEF200 [8] 00 00 00 00 00 00 FF FF
1538623868.947008,can1 18FEF500 [8] FF FF FF FF FF FF FF FF
1538623868.952337,can1 0CF00400 [8] 38 FE FE FE FE 00 FF FE
1538623868.953109,can1 0CF00203 [8] FF 00 00 FF FF AD 47 03
1538623868.95402,can1 18FEDF00 [8] FE FE FE FF FE FF BF FF
1538623868.954759,can1 18FF6411 [8] F8 FF FF FF FF FF FF FF
1538623868.955416,can1 18FECA11 [8] 03 FF 00 00 00 00 FF FF
1538623868.96233,can1 0CF00400 [8] 38 FE FE FE FE 00 FF FE
1538623868.963105,can1 0CF00203 [8] FF 00 00 FF FF AD 47 03
1538623868.963913,can1 18FEEE00 [8] FF FF FF FF FF FF FF FF
1538623868.972421,can1 0CF00400 [8] 38 FE FE FE FE 00 FF FE
1538623868.973458,can1 0CF00203 [8] FF 00 00 FF FF AD 47 03
1538623868.974701,can1 18FEF000 [8] FF FF FF 00 00 FC 00 FF
1538623868.975533,can1 18FEA400 [8] FF FF FF FF 66 B1 A0 5B
1538623868.97645,can1 18FECA03 [8] 03 FF 00 00 00 00 FF FF
1538623868.982521,can1 0CF00400 [8] 38 FE FE FE FE 00 FF FE
1538623868.985164,can1 0CF00203 [8] FF 00 00 FF FF AD 47 03
1538623868.986014,can1 14FD3E00 [8] FF FF FF FF FF FF FF FF
1538623868.986859,can1 18FEE000 [8] A2 01 00 00 A2 01 00 00
1538623868.987806,can1 18DA00F1 [8] 30 08 00 00 00 00 00 00
1538623868.992717,can1 0CF00400 [8] 38 FE FE FE FE 00 FF FE
1538623868.99361,can1 0CF00203 [8] FF 00 00 FF FF AD 47 03
1538623868.994392,can1 0CF00300 [8] D1 00 FE FF FF FF 00 FF
1538623868.995214,can1 18FEF100 [8] CF 00 00 D0 FF 00 00 30
1538623868.995961,can1 18FEBD00 [8] FF FF FF FF FF FF FF FF
1538623868.996668,can1 18FD0700 [8] 47 F4 C0 FF FF FF FF FF
1538623869.002425,can1 0CF00400 [8] 38 FE FE FE FE 00 FF FE
1538623869.003296,can1 0CF00203 [8] FF 00 00 FF FF AD 47 03
1538623869.004047,can1 18F0010B [8] CF FF F0 FF FF DC FF FF
1538623869.004859,can1 18FEDF00 [8] FE FE FE FF FE FF BF FF
1538623869.00568,can1 18FE4A03 [8] FF FF F3 FF F0 F7 FF FF
1538623869.006393,can1 18F00503 [8] FF 57 9E FF 20 2D 2D 2D
1538623869.007049,can1 18FF7400 [8] 5D 01 FF FF FF FF FF FF
1538623869.012356,can1 0CF00400 [8] 38 FE FE FE FE 00 FF FE
1538623869.013133,can1 0CF00203 [8] FF 00 00 FF FF AD 47 03
1538623869.013944,can1 18FEBF0B [8] 00 00 7D 7D 7D 7D FF FF
1538623869.01476,can1 18F00100 [8] FF FF FF FF 53 FF FF FF
1538623869.015408,can1 18FD7C00 [8] FF FF D0 34 FD FF FF FF
1538623869.02239,can1 0CF00400 [8] 38 FE FE FE FE 00 FF FE
1538623869.023181,can1 0CF00203 [8] FF 00 00 FF FF AD 47 03
1538623869.024061,can1 18F0000F [8] 51 7D FF FF 0F 72 FF FF
1538623869.024812,can1 18FEF600 [8] FF 00 FF FF FF FF FF FF
1538623869.025466,can1 18FEE400 [8] 00 3F FD FF 00 7F FF FF
1538623869.031889,can1 18DA00F1 [8] 30 08 00 00 00 00 00 00
1538623869.032666,can1 0CF00400 [8] 38 FE FE FE FE 00 FF FE
1538623869.033694,can1 0CF00203 [8] FF 00 00 FF FF AD 47 03
1538623869.034506,can1 18FF3000 [8] 00 00 FF FF FF FF FF FF
1538623869.040107,can1 18DA00F1 [8] 02 10 03 00 00 00 00 00
1538623869.04195,can1 18DAF100 [8] 06 50 03 00 14 00 C8 20
1538623869.042742,can1 0CF00400 [8] 38 FE FE FE FE 00 FF FE
1538623869.04437,can1 0CF00203 [8] FF 00 00 FF FF AD 47 03
1538623869.045346,can1 0CF00300 [8] D1 00 FE FF FF FF 00 FF
1538623869.046075,can1 14FFA000 [8] FC FF FF FF FF FF FF FF
1538623869.046733,can1 18FEF200 [8] 00 00 00 00 00 00 FF FF
1538623869.052359,can1 0CF00400 [8] 38 FE FE FE FE 00 FF FE
1538623869.053314,can1 0CF00203 [8] FF 00 00 FF FF AD 47 03
1538623869.054088,can1 18FEDF00 [8] FE FE FE FF FE FF BF FF
1538623869.05475,can1 18FE5600 [8] FF FF FF FF FF FF FF FF
1538623869.06233,can1 0CF00400 [8] 38 FE FE FE FE 00 FF FE
1538623869.063263,can1 0CF00203 [8] FF 00 00 FF FF AD 47 03
1538623869.063949,can1 18FEC100 [8] CC 28 00 00 CC 28 00 00
1538623869.072328,can1 0CF00400 [8] 38 FE FE FE FE 00 FF FE
1538623869.074757,can1 0CF00203 [8] FF 00 00 FF FF AD 47 03
1538623869.075623,can1 18FEF000 [8] FF FF FF 00 00 FC 00 FF
1538623869.076806,can1 18FEF700 [8] FF FF FF FF F0 00 F0 00
1538623869.077596,can1 18DA00F1 [8] 30 08 00 00 00 00 00 00
1538623869.082526,can1 0CF00400 [8] 38 FE FE FE FE 00 FF FE
1538623869.083445,can1 0CF00203 [8] FF 00 00 FF FF AD 47 03
1538623869.0843,can1 18FEE000 [8] A2 01 00 00 A2 01 00 00
1538623869.085082,can1 18FEF803 [8] FF FF FF FF FF FF FF FF
1538623869.092718,can1 0CF00400 [8] 38 FE FE FE FE 00 FF FE
1538623869.093515,can1 0CF00203 [8] FF 00 00 FF FF AD 47 03
1538623869.097311,can1 0CF00300 [8] D1 00 FE FF FF FF 00 FF
1538623869.098851,can1 18FEF100 [8] CF 00 00 D0 FF 00 00 30
1538623869.102815,can1 0CF00400 [8] 38 FE FE FE FE 00 FF FE
1538623869.104646,can1 0CF00203 [8] FF 00 00 FF FF AD 47 03
1538623869.106202,can1 18F0010B [8] CF FF F0 FF FF DC FF FF
1538623869.107449,can1 18FEDF00 [8] FE FE FE FF FE FF BF FF
1538623869.108781,can1 18FE4A03 [8] FF FF F3 FF F0 F7 FF FF
1538623869.110089,can1 18F00503 [8] FF 57 9E FF 20 2D 2D 2D
1538623869.112745,can1 0CF00400 [8] 38 FE FE FE FE 00 FF FE
1538623869.11436,can1 0CF00203 [8] FF 00 00 FF FF AD 47 03
1538623869.115685,can1 18FEBF0B [8] 00 00 7D 7D 7D 7D FF FF
1538623869.116924,can1 18F00100 [8] FF FF FF FF 53 FF FF FF
1538623869.120371,can1 18DA00F1 [8] 30 08 00 00 00 00 00 00
1538623869.12278,can1 0CF00400 [8] 38 FE FE FE FE 00 FF FE
1538623869.124297,can1 0CF00203 [8] FF 00 00 FF FF AD 47 03
1538623869.125636,can1 18F0000F [8] 51 7D FF FF 0F 72 FF FF
1538623869.132785,can1 0CF00400 [8] 38 FE FE FE FE 00 FF FE
1538623869.134356,can1 0CF00203 [8] FF 00 00 FF FF AD 47 03
1538623869.135709,can1 18FF3000 [8] 00 00 FF FF FF FF FF FF
1538623869.142797,can1 0CF00400 [8] 38 FE FE FE FE 00 FF FE
1538623869.14442,can1 0CF00203 [8] FF 00 00 FF FF AD 47 03
1538623869.145908,can1 0CF00300 [8] D1 00 FE FF FF FF 00 FF
1538623869.14722,can1 14FFA000 [8] FC FF FF FF FF FF FF FF
1538623869.148436,can1 18FEF200 [8] 00 00 00 00 00 00 FF FF
1538623869.152811,can1 0CF00400 [8] 38 FE FE FE FE 00 FF FE
1538623869.154274,can1 0CF00203 [8] FF 00 00 FF FF AD 47 03
1538623869.155645,can1 18FEDF00 [8] FE FE FE FF FE FF BF FF
1538623869.162822,can1 0CF00400 [8] 38 FE FE FE FE 00 FF FE
1538623869.16424,can1 0CF00203 [8] FF 00 00 FF FF AD 47 03
1538623869.165595,can1 18DA00F1 [8] 30 08 00 00 00 00 00 00
1538623869.172789,can1 0CF00400 [8] 38 FE FE FE FE 00 FF FE
1538623869.176651,can1 0CF00203 [8] FF 00 00 FF FF AD 47 03
1538623869.181256,can1 18FEF000 [8] FF FF FF 00 00 FC 00 FF
1538623869.183228,can1 0CF00400 [8] 38 FE FE FE FE 00 FF FE
1538623869.184818,can1 0CF00203 [8] FF 00 00 FF FF AD 47 03
1538623869.186182,can1 18FEE000 [8] A2 01 00 00 A2 01 00 00
1538623869.193091,can1 0CF00400 [8] 38 FE FE FE FE 00 FF FE
1538623869.19479,can1 0CF00203 [8] FF 00 00 FF FF AD 47 03
1538623869.196161,can1 0CF00300 [8] D1 00 FE FF FF FF 00 FF
1538623869.197405,can1 18FEF100 [8] CF 00 00 D0 FF 00 00 30
1538623869.202815,can1 0CF00400 [8] 38 FE FE FE FE 00 FF FE
1538623869.204573,can1 0CF00203 [8] FF 00 00 FF FF AD 47 03
1538623869.206046,can1 18F0010B [8] CF FF F0 FF FF DC FF FF
1538623869.207274,can1 18FEDF00 [8] FE FE FE FF FE FF BF FF
1538623869.208742,can1 18FE4A03 [8] FF FF F3 FF F0 F7 FF FF
1538623869.210056,can1 18F00503 [8] FF 57 9E FF 20 2D 2D 2D
1538623869.211263,can1 18DA00F1 [8] 30 08 00 00 00 00 00 00
1538623869.212877,can1 0CF00400 [8] 38 FE FE FE FE 00 FF FE
1538623869.214456,can1 1CECFF00 [8] 20 12 00 03 FF CA FE 00
1538623869.215916,can1 18FEBF0B [8] 00 00 7D 7D 7D 7D FF FF
1538623869.217135,can1 0CF00203 [8] FF 00 00 FF FF AD 47 03
1538623869.218462,can1 18F00100 [8] FF FF FF FF 53 FF FF FF
1538623869.222782,can1 0CF00400 [8] 38 FE FE FE FE 00 FF FE
1538623869.224444,can1 0CF00203 [8] FF 00 00 FF FF AD 47 03
1538623869.225813,can1 18F0000F [8] 51 7D FF FF 0F 72 FF FF
1538623869.233531,can1 0CF00400 [8] 38 FE FE FE FE 00 FF FE
1538623869.235196,can1 0CF00203 [8] FF 00 00 FF FF AD 47 03
1538623869.236519,can1 18FF3000 [8] 00 00 FF FF FF FF FF FF
1538623869.244265,can1 0CF00400 [8] 38 FE FE FE FE 00 FF FE
1538623869.245978,can1 0CF00203 [8] FF 00 00 FF FF AD 47 03
1538623869.247408,can1 0CF00300 [8] D1 00 FE FF FF FF 00 FF
1538623869.252886,can1 14FFA000 [8] FC FF FF FF FF FF FF FF
1538623869.254659,can1 18FEF200 [8] 00 00 00 00 00 00 FF FF
1538623869.255973,can1 0CF00400 [8] 38 FE FE FE FE 00 FF FE
1538623869.261421,can1 18DA00F1 [8] 30 08 00 00 00 00 00 00
1538623869.263275,can1 0CF00203 [8] FF 00 00 FF FF AD 47 03
1538623869.268671,can1 18FEDF00 [8] FE FE FE FF FE FF BF FF
1538623869.270173,can1 0CF00400 [8] 38 FE FE FE FE 00 FF FE
1538623869.271453,can1 1CEBFF00 [8] 01 47 FF 0F 02 09 01 71
1538623869.279114,can1 0CF00203 [8] FF 00 00 FF FF AD 47 03
1538623869.28074,can1 0CF00400 [8] 38 FE FE FE FE 00 FF FE
1538623869.286173,can1 0CF00203 [8] FF 00 00 FF FF AD 47 03
1538623869.287716,can1 18FEF000 [8] FF FF FF 00 00 FC 00 FF
1538623869.289019,can1 0CF00400 [8] 38 FE FE FE FE 00 FF FE
1538623869.29468,can1 0CF00203 [8] FF 00 00 FF FF AD 47 03
1538623869.296155,can1 18DA00F1 [8] 02 10 03 00 00 00 00 00
1538623869.305632,can1 18FEE000 [8] A2 01 00 00 A2 01 00 00
1538623869.30722,can1 18DAF100 [8] 06 50 03 00 14 00 C8 20
1538623869.308543,can1 0CF00400 [8] 38 FE FE FE FE 00 FF FE
1538623869.309956,can1 0CF00203 [8] FF 00 00 FF FF AD 47 03
1538623869.311317,can1 0CF00300 [8] D1 00 FE FF FF FF 00 FF
1538623869.312841,can1 18FEF100 [8] CF 00 00 D0 FF 00 00 30
1538623869.318323,can1 18DA00F1 [8] 30 08 00 00 00 00 00 00
1538623869.319766,can1 0CF00400 [8] 38 FE FE FE FE 00 FF FE
1538623869.325112,can1 0CF00203 [8] FF 00 00 FF FF AD 47 03
1538623869.326621,can1 18F0010B [8] CF FF F0 FF FF DC FF FF
1538623869.327912,can1 18FEDF00 [8] FE FE FE FF FE FF BF FF
1538623869.337247,can1 18FE4A03 [8] FF FF F3 FF F0 F7 FF FF
1538623869.33877,can1 18F00503 [8] FF 57 9E FF 20 2D 2D 2D
1538623869.34007,can1 0CF00400 [8] 38 FE FE FE FE 00 FF FE
1538623869.345682,can1 1CEBFF00 [8] 02 02 0D 01 3F 0A 08 01
1538623869.347118,can1 18FEBF0B [8] 00 00 7D 7D 7D 7D FF FF
1538623869.352712,can1 0CF00203 [8] FF 00 00 FF FF AD 47 03
1538623869.354375,can1 18F00100 [8] FF FF FF FF 53 FF FF FF
1538623869.355672,can1 0CF00400 [8] 38 FE FE FE FE 00 FF FE
1538623869.361148,can1 0CF00203 [8] FF 00 00 FF FF AD 47 03
1538623869.363036,can1 18F0000F [8] 51 7D FF FF 0F 72 FF FF
1538623869.364648,can1 0CF00400 [8] 38 FE FE FE FE 00 FF FE
1538623869.366025,can1 0CF00203 [8] FF 00 00 FF FF AD 47 03
1538623869.367277,can1 18FF3000 [8] 00 00 FF FF FF FF FF FF
1538623869.376725,can1 18DA00F1 [8] 30 08 00 00 00 00 00 00
1538623869.382546,can1 0CF00400 [8] 38 FE FE FE FE 00 FF FE
1538623869.384368,can1 0CF00203 [8] FF 00 00 FF FF AD 47 03
1538623869.389965,can1 0CF00300 [8] D1 00 FE FF FF FF 00 FF
1538623869.391448,can1 14FFA000 [8] FC FF FF FF FF FF FF FF
1538623869.39289,can1 18FEF200 [8] 00 00 00 00 00 00 FF FF
1538623869.398567,can1 0CF00400 [8] 38 FE FE FE FE 00 FF FE
1538623869.400017,can1 0CF00203 [8] FF 00 00 FF FF AD 47 03
1538623869.405508,can1 18FEDF00 [8] FE FE FE FF FE FF BF FF
1538623869.407149,can1 0CF00400 [8] 38 FE FE FE FE 00 FF FE
1538623869.408419,can1 1CEBFF00 [8] 03 5B 00 08 01 FF FF FF
1538623869.412836,can1 0CF00203 [8] FF 00 00 FF FF AD 47 03
1538623869.414586,can1 0CF00400 [8] 38 FE FE FE FE 00 FF FE
1538623869.416887,can1 0CF00203 [8] FF 00 00 FF FF AD 47 03
1538623869.418288,can1 18FEF000 [8] FF FF FF 00 00 FC 00 FF
1538623869.419697,can1 0CF00400 [8] 38 FE FE FE FE 00 FF FE
1538623869.421053,can1 0CF00203 [8] FF 00 00 FF FF AD 47 03
1538623869.422515,can1 18FEE000 [8] A2 01 00 00 A2 01 00 00
1538623869.424054,can1 18DA00F1 [8] 30 08 00 00 00 00 00 00
1538623869.425396,can1 0CF00400 [8] 38 FE FE FE FE 00 FF FE
1538623869.426723,can1 0CF00203 [8] FF 00 00 FF FF AD 47 03
1538623869.427932,can1 0CF00300 [8] D1 00 FE FF FF FF 00 FF
1538623869.429417,can1 18FEF100 [8] CF 00 00 D0 FF 00 00 30
1538623869.430748,can1 0CF00400 [8] 38 FE FE FE FE 00 FF FE
1538623869.431981,can1 0CF00203 [8] FF 00 00 FF FF AD 47 03
1538623869.433668,can1 18FEDF00 [8] FE FE FE FF FE FF BF FF
1538623869.435008,can1 18F0010B [8] CF FF F0 FF FF DC FF FF
1538623869.436316,can1 18FE4A03 [8] FF FF F3 FF F0 F7 FF FF
1538623869.437527,can1 18F00503 [8] FF 57 9E FF 20 2D 2D 2D
1538623869.438826,can1 18FEEF00 [8] FF FF FF FF FF FF FF FA
1538623869.440149,can1 0CF00400 [8] 38 FE FE FE FE 00 FF FE
1538623869.441372,can1 0CF00203 [8] FF 00 00 FF FF AD 47 03
1538623869.442952,can1 18F00100 [8] FF FF FF FF 53 FF FF FF
1538623869.444632,can1 18FEBF0B [8] 00 00 7D 7D 7D 7D FF FF
1538623869.445985,can1 0CF00400 [8] 38 FE FE FE FE 00 FF FE
1538623869.447219,can1 0CF00203 [8] FF 00 00 FF FF AD 47 03
1538623869.448525,can1 18F0000F [8] 51 7D FF FF 0F 72 FF FF
1538623869.449816,can1 18DA00F1 [8] 30 08 00 00 00 00 00 00
1538623869.451032,can1 0CF00400 [8] 38 FE FE FE FE 00 FF FE
1538623869.452466,can1 0CF00203 [8] FF 00 00 FF FF AD 47 03
1538623869.454141,can1 18FF3000 [8] 00 00 FF FF FF FF FF FF
1538623869.455373,can1 0CF00400 [8] 38 FE FE FE FE 00 FF FE
1538623869.456713,can1 0CF00203 [8] FF 00 00 FF FF AD 47 03
1538623869.458005,can1 0CF00300 [8] D1 00 FE FF FF FF 00 FF
1538623869.459216,can1 14FFA000 [8] FC FF FF FF FF FF FF FF
1538623869.460519,can1 18FEF200 [8] 00 00 00 00 00 00 FF FF
1538623869.461821,can1 0CF00400 [8] 38 FE FE FE FE 00 FF FE
1538623869.463409,can1 0CF00203 [8] FF 00 00 FF FF AD 47 03
1538623869.464641,can1 18FEDF00 [8] FE FE FE FF FE FF BF FF
1538623869.465951,can1 18FF6411 [8] F8 FF FF FF FF FF FF FF
1538623869.467252,can1 0CF00400 [8] 38 FE FE FE FE 00 FF FE
1538623869.468476,can1 0CF00203 [8] FF 00 00 FF FF AD 47 03
1538623869.473477,can1 0CF00400 [8] 38 FE FE FE FE 00 FF FE
1538623869.475675,can1 0CF00203 [8] FF 00 00 FF FF AD 47 03
1538623869.477179,can1 18DA00F1 [8] 30 08 00 00 00 00 00 00
1538623869.480649,can1 18FEF000 [8] FF FF FF 00 00 FC 00 FF
1538623869.483085,can1 0CF00400 [8] 38 FE FE FE FE 00 FF FE
1538623869.484876,can1 0CF00203 [8] FF 00 00 FF FF AD 47 03
1538623869.486199,can1 14FD3E00 [8] FF FF FF FF FF FF FF FF
1538623869.487544,can1 18FEE000 [8] A2 01 00 00 A2 01 00 00
1538623869.493193,can1 0CF00400 [8] 38 FE FE FE FE 00 FF FE
1538623869.494878,can1 0CF00203 [8] FF 00 00 FF FF AD 47 03
1538623869.496165,can1 0CF00300 [8] D1 00 FE FF FF FF 00 FF
1538623869.497494,can1 18FEF100 [8] CF 00 00 D0 FF 00 00 30
1538623869.502895,can1 0CF00400 [8] 38 FE FE FE FE 00 FF FE
1538623869.504641,can1 0CF00203 [8] FF 00 00 FF FF AD 47 03
1538623869.506055,can1 18FEDF00 [8] FE FE FE FF FE FF BF FF
1538623869.507377,can1 18F0010B [8] CF FF F0 FF FF DC FF FF
1538623869.508698,can1 18FE4A03 [8] FF FF F3 FF F0 F7 FF FF
1538623869.509906,can1 18F00503 [8] FF 57 9E FF 20 2D 2D 2D
1538623869.512835,can1 0CF00400 [8] 38 FE FE FE FE 00 FF FE
1538623869.514448,can1 0CF00203 [8] FF 00 00 FF FF AD 47 03
1538623869.515709,can1 18F00100 [8] FF FF FF FF 53 FF FF FF
1538623869.517186,can1 18FEBF0B [8] 00 00 7D 7D 7D 7D FF FF
1538623869.518527,can1 18DA00F1 [8] 30 08 00 00 00 00 00 00
1538623869.522815,can1 0CF00400 [8] 38 FE FE FE FE 00 FF FE
1538623869.524433,can1 0CF00203 [8] FF 00 00 FF FF AD 47 03
1538623869.525668,can1 18F0000F [8] 51 7D FF FF 0F 72 FF FF
1538623869.527159,can1 18FEF600 [8] FF 00 FF FF FF FF FF FF
1538623869.528485,can1 18DA00F1 [8] 02 10 03 00 00 00 00 00
1538623869.532337,can1 18DAF100 [8] 06 50 03 00 14 00 C8 20
1538623869.533959,can1 0CF00400 [8] 38 FE FE FE FE 00 FF FE
1538623869.535226,can1 0CF00203 [8] FF 00 00 FF FF AD 47 03
1538623869.536545,can1 18FF3000 [8] 00 00 FF FF FF FF FF FF
1538623869.542791,can1 0CF00400 [8] 38 FE FE FE FE 00 FF FE
1538623869.544396,can1 0CF00203 [8] FF 00 00 FF FF AD 47 03
1538623869.545928,can1 0CF00300 [8] D1 00 FE FF FF FF 00 FF
1538623869.547147,can1 14FFA000 [8] FC FF FF FF FF FF FF FF
1538623869.548469,can1 18FEF200 [8] 00 00 00 00 00 00 FF FF
1538623869.552762,can1 0CF00400 [8] 38 FE FE FE FE 00 FF FE
1538623869.554288,can1 0CF00203 [8] FF 00 00 FF FF AD 47 03
1538623869.555608,can1 18FEDF00 [8] FE FE FE FF FE FF BF FF
1538623869.561616,can1 18DA00F1 [8] 30 08 00 00 00 00 00 00
1538623869.563241,can1 0CF00400 [8] 38 FE FE FE FE 00 FF FE
1538623869.564506,can1 0CF00203 [8] FF 00 00 FF FF AD 47 03
1538623869.572808,can1 0CF00400 [8] 38 FE FE FE FE 00 FF FE
1538623869.576349,can1 0CF00203 [8] FF 00 00 FF FF AD 47 03
1538623869.578057,can1 18FEF000 [8] FF FF FF 00 00 FC 00 FF
1538623869.583033,can1 0CF00400 [8] 38 FE FE FE FE 00 FF FE
1538623869.584638,can1 0CF00203 [8] FF 00 00 FF FF AD 47 03
1538623869.585915,can1 18FEE000 [8] A2 01 00 00 A2 01 00 00
1538623869.593065,can1 0CF00400 [8] 38 FE FE FE FE 00 FF FE
1538623869.594722,can1 0CF00203 [8] FF 00 00 FF FF AD 47 03
1538623869.595982,can1 0CF00300 [8] D1 00 FE FF FF FF 00 FF
1538623869.597584,can1 18FEF100 [8] CF 00 00 D0 FF 00 00 30
1538623869.602829,can1 0CF00400 [8] 38 FE FE FE FE 00 FF FE
1538623869.604596,can1 0CF00203 [8] FF 00 00 FF FF AD 47 03
1538623869.606228,can1 18FEDF00 [8] FE FE FE FF FE FF BF FF
1538623869.60749,can1 18F0010B [8] CF FF F0 FF FF DC FF FF
1538623869.60882,can1 18FE4A03 [8] FF FF F3 FF F0 F7 FF FF
1538623869.610136,can1 18F00503 [8] FF 57 9E FF 20 2D 2D 2D
1538623869.611346,can1 18DA00F1 [8] 30 08 00 00 00 00 00 00
1538623869.612919,can1 0CF00400 [8] 38 FE FE FE FE 00 FF FE
1538623869.614479,can1 0CF00203 [8] FF 00 00 FF FF AD 47 03
1538623869.615795,can1 18F00100 [8] FF FF FF FF 53 FF FF FF
1538623869.617005,can1 18FEBF0B [8] 00 00 7D 7D 7D 7D FF FF
1538623869.622816,can1 0CF00400 [8] 38 FE FE FE FE 00 FF FE
1538623869.624326,can1 0CF00203 [8] FF 00 00 FF FF AD 47 03
1538623869.625662,can1 18F0000F [8] 51 7D FF FF 0F 72 FF FF
1538623869.632816,can1 0CF00400 [8] 38 FE FE FE FE 00 FF FE
1538623869.634333,can1 0CF00203 [8] FF 00 00 FF FF AD 47 03
1538623869.635673,can1 18FF3000 [8] 00 00 FF FF FF FF FF FF
1538623869.64282,can1 0CF00400 [8] 38 FE FE FE FE 00 FF FE
1538623869.644445,can1 0CF00203 [8] FF 00 00 FF FF AD 47 03
1538623869.645941,can1 0CF00300 [8] D1 00 FE FF FF FF 00 FF
1538623869.647258,can1 14FFA000 [8] FC FF FF FF FF FF FF FF
1538623869.648481,can1 18FEF200 [8] 00 00 00 00 00 00 FF FF
1538623869.650323,can1 18DA00F1 [8] 30 08 00 00 00 00 00 00
1538623869.652841,can1 0CF00400 [8] 38 FE FE FE FE 00 FF FE
1538623869.654267,can1 0CF00203 [8] FF 00 00 FF FF AD 47 03
1538623869.655623,can1 18FEDF00 [8] FE FE FE FF FE FF BF FF
1538623869.662854,can1 0CF00400 [8] 38 FE FE FE FE 00 FF FE
1538623869.664153,can1 0CF00203 [8] FF 00 00 FF FF AD 47 03
1538623869.677649,can1 18ECFFFA [8] 20 1D 00 05 FF EB FE 00
1538623869.679855,can1 18EBFFFA [8] 01 20 53 59 4E 45 52 2A
1538623869.681358,can1 18EBFFFA [8] 02 53 53 53 32 2D 30 35
1538623869.683036,can1 18EBFFFA [8] 03 2A 30 30 38 31 2A 55
1538623869.684556,can1 18EBFFFA [8] 04 4E 49 56 45 52 53 41
1538623869.6858,can1 18EBFFFA [8] 05 4C FF FF FF FF FF FF
1538623869.687139,can1 0CF00400 [8] 38 FE FE FE FE 00 FF FE
1538623869.688476,can1 0CF00203 [8] FF 00 00 FF FF AD 47 03
1538623869.689684,can1 18FEF000 [8] FF FF FF 00 00 FC 00 FF
1538623869.691012,can1 0CF00400 [8] 38 FE FE FE FE 00 FF FE
1538623869.692318,can1 0CF00203 [8] FF 00 00 FF FF AD 47 03
1538623869.694311,can1 18FEE000 [8] A2 01 00 00 A2 01 00 00
1538623869.695814,can1 0CF00400 [8] 38 FE FE FE FE 00 FF FE
1538623869.697072,can1 0CF00203 [8] FF 00 00 FF FF AD 47 03
1538623869.698706,can1 0CF00300 [8] D1 00 FE FF FF FF 00 FF
1538623869.701064,can1 18DA00F1 [8] 30 08 00 00 00 00 00 00
1538623869.703005,can1 18FEF100 [8] CF 00 00 D0 FF 00 00 30
1538623869.704809,can1 18DA00F1 [8] 03 22 F1 A0 00 00 00 00
1538623869.706317,can1 18DAF100 [8] 10 14 62 F1 A0 42 6C 61
1538623869.707663,can1 0CF00400 [8] 38 FE FE FE FE 00 FF FE
1538623869.708903,can1 0CF00203 [8] FF 00 00 FF FF AD 47 03
1538623869.710219,can1 18FEDF00 [8] FE FE FE FF FE FF BF FF
1538623869.711517,can1 18F0010B [8] CF FF F0 FF FF DC FF FF
1538623869.712998,can1 18FE4A03 [8] FF FF F3 FF F0 F7 FF FF
1538623869.714568,can1 18F00503 [8] FF 57 9E FF 20 2D 2D 2D
1538623869.715901,can1 0CF00400 [8] 38 FE FE FE FE 00 FF FE
1538623869.71713,can1 0CF00203 [8] FF 00 00 FF FF AD 47 03
1538623869.718439,can1 18F00100 [8] FF FF FF FF 53 FF FF FF
1538623869.719737,can1 18FEBF0B [8] 00 00 7D 7D 7D 7D FF FF
1538623869.722883,can1 0CF00400 [8] 38 FE FE FE FE 00 FF FE
1538623869.724432,can1 0CF00203 [8] FF 00 00 FF FF AD 47 03
1538623869.725786,can1 18F0000F [8] 51 7D FF FF 0F 72 FF FF
1538623869.733534,can1 0CF00400 [8] 38 FE FE FE FE 00 FF FE
1538623869.735174,can1 0CF00203 [8] FF 00 00 FF FF AD 47 03
1538623869.736493,can1 18FF3000 [8] 00 00 FF FF FF FF FF FF
1538623869.74197,can1 18DA00F1 [8] 30 08 00 00 00 00 00 00
1538623869.743798,can1 18DAF100 [8] 21 6B 65 20 57 61 73 20
1538623869.749346,can1 18DAF100 [8] 22 48 65 72 65 20 20 20
1538623869.750818,can1 0CF00400 [8] 38 FE FE FE FE 00 FF FE
1538623869.752239,can1 0CF00203 [8] FF 00 00 FF FF AD 47 03
1538623869.757732,can1 0CF00300 [8] D1 00 FE FF FF FF 00 FF
1538623869.759167,can1 14FFA000 [8] FC FF FF FF FF FF FF FF
1538623869.764525,can1 18FEF200 [8] 00 00 00 00 00 00 FF FF
1538623869.76592,can1 0CF00400 [8] 38 FE FE FE FE 00 FF FE
1538623869.767342,can1 0CF00203 [8] FF 00 00 FF FF AD 47 03
1538623869.776949,can1 18FEDF00 [8] FE FE FE FF FE FF BF FF
1538623869.780907,can1 0CF00400 [8] 38 FE FE FE FE 00 FF FE
1538623869.790765,can1 0CF00203 [8] FF 00 00 FF FF AD 47 03
1538623869.7986,can1 18DA00F1 [8] 02 10 03 00 00 00 00 00
1538623869.806439,can1 18DAF100 [8] 06 50 03 00 14 00 C8 20
1538623869.816502,can1 0CF00400 [8] 38 FE FE FE FE 00 FF FE
1538623869.828759,can1 0CF00203 [8] FF 00 00 FF FF AD 47 03
1538623869.836683,can1 18FEF000 [8] FF FF FF 00 00 FC 00 FF
1538623869.84647,can1 0CF00400 [8] 38 FE FE FE FE 00 FF FE
1538623869.852464,can1 18DA00F1 [8] 30 08 00 00 00 00 00 00
1538623869.854536,can1 0CF00203 [8] FF 00 00 FF FF AD 47 03
1538623869.86193,can1 18FEE000 [8] A2 01 00 00 A2 01 00 00
1538623869.863865,can1 0CF00400 [8] 38 FE FE FE FE 00 FF FE
1538623869.865225,can1 0CF00203 [8] FF 00 00 FF FF AD 47 03
1538623869.870807,can1 0CF00300 [8] D1 00 FE FF FF FF 00 FF
1538623869.872415,can1 18FEF100 [8] CF 00 00 D0 FF 00 00 30
1538623869.877204,can1 0CF00400 [8] 38 FE FE FE FE 00 FF FE
1538623869.881043,can1 0CF00203 [8] FF 00 00 FF FF AD 47 03
1538623869.882743,can1 18FEDF00 [8] FE FE FE FF FE FF BF FF
1538623869.888359,can1 18FE4A03 [8] FF FF F3 FF F0 F7 FF FF
1538623869.889816,can1 18F0010B [8] CF FF F0 FF FF DC FF FF
1538623869.89522,can1 18F00503 [8] FF 57 9E FF 20 2D 2D 2D
1538623869.896789,can1 0CF00400 [8] 38 FE FE FE FE 00 FF FE
1538623869.898224,can1 0CF00203 [8] FF 00 00 FF FF AD 47 03
1538623869.903844,can1 18F00100 [8] FF FF FF FF 53 FF FF FF
1538623869.905801,can1 18FEBF0B [8] 00 00 7D 7D 7D 7D FF FF
1538623869.911229,can1 0CF00400 [8] 38 FE FE FE FE 00 FF FE
1538623869.916854,can1 0CF00203 [8] FF 00 00 FF FF AD 47 03
1538623869.918276,can1 18F0000F [8] 51 7D FF FF 0F 72 FF FF
1538623869.919715,can1 18DA00F1 [8] 30 08 00 00 00 00 00 00
1538623869.925104,can1 0CF00400 [8] 38 FE FE FE FE 00 FF FE
1538623869.926586,can1 0CF00203 [8] FF 00 00 FF FF AD 47 03
1538623869.927851,can1 18FF3000 [8] 00 00 FF FF FF FF FF FF
1538623869.933726,can1 0CF00400 [8] 38 FE FE FE FE 00 FF FE
1538623869.935194,can1 0CF00203 [8] FF 00 00 FF FF AD 47 03
1538623869.940554,can1 0CF00300 [8] D1 00 FE FF FF FF 00 FF
1538623869.942023,can1 14FFA000 [8] FC FF FF FF FF FF FF FF
1538623869.943698,can1 18FEF200 [8] 00 00 00 00 00 00 FF FF
1538623869.94918,can1 0CF00400 [8] 38 FE FE FE FE 00 FF FE
1538623869.950601,can1 0CF00203 [8] FF 00 00 FF FF AD 47 03
1538623869.956022,can1 18FEDF00 [8] FE FE FE FF FE FF BF FF
1538623869.957697,can1 0CF00400 [8] 38 FE FE FE FE 00 FF FE
1538623869.963528,can1 0CF00203 [8] FF 00 00 FF FF AD 47 03
1538623869.965006,can1 18DA00F1 [8] 30 08 00 00 00 00 00 00
1538623869.972307,can1 0CF00400 [8] 38 FE FE FE FE 00 FF FE
1538623869.978053,can1 0CF00203 [8] FF 00 00 FF FF AD 47 03
1538623869.981671,can1 18FEF000 [8] FF FF FF 00 00 FC 00 FF
1538623869.989608,can1 0CF00400 [8] 38 FE FE FE FE 00 FF FE
1538623869.993739,can1 0CF00203 [8] FF 00 00 FF FF AD 47 03
1538623869.997857,can1 18FEE000 [8] A2 01 00 00 A2 01 00 00
1538623870.002956,can1 0CF00400 [8] 38 FE FE FE FE 00 FF FE
1538623870.003638,can1 0CF00203 [8] FF 00 00 FF FF AD 47 03
1538623870.00419,can1 0CF00300 [8] D1 00 FE FF FF FF 00 FF
1538623870.010559,can1 18FEF100 [8] CF 00 00 D0 FF 00 00 30
1538623870.011155,can1 18FDE000 [8] FF FF FF FF FF FF FF FF
1538623870.011623,can1 1CFEAB03 [8] FF FF 7E FF FF FF FF FF
1538623870.012059,can1 0CF00400 [8] 38 FE FE FE FE 00 FF FE
1538623870.012919,can1 0CF00203 [8] FF 00 00 FF FF AD 47 03
1538623870.013455,can1 18FEDF00 [8] FE FE FE FF FE FF BF FF
1538623870.013959,can1 18FE4A03 [8] FF FF F3 FF F0 F7 FF FF
1538623870.014715,can1 18F0010B [8] CF FF F0 FF FF DC FF FF
1538623870.015239,can1 18F00503 [8] FF 57 9E FF 20 2D 2D 2D
1538623870.015672,can1 18FEEF00 [8] FF FF FF FF FF FF FF FA
1538623870.01621,can1 0CF00400 [8] 38 FE FE FE FE 00 FF FE
1538623870.016663,can1 0CF00203 [8] FF 00 00 FF FF AD 47 03
1538623870.017081,can1 18F00100 [8] FF FF FF FF 53 FF FF FF
1538623870.017484,can1 18E0FF00 [8] FF FF FF FF FF F3 FF FF
1538623870.017889,can1 18FEBF0B [8] 00 00 7D 7D 7D 7D FF FF
1538623870.018429,can1 18DA00F1 [8] 30 08 00 00 00 00 00 00
1538623870.018853,can1 18FCDC00 [8] E0 FE FE FF FF FF FF FF
1538623870.019259,can1 0CF00400 [8] 38 FE FE FE FE 00 FF FE
1538623870.019657,can1 0CF00203 [8] FF 00 00 FF FF AD 47 03
1538623870.02014,can1 18F0000F [8] 51 7D FF FF 0F 72 FF FF
1538623870.020568,can1 0CF00400 [8] 38 FE FE FE FE 00 FF FE
1538623870.020975,can1 0CF00203 [8] FF 00 00 FF FF AD 47 03
1538623870.021381,can1 18FF3000 [8] 00 00 FF FF FF FF FF FF
1538623870.021905,can1 0CF00400 [8] 38 FE FE FE FE 00 FF FE
1538623870.022418,can1 0CF00203 [8] FF 00 00 FF FF AD 47 03
1538623870.022902,can1 0CF00300 [8] D1 00 FE FF FF FF 00 FF
1538623870.023315,can1 14FFA000 [8] FC FF FF FF FF FF FF FF
1538623870.023839,can1 18FEF200 [8] 00 00 00 00 00 00 FF FF
1538623870.024336,can1 18FEF500 [8] FF FF FF FF FF FF FF FF
1538623870.024834,can1 0CF00400 [8] 38 FE FE FE FE 00 FF FE
1538623870.025258,can1 0CF00203 [8] FF 00 00 FF FF AD 47 03
1538623870.025664,can1 18FEDF00 [8] FE FE FE FF FE FF BF FF
1538623870.026154,can1 18FF6411 [8] F8 FF FF FF FF FF FF FF
1538623870.026577,can1 18FECA11 [8] 03 FF 00 00 00 00 FF FF
1538623870.026987,can1 18DA00F1 [8] 30 08 00 00 00 00 00 00
1538623870.027397,can1 0CF00400 [8] 38 FE FE FE FE 00 FF FE
1538623870.027848,can1 0CF00203 [8] FF 00 00 FF FF AD 47 03
1538623870.028266,can1 18FEEE00 [8] FF FF FF FF FF FF FF FF
1538623870.028677,can1 0CF00400 [8] 38 FE FE FE FE 00 FF FE
1538623870.029075,can1 0CF00203 [8] FF 00 00 FF FF AD 47 03
1538623870.029466,can1 18FEF000 [8] FF FF FF 00 00 FC 00 FF
1538623870.02991,can1 18FEA400 [8] FF FF FF FF 66 B1 A0 5B
1538623870.030325,can1 18FECA03 [8] 03 FF 00 00 00 00 FF FF
1538623870.030729,can1 0CF00400 [8] 38 FE FE FE FE 00 FF FE
1538623870.031133,can1 0CF00203 [8] FF 00 00 FF FF AD 47 03
1538623870.031527,can1 14FD3E00 [8] FF FF FF FF FF FF FF FF
1538623870.031983,can1 18FEE000 [8] A2 01 00 00 A2 01 00 00
1538623870.032475,can1 0CF00400 [8] 38 FE FE FE FE 00 FF FE
1538623870.032969,can1 0CF00203 [8] FF 00 00 FF FF AD 47 03
1538623870.03345,can1 0CF00300 [8] D1 00 FE FF FF FF 00 FF
1538623870.033926,can1 18FEF100 [8] CF 00 00 D0 FF 00 00 30
1538623870.034343,can1 18FEBD00 [8] FF FF FF FF FF FF FF FF
1538623870.035226,can1 18FD0700 [8] 47 F4 C0 FF FF FF FF FF
1538623870.035838,can1 0CF00400 [8] 38 FE FE FE FE 00 FF FE
1538623870.036305,can1 0CF00203 [8] FF 00 00 FF FF AD 47 03
1538623870.036737,can1 18DA00F1 [8] 30 08 00 00 00 00 00 00
1538623870.037144,can1 18FEDF00 [8] FE FE FE FF FE FF BF FF
1538623870.037615,can1 18F0010B [8] CF FF F0 FF FF DC FF FF
1538623870.038038,can1 18FE4A03 [8] FF FF F3 FF F0 F7 FF FF
1538623870.038442,can1 18F00503 [8] FF 57 9E FF 20 2D 2D 2D
1538623870.038843,can1 18FF7400 [8] 5D 01 FF FF FF FF FF FF
1538623870.039253,can1 0CF00400 [8] 38 FE FE FE FE 00 FF FE
1538623870.039712,can1 18DA00F1 [8] 02 10 03 00 00 00 00 00
1538623870.040134,can1 0CF00203 [8] FF 00 00 FF FF AD 47 03
1538623870.040534,can1 18F00100 [8] FF FF FF FF 53 FF FF FF
1538623870.040937,can1 18FEBF0B [8] 00 00 7D 7D 7D 7D FF FF
1538623870.041327,can1 18FD7C00 [8] FF FF D0 34 FD FF FF FF
1538623870.041793,can1 18DAF100 [8] 06 50 03 00 14 00 C8 20
