1508185497.83065,can0 08FF0001 [8] 00 00 00 00 00 00 00 00
1508185497.851953,can0 0CF00203 [8] 00 00 00 00 00 00 00 00
1508185497.858518,can0 08FF0303 [8] 00 00 00 00 00 00 00 00
1508185497.868716,can0 08FF0001 [8] 00 00 00 00 00 00 00 00
1508185497.870834,can0 0CF00203 [8] 00 00 00 00 00 00 00 00
1508185497.880688,can0 08FF0303 [8] 00 00 00 00 00 00 00 00
1508185497.882758,can0 08FF0001 [8] 00 00 00 00 00 00 00 00
1508185497.892653,can0 0CF00203 [8] 00 00 00 00 00 00 00 00
1508185497.895064,can0 08FF0303 [8] 00 00 00 00 00 00 00 00
1508185497.908183,can0 08FF0001 [8] 00 00 00 00 00 00 00 00
1508185497.909875,can0 0CF00203 [8] 00 00 00 00 00 00 00 00
1508185497.919211,can0 08FF0303 [8] 00 00 00 00 00 00 00 00
1508185497.920818,can0 08FF0001 [8] 00 00 00 00 00 00 00 00
1508185497.92214,can0 0CF00203 [8] 00 00 00 00 00 00 00 00
1508185497.931561,can0 08FF0303 [8] 00 00 00 00 00 00 00 00
1508185497.93331,can0 08FF0001 [8] 00 00 00 00 00 00 00 00
1508185497.941327,can0 0CF00203 [8] 00 00 00 00 00 00 00 00
1508185497.943141,can0 08FF0303 [8] 00 00 00 00 00 00 00 00
1508185497.952773,can0 08FF0001 [8] 00 00 00 00 00 00 00 00
1508185497.954917,can0 0CF00203 [8] 00 00 00 00 00 00 00 00
1508185497.964576,can0 08FF0303 [8] 00 00 00 00 00 00 00 00
1508185497.966206,can0 08FF0001 [8] 00 00 00 00 00 00 00 00
1508185497.9756,can0 0CF00203 [8] 00 00 00 00 00 00 00 00
1508185497.987322,can0 08FF0303 [8] 00 00 00 00 00 00 00 00
1508185497.988066,can0 18F00503 [8] 00 00 00 00 00 00 00 00
1508185497.988562,can0 08FF0001 [8] 00 00 00 00 00 00 00 00
1508185497.989097,can0 0CF00203 [8] 00 00 00 00 00 00 00 00
1508185497.989563,can0 08FF0303 [8] 00 00 00 00 00 00 00 00
1508185497.989994,can0 08FF0001 [8] 00 00 00 00 00 00 00 00
1508185497.990399,can0 0CF00203 [8] 00 00 00 00 00 00 00 00
1508185497.990793,can0 08FF0303 [8] 00 00 00 00 00 00 00 00
1508185497.999416,can0 08FF0001 [8] 00 00 00 00 00 00 00 00
1508185498.000001,can0 0CF00203 [8] 00 00 00 00 00 00 00 00
1508185498.000448,can0 08FF0303 [8] 00 00 00 00 00 00 00 00
1508185498.000969,can0 08FF0001 [8] 00 00 00 00 00 00 00 00
1508185498.001414,can0 0CF00203 [8] 00 00 00 00 00 00 00 00
1508185498.001838,can0 08FF0303 [8] 00 00 00 00 00 00 00 00
1508185498.002236,can0 08FF0001 [8] 00 00 00 00 00 00 00 00
1508185498.010564,can0 0CF00203 [8] 00 00 00 00 00 00 00 00
1508185498.011368,can0 08FF0303 [8] 00 00 00 00 00 00 00 00
1508185498.011887,can0 08FF0001 [8] 00 00 00 00 00 00 00 00
1508185498.012333,can0 0CF00203 [8] 00 00 00 00 00 00 00 00
1508185498.012872,can0 08FF0303 [8] 00 00 00 00 00 00 00 00
1508185498.013442,can0 08FF0001 [8] 00 00 00 00 00 00 00 00
1508185498.013936,can0 0CF00203 [8] 00 00 00 00 00 00 00 00
1508185498.022441,can0 08FF0303 [8] 00 00 00 00 00 00 00 00
1508185498.023298,can0 08FF0001 [8] 00 00 00 00 00 00 00 00
1508185498.023894,can0 0CF00203 [8] 00 00 00 00 00 00 00 00
1508185498.024495,can0 08FF0303 [8] 00 00 00 00 00 00 00 00
1508185498.024953,can0 08FF0001 [8] 00 00 00 00 00 00 00 00
1508185498.025364,can0 0CF00203 [8] 00 00 00 00 00 00 00 00
1508185498.025758,can0 08FF0303 [8] 00 00 00 00 00 00 00 00
1508185498.026222,can0 08FF0001 [8] 00 00 00 00 00 00 00 00
1508185498.026647,can0 0CF00203 [8] 00 00 00 00 00 00 00 00
1508185498.027047,can0 08FF0303 [8] 00 00 00 00 00 00 00 00
1508185498.027482,can0 18F00503 [8] 00 00 00 00 00 00 00 00
1508185498.027891,can0 08FF0001 [8] 00 00 00 00 00 00 00 00
1508185498.028358,can0 0CF00203 [8] 00 00 00 00 00 00 00 00
1508185498.028768,can0 08FF0303 [8] 00 00 00 00 00 00 00 00
1508185498.029165,can0 08FF0001 [8] 00 00 00 00 00 00 00 00
1508185498.029554,can0 0CF00203 [8] 00 00 00 00 00 00 00 00
1508185498.029942,can0 08FF0303 [8] 00 00 00 00 00 00 00 00
1508185498.038656,can0 08FF0001 [8] 00 00 00 00 00 00 00 00
1508185498.03917,can0 0CF00203 [8] 00 00 00 00 00 00 00 00
1508185498.039607,can0 08FF0303 [8] 00 00 00 00 00 00 00 00
1508185498.040132,can0 08FF0001 [8] 00 00 00 00 00 00 00 00
1508185498.040557,can0 0CF00203 [8] 00 00 00 00 00 00 00 00
1508185498.04119,can0 08FF0303 [8] 00 00 00 00 00 00 00 00
1508185498.041618,can0 08FF0001 [8] 00 00 00 00 00 00 00 00
1508185498.042108,can0 0CF00203 [8] 00 00 00 00 00 00 00 00
1508185498.042518,can0 08FF0303 [8] 00 00 00 00 00 00 00 00
1508185498.042912,can0 08FF0001 [8] 00 00 00 00 00 00 00 00
1508185498.043415,can0 0CF00203 [8] 00 00 00 00 00 00 00 00
1508185498.043974,can0 08FF0303 [8] 00 00 00 00 00 00 00 00
1508185498.044473,can0 08FF0001 [8] 00 00 00 00 00 00 00 00
1508185498.044884,can0 0CF00203 [8] 00 00 00 00 00 00 00 00
1508185498.045274,can0 08FF0303 [8] 00 00 00 00 00 00 00 00
1508185498.054579,can0 08FF0001 [8] 00 00 00 00 00 00 00 00
1508185498.055221,can0 0CF00203 [8] 00 00 00 00 00 00 00 00
1508185498.055809,can0 08FF0303 [8] 00 00 00 00 00 00 00 00
1508185498.063343,can0 08FF0001 [8] 00 00 00 00 00 00 00 00
1508185498.064034,can0 0CF00203 [8] 00 00 00 00 00 00 00 00
1508185498.064577,can0 08FF0303 [8] 00 00 00 00 00 00 00 00
1508185498.077151,can0 08FF0001 [8] 00 00 00 00 00 00 00 00
1508185498.077764,can0 0CF00203 [8] 00 00 00 00 00 00 00 00
1508185498.078276,can0 08FF0303 [8] 00 00 00 00 00 00 00 00
1508185498.078713,can0 18F00503 [8] 00 00 00 00 00 00 00 00
1508185498.083226,can0 08FF0001 [8] 00 00 00 00 00 00 00 00
1508185498.083831,can0 0CF00203 [8] 00 00 00 00 00 00 00 00
1508185498.084353,can0 08FF0303 [8] 00 00 00 00 00 00 00 00
1508185498.093286,can0 08FF0001 [8] 00 00 00 00 00 00 00 00
1508185498.093886,can0 0CF00203 [8] 00 00 00 00 00 00 00 00
1508185498.094401,can0 08FF0303 [8] 00 00 00 00 00 00 00 00
1508185498.103235,can0 08FF0001 [8] 00 00 00 00 00 00 00 00
1508185498.103844,can0 0CF00203 [8] 00 00 00 00 00 00 00 00
1508185498.104535,can0 08FF0303 [8] 00 00 00 00 00 00 00 00
1508185498.113258,can0 08FF0001 [8] 00 00 00 00 00 00 00 00
1508185498.113873,can0 0CF00203 [8] 00 00 00 00 00 00 00 00
1508185498.115249,can0 08FF0303 [8] 00 00 00 00 00 00 00 00
1508185498.123228,can0 08FF0001 [8] 00 00 00 00 00 00 00 00
1508185498.123834,can0 0CF00203 [8] 00 00 00 00 00 00 00 00
1508185498.124351,can0 08FF0303 [8] 00 00 00 00 00 00 00 00
1508185498.134016,can0 08FF0001 [8] 00 00 00 00 00 00 00 00
1508185498.13462,can0 0CF00203 [8] 00 00 00 00 00 00 00 00
1508185498.135066,can0 08FF0303 [8] 00 00 00 00 00 00 00 00
1508185498.143222,can0 08FF0001 [8] 00 00 00 00 00 00 00 00
1508185498.143851,can0 0CF00203 [8] 00 00 00 00 00 00 00 00
1508185498.144357,can0 08FF0303 [8] 00 00 00 00 00 00 00 00
1508185498.153984,can0 08FF0001 [8] 00 00 00 00 00 00 00 00
1508185498.154578,can0 0CF00203 [8] 00 00 00 00 00 00 00 00
1508185498.155096,can0 08FF0303 [8] 00 00 00 00 00 00 00 00
1508185498.163214,can0 08FF0001 [8] 00 00 00 00 00 00 00 00
1508185498.163779,can0 0CF00203 [8] 00 00 00 00 00 00 00 00
1508185498.164355,can0 08FF0303 [8] 00 00 00 00 00 00 00 00
1508185498.176135,can0 08FF0001 [8] 00 00 00 00 00 00 00 00
1508185498.176795,can0 0CF00203 [8] 00 00 00 00 00 00 00 00
1508185498.177334,can0 08FF0303 [8] 00 00 00 00 00 00 00 00
1508185498.177826,can0 18F00503 [8] 00 00 00 00 00 00 00 00
1508185498.183235,can0 08FF0001 [8] 00 00 00 00 00 00 00 00
1508185498.183822,can0 0CF00203 [8] 00 00 00 00 00 00 00 00
1508185498.18438,can0 08FF0303 [8] 00 00 00 00 00 00 00 00
1508185498.193278,can0 08FF0001 [8] 00 00 00 00 00 00 00 00
1508185498.193881,can0 0CF00203 [8] 00 00 00 00 00 00 00 00
1508185498.194477,can0 08FF0303 [8] 00 00 00 00 00 00 00 00
1508185498.203239,can0 08FF0001 [8] 00 00 00 00 00 00 00 00
1508185498.203889,can0 0CF00203 [8] 00 00 00 00 00 00 00 00
1508185498.204435,can0 08FF0303 [8] 00 00 00 00 00 00 00 00
1508185498.213941,can0 08FF0001 [8] 00 00 00 00 00 00 00 00
1508185498.214544,can0 0CF00203 [8] 00 00 00 00 00 00 00 00
1508185498.214993,can0 08FF0303 [8] 00 00 00 00 00 00 00 00
1508185498.223211,can0 08FF0001 [8] 00 00 00 00 00 00 00 00
1508185498.223786,can0 0CF00203 [8] 00 00 00 00 00 00 00 00
1508185498.224361,can0 08FF0303 [8] 00 00 00 00 00 00 00 00
1508185498.233991,can0 08FF0001 [8] 00 00 00 00 00 00 00 00
1508185498.234585,can0 0CF00203 [8] 00 00 00 00 00 00 00 00
1508185497.88436,can1 0CFE6E0B [8] 00 00 00 00 00 00 00 00
1508185497.896561,can1 0CFE6E0B [8] 00 00 00 00 00 00 00 00
1508185497.898282,can1 18F00131 [8] 00 00 00 00 00 00 00 00
1508185497.905406,can1 18F0010B [8] 00 00 00 00 00 00 00 00
1508185497.914958,can1 18FEF117 [8] 00 00 00 00 00 00 00 00
1508185497.916939,can1 18FEF128 [8] 00 00 00 00 00 00 00 00
1508185497.918433,can1 18FEF121 [8] 00 00 00 00 00 00 00 00
1508185497.928041,can1 18FEF131 [8] 00 00 00 00 00 00 00 00
1508185497.929562,can1 18E00017 [8] 00 00 00 00 00 00 00 00
1508185497.939087,can1 18E00019 [8] 00 00 00 00 00 00 00 00
1508185497.944744,can1 18E00021 [8] 00 00 00 00 00 00 00 00
1508185497.946262,can1 18E00028 [8] 00 00 00 00 00 00 00 00
1508185497.947551,can1 18E00031 [8] 00 00 00 00 00 00 00 00
1508185497.95693,can1 18FEF017 [8] 00 00 00 00 00 00 00 00
1508185497.958418,can1 18FEF021 [8] 00 00 00 00 00 00 00 00
1508185497.967648,can1 18FEF028 [8] 00 00 00 00 00 00 00 00
1508185497.969111,can1 18FEF031 [8] 00 00 00 00 00 00 00 00
1508185497.970529,can1 0CFE6E0B [8] 00 00 00 00 00 00 00 00
1508185497.981331,can1 18F0010B [8] CF FF F0 FF FF DC FF FF
1508185497.982065,can1 18FEBF0B [8] 00 00 7D 7D FE FE FF FF
1508185497.982538,can1 0CFE6E0B [8] 00 00 00 00 00 00 00 00
1508185497.983025,can1 0CFE6E0B [8] 00 00 00 00 00 00 00 00
1508185497.991523,can1 0CFE6E0B [8] 00 00 00 00 00 00 00 00
1508185497.992003,can1 0CFE6E0B [8] 00 00 00 00 00 00 00 00
1508185497.992422,can1 18F00131 [8] 00 00 00 00 00 00 00 00
1508185497.99281,can1 18F0010B [8] 00 00 00 00 00 00 00 00
1508185497.993464,can1 18FEF117 [8] 00 00 00 00 00 00 00 00
1508185497.993946,can1 18FEF128 [8] 00 00 00 00 00 00 00 00
1508185497.994427,can1 18FEF121 [8] 00 00 00 00 00 00 00 00
1508185498.002769,can1 18FEF131 [8] 00 00 00 00 00 00 00 00
1508185498.003447,can1 18E00017 [8] 00 00 00 00 00 00 00 00
1508185498.004007,can1 18E00019 [8] 00 00 00 00 00 00 00 00
1508185498.004775,can1 18E00021 [8] 00 00 00 00 00 00 00 00
1508185498.005236,can1 18E00028 [8] 00 00 00 00 00 00 00 00
1508185498.005653,can1 18E00031 [8] 00 00 00 00 00 00 00 00
1508185498.006039,can1 18FEF017 [8] 00 00 00 00 00 00 00 00
1508185498.006424,can1 18FEF021 [8] 00 00 00 00 00 00 00 00
1508185498.014891,can1 18FEF028 [8] 00 00 00 00 00 00 00 00
1508185498.015398,can1 18FEF031 [8] 00 00 00 00 00 00 00 00
1508185498.015814,can1 0CFE6E0B [8] 00 00 00 00 00 00 00 00
1508185498.0162,can1 18F0010B [8] CF FF F0 FF FF DC FF FF
1508185498.016685,can1 18FEBF0B [8] 00 00 7D 7D FE FE FF FF
1508185498.017084,can1 0CFE6E0B [8] 00 00 00 00 00 00 00 00
1508185498.03341,can1 0CFE6E0B [8] 00 00 00 00 00 00 00 00
1508185498.053601,can1 0CFE6E0B [8] 00 00 00 00 00 00 00 00
1508185498.07333,can1 0CFE6E0B [8] 00 00 00 00 00 00 00 00
1508185498.074036,can1 18F00131 [8] 00 00 00 00 00 00 00 00
1508185498.074606,can1 18F0010B [8] 00 00 00 00 00 00 00 00
1508185498.075232,can1 18FEF117 [8] 00 00 00 00 00 00 00 00
1508185498.07573,can1 18FEF128 [8] 00 00 00 00 00 00 00 00
1508185498.076199,can1 18FEF121 [8] 00 00 00 00 00 00 00 00
1508185498.076647,can1 18FEF131 [8] 00 00 00 00 00 00 00 00
1508185498.079548,can1 18E00017 [8] 00 00 00 00 00 00 00 00
1508185498.080102,can1 18E00019 [8] 00 00 00 00 00 00 00 00
1508185498.080598,can1 18E00021 [8] 00 00 00 00 00 00 00 00
1508185498.081221,can1 18E00028 [8] 00 00 00 00 00 00 00 00
1508185498.081666,can1 18E00031 [8] 00 00 00 00 00 00 00 00
1508185498.082139,can1 18FEF017 [8] 00 00 00 00 00 00 00 00
1508185498.082533,can1 18FEF021 [8] 00 00 00 00 00 00 00 00
1508185498.084847,can1 18FEF028 [8] 00 00 00 00 00 00 00 00
1508185498.085366,can1 18FEF031 [8] 00 00 00 00 00 00 00 00
1508185498.095,can1 0CFE6E0B [8] 00 00 00 00 00 00 00 00
1508185498.098974,can1 18F0010B [8] CF FF F0 FF FF DC FF FF
1508185498.109019,can1 18FEBF0B [8] 00 00 7D 7D FE FE FF FF
1508185498.114301,can1 0CFE6E0B [8] 00 00 00 00 00 00 00 00
1508185498.133265,can1 0CFE6E0B [8] 00 00 00 00 00 00 00 00
1508185498.15328,can1 0CFE6E0B [8] 00 00 00 00 00 00 00 00
1508185498.17326,can1 0CFE6E0B [8] 00 00 00 00 00 00 00 00
1508185498.173913,can1 18F00131 [8] 00 00 00 00 00 00 00 00
1508185498.174456,can1 18F0010B [8] 00 00 00 00 00 00 00 00
1508185498.175069,can1 18FEF117 [8] 00 00 00 00 00 00 00 00
1508185498.175545,can1 18FEF128 [8] 00 00 00 00 00 00 00 00
1508185498.178447,can1 18FEF121 [8] 00 00 00 00 00 00 00 00
1508185498.17904,can1 18FEF131 [8] 00 00 00 00 00 00 00 00
1508185498.179537,can1 18E00017 [8] 00 00 00 00 00 00 00 00
1508185498.180004,can1 18E00019 [8] 00 00 00 00 00 00 00 00
1508185498.18047,can1 18E00021 [8] 00 00 00 00 00 00 00 00
1508185498.180943,can1 18E00028 [8] 00 00 00 00 00 00 00 00
1508185498.181409,can1 18E00031 [8] 00 00 00 00 00 00 00 00
1508185498.181862,can1 18FEF017 [8] 00 00 00 00 00 00 00 00
1508185498.182257,can1 18FEF021 [8] 00 00 00 00 00 00 00 00
1508185498.182713,can1 18FEF028 [8] 00 00 00 00 00 00 00 00
1508185498.184966,can1 18FEF031 [8] 00 00 00 00 00 00 00 00
1508185498.195007,can1 0CFE6E0B [8] 00 00 00 00 00 00 00 00
1508185498.199092,can1 18F0010B [8] CF FF F0 FF FF DC FF FF
1508185498.209139,can1 18FEBF0B [8] 00 00 7D 7D FE FE FF FF
1508185498.213247,can1 0CFE6E0B [8] 00 00 00 00 00 00 00 00
1508185498.233285,can1 0CFE6E0B [8] 00 00 00 00 00 00 00 00
1508185498.253307,can1 0CFE6E0B [8] 00 00 00 00 00 00 00 00
1508185498.273287,can1 0CFE6E0B [8] 00 00 00 00 00 00 00 00
1508185498.273933,can1 18F00131 [8] 00 00 00 00 00 00 00 00
1508185498.274562,can1 18F0010B [8] 00 00 00 00 00 00 00 00
1508185498.275103,can1 18FEF117 [8] 00 00 00 00 00 00 00 00
1508185498.275576,can1 18FEF128 [8] 00 00 00 00 00 00 00 00
1508185498.276119,can1 18FEF121 [8] 00 00 00 00 00 00 00 00
1508185498.278999,can1 18FEF131 [8] 00 00 00 00 00 00 00 00
1508185498.279578,can1 18E00017 [8] 00 00 00 00 00 00 00 00
1508185498.280912,can1 18E00019 [8] 00 00 00 00 00 00 00 00
1508185498.282894,can1 18E00021 [8] 00 00 00 00 00 00 00 00
1508185498.283824,can1 18E00028 [8] 00 00 00 00 00 00 00 00
1508185498.284674,can1 18E00031 [8] 00 00 00 00 00 00 00 00
1508185498.285319,can1 18FEF017 [8] 00 00 00 00 00 00 00 00
1508185498.288398,can1 18FEF021 [8] 00 00 00 00 00 00 00 00
1508185498.289132,can1 18FEF028 [8] 00 00 00 00 00 00 00 00
1508185498.289864,can1 18FEF031 [8] 00 00 00 00 00 00 00 00
1508185498.296007,can1 0CFE6E0B [8] 00 00 00 00 00 00 00 00
1508185498.299348,can1 18F0010B [8] CF FF F0 FF FF DC FF FF
1508185498.309455,can1 18FEBF0B [8] 00 00 7D 7D FE FE FF FF
1508185498.31598,can1 0CFE6E0B [8] 00 00 00 00 00 00 00 00
1508185498.333402,can1 0CFE6E0B [8] 00 00 00 00 00 00 00 00
1508185498.353442,can1 0CFE6E0B [8] 00 00 00 00 00 00 00 00
1508185498.373418,can1 0CFE6E0B [8] 00 00 00 00 00 00 00 00
1508185498.374566,can1 18F00131 [8] 00 00 00 00 00 00 00 00
1508185498.375469,can1 18F0010B [8] 00 00 00 00 00 00 00 00
1508185498.380436,can1 18FEF117 [8] 00 00 00 00 00 00 00 00
1508185498.381413,can1 18FEF128 [8] 00 00 00 00 00 00 00 00
1508185498.382271,can1 18FEF121 [8] 00 00 00 00 00 00 00 00
1508185498.382913,can1 18FEF131 [8] 00 00 00 00 00 00 00 00
1508185498.391641,can1 18E00017 [8] 00 00 00 00 00 00 00 00
1508185498.392503,can1 18E00019 [8] 00 00 00 00 00 00 00 00
1508185498.39343,can1 18E00021 [8] 00 00 00 00 00 00 00 00
1508185498.394289,can1 18E00028 [8] 00 00 00 00 00 00 00 00
1508185498.394953,can1 18E00031 [8] 00 00 00 00 00 00 00 00
1508185498.405757,can1 18FEF017 [8] 00 00 00 00 00 00 00 00
1508185498.406517,can1 18FEF021 [8] 00 00 00 00 00 00 00 00
1508185498.40728,can1 18FEF028 [8] 00 00 00 00 00 00 00 00
1508185498.407939,can1 18FEF031 [8] 00 00 00 00 00 00 00 00
1508185498.408565,can1 0CFE6E0B [8] 00 00 00 00 00 00 00 00
1508185498.417036,can1 18F0010B [8] CF FF F0 FF FF DC FF FF
1508185498.417807,can1 18FEBF0B [8] 00 00 7D 7D FE FE FF FF
1508185498.418477,can1 0CFE6E0B [8] 00 00 00 00 00 00 00 00
1508185498.429185,can1 18ECFFFA [8] 20 1C 00 04 FF EB FE 00
1508185498.430074,can1 18EBFFFA [8] 01 53 59 4E 45 52 2A 53
1508185498.434549,can1 18EBFFFA [8] 02 53 53 32 2D 30 32 2A
1508185498.435401,can1 18EBFFFA [8] 03 58 58 58 58 2A 55 4E
1508185498.235753,can0 08FF0303 [8] 00 00 00 00 00 00 00 00
1508185498.243255,can0 08FF0001 [8] 00 00 00 00 00 00 00 00
1508185498.243872,can0 0CF00203 [8] 00 00 00 00 00 00 00 00
1508185498.244398,can0 08FF0303 [8] 00 00 00 00 00 00 00 00
1508185498.25406,can0 08FF0001 [8] 00 00 00 00 00 00 00 00
1508185498.254748,can0 0CF00203 [8] 00 00 00 00 00 00 00 00
1508185498.255232,can0 08FF0303 [8] 00 00 00 00 00 00 00 00
1508185498.263222,can0 08FF0001 [8] 00 00 00 00 00 00 00 00
1508185498.263752,can0 0CF00203 [8] 00 00 00 00 00 00 00 00
1508185498.264407,can0 08FF0303 [8] 00 00 00 00 00 00 00 00
1508185498.276736,can0 08FF0001 [8] 00 00 00 00 00 00 00 00
1508185498.277333,can0 0CF00203 [8] 00 00 00 00 00 00 00 00
1508185498.277849,can0 08FF0303 [8] 00 00 00 00 00 00 00 00
1508185498.278423,can0 18F00503 [8] 00 00 00 00 00 00 00 00
1508185498.286172,can0 08FF0001 [8] 00 00 00 00 00 00 00 00
1508185498.286952,can0 0CF00203 [8] 00 00 00 00 00 00 00 00
1508185498.287623,can0 08FF0303 [8] 00 00 00 00 00 00 00 00
1508185498.293442,can0 08FF0001 [8] 00 00 00 00 00 00 00 00
1508185498.294461,can0 0CF00203 [8] 00 00 00 00 00 00 00 00
1508185498.295173,can0 08FF0303 [8] 00 00 00 00 00 00 00 00
1508185498.303364,can0 08FF0001 [8] 00 00 00 00 00 00 00 00
1508185498.304368,can0 0CF00203 [8] 00 00 00 00 00 00 00 00
1508185498.305265,can0 08FF0303 [8] 00 00 00 00 00 00 00 00
1508185498.313468,can0 08FF0001 [8] 00 00 00 00 00 00 00 00
1508185498.314418,can0 0CF00203 [8] 00 00 00 00 00 00 00 00
1508185498.315103,can0 08FF0303 [8] 00 00 00 00 00 00 00 00
1508185498.32338,can0 08FF0001 [8] 00 00 00 00 00 00 00 00
1508185498.324301,can0 0CF00203 [8] 00 00 00 00 00 00 00 00
1508185498.325057,can0 08FF0303 [8] 00 00 00 00 00 00 00 00
1508185498.334429,can0 08FF0001 [8] 00 00 00 00 00 00 00 00
1508185498.335277,can0 0CF00203 [8] 00 00 00 00 00 00 00 00
1508185498.33596,can0 08FF0303 [8] 00 00 00 00 00 00 00 00
1508185498.343407,can0 08FF0001 [8] 00 00 00 00 00 00 00 00
1508185498.344489,can0 0CF00203 [8] 00 00 00 00 00 00 00 00
1508185498.345228,can0 08FF0303 [8] 00 00 00 00 00 00 00 00
1508185498.354586,can0 08FF0001 [8] 00 00 00 00 00 00 00 00
1508185498.355382,can0 0CF00203 [8] 00 00 00 00 00 00 00 00
1508185498.35606,can0 08FF0303 [8] 00 00 00 00 00 00 00 00
1508185498.363334,can0 08FF0001 [8] 00 00 00 00 00 00 00 00
1508185498.364262,can0 0CF00203 [8] 00 00 00 00 00 00 00 00
1508185498.364944,can0 08FF0303 [8] 00 00 00 00 00 00 00 00
1508185498.383927,can0 08FF0001 [8] 00 00 00 00 00 00 00 00
1508185498.384839,can0 0CF00203 [8] 00 00 00 00 00 00 00 00
1508185498.385609,can0 08FF0303 [8] 00 00 00 00 00 00 00 00
1508185498.386285,can0 18F00503 [8] 00 00 00 00 00 00 00 00
1508185498.386927,can0 08FF0001 [8] 00 00 00 00 00 00 00 00
1508185498.395528,can0 0CF00203 [8] 00 00 00 00 00 00 00 00
1508185498.396337,can0 08FF0303 [8] 00 00 00 00 00 00 00 00
1508185498.397034,can0 08FF0001 [8] 00 00 00 00 00 00 00 00
1508185498.397796,can0 0CF00203 [8] 00 00 00 00 00 00 00 00
1508185498.39844,can0 08FF0303 [8] 00 00 00 00 00 00 00 00
1508185498.403448,can0 08FF0001 [8] 00 00 00 00 00 00 00 00
1508185498.404485,can0 0CF00203 [8] 00 00 00 00 00 00 00 00
1508185498.413327,can0 08FF0303 [8] 00 00 00 00 00 00 00 00
1508185498.414365,can0 08FF0001 [8] 00 00 00 00 00 00 00 00
1508185498.415175,can0 0CF00203 [8] 00 00 00 00 00 00 00 00
1508185498.415976,can0 08FF0303 [8] 00 00 00 00 00 00 00 00
1508185498.430762,can0 08FF0001 [8] 00 00 00 00 00 00 00 00
1508185498.431591,can0 0CF00203 [8] 00 00 00 00 00 00 00 00
1508185498.43237,can0 08FF0303 [8] 00 00 00 00 00 00 00 00
1508185498.43894,can0 08FF0001 [8] 00 00 00 00 00 00 00 00
1508185498.439797,can0 0CF00203 [8] 00 00 00 00 00 00 00 00
1508185498.440597,can0 08FF0303 [8] 00 00 00 00 00 00 00 00
1508185498.44694,can0 08FF0001 [8] 00 00 00 00 00 00 00 00
1508185498.447762,can0 0CF00203 [8] 00 00 00 00 00 00 00 00
1508185498.448568,can0 08FF0303 [8] 00 00 00 00 00 00 00 00
1508185498.454779,can0 08FF0001 [8] 00 00 00 00 00 00 00 00
1508185498.455608,can0 0CF00203 [8] 00 00 00 00 00 00 00 00
1508185498.456423,can0 08FF0303 [8] 00 00 00 00 00 00 00 00
1508185498.463455,can0 08FF0001 [8] 00 00 00 00 00 00 00 00
1508185498.464569,can0 0CF00203 [8] 00 00 00 00 00 00 00 00
1508185498.465279,can0 08FF0303 [8] 00 00 00 00 00 00 00 00
1508185498.475739,can0 08FF0001 [8] 00 00 00 00 00 00 00 00
1508185498.476746,can0 0CF00203 [8] 00 00 00 00 00 00 00 00
1508185498.477607,can0 08FF0303 [8] 00 00 00 00 00 00 00 00
1508185498.478433,can0 18F00503 [8] 00 00 00 00 00 00 00 00
1508185498.483418,can0 08FF0001 [8] 00 00 00 00 00 00 00 00
1508185498.484357,can0 0CF00203 [8] 00 00 00 00 00 00 00 00
1508185498.489053,can0 08FF0303 [8] 00 00 00 00 00 00 00 00
1508185498.494422,can0 08FF0001 [8] 00 00 00 00 00 00 00 00
1508185498.495418,can0 0CF00203 [8] 00 00 00 00 00 00 00 00
1508185498.496144,can0 08FF0303 [8] 00 00 00 00 00 00 00 00
1508185498.5034,can0 08FF0001 [8] 00 00 00 00 00 00 00 00
1508185498.504363,can0 0CF00203 [8] 00 00 00 00 00 00 00 00
1508185498.505162,can0 08FF0303 [8] 00 00 00 00 00 00 00 00
1508185498.513432,can0 08FF0001 [8] 00 00 00 00 00 00 00 00
1508185498.514461,can0 0CF00203 [8] 00 00 00 00 00 00 00 00
1508185498.515174,can0 08FF0303 [8] 00 00 00 00 00 00 00 00
1508185498.523385,can0 08FF0001 [8] 00 00 00 00 00 00 00 00
1508185498.524387,can0 0CF00203 [8] 00 00 00 00 00 00 00 00
1508185498.525078,can0 08FF0303 [8] 00 00 00 00 00 00 00 00
1508185498.534525,can0 08FF0001 [8] 00 00 00 00 00 00 00 00
1508185498.53529,can0 0CF00203 [8] 00 00 00 00 00 00 00 00
1508185498.536028,can0 08FF0303 [8] 00 00 00 00 00 00 00 00
1508185498.543359,can0 08FF0001 [8] 00 00 00 00 00 00 00 00
1508185498.544353,can0 0CF00203 [8] 00 00 00 00 00 00 00 00
1508185498.54504,can0 08FF0303 [8] 00 00 00 00 00 00 00 00
1508185498.554574,can0 08FF0001 [8] 00 00 00 00 00 00 00 00
1508185498.555336,can0 0CF00203 [8] 00 00 00 00 00 00 00 00
1508185498.556108,can0 08FF0303 [8] 00 00 00 00 00 00 00 00
1508185498.563382,can0 08FF0001 [8] 00 00 00 00 00 00 00 00
1508185498.564244,can0 0CF00203 [8] 00 00 00 00 00 00 00 00
1508185498.564916,can0 08FF0303 [8] 00 00 00 00 00 00 00 00
1508185498.577241,can0 08FF0001 [8] 00 00 00 00 00 00 00 00
1508185498.578092,can0 0CF00203 [8] 00 00 00 00 00 00 00 00
1508185498.578997,can0 08FF0303 [8] 00 00 00 00 00 00 00 00
1508185498.579745,can0 18F00503 [8] 00 00 00 00 00 00 00 00
1508185498.586947,can0 08FF0001 [8] 00 00 00 00 00 00 00 00
1508185498.587712,can0 0CF00203 [8] 00 00 00 00 00 00 00 00
1508185498.588674,can0 08FF0303 [8] 00 00 00 00 00 00 00 00
1508185498.59345,can0 08FF0001 [8] 00 00 00 00 00 00 00 00
1508185498.594472,can0 0CF00203 [8] 00 00 00 00 00 00 00 00
1508185498.595197,can0 08FF0303 [8] 00 00 00 00 00 00 00 00
1508185498.603365,can0 08FF0001 [8] 00 00 00 00 00 00 00 00
1508185498.604363,can0 0CF00203 [8] 00 00 00 00 00 00 00 00
1508185498.605062,can0 08FF0303 [8] 00 00 00 00 00 00 00 00
1508185498.613433,can0 08FF0001 [8] 00 00 00 00 00 00 00 00
1508185498.614444,can0 0CF00203 [8] 00 00 00 00 00 00 00 00
1508185498.615152,can0 08FF0303 [8] 00 00 00 00 00 00 00 00
1508185498.623407,can0 08FF0001 [8] 00 00 00 00 00 00 00 00
1508185498.624413,can0 0CF00203 [8] 00 00 00 00 00 00 00 00
1508185498.625109,can0 08FF0303 [8] 00 00 00 00 00 00 00 00
1508185498.634522,can0 08FF0001 [8] 00 00 00 00 00 00 00 00
1508185498.635291,can0 0CF00203 [8] 00 00 00 00 00 00 00 00
1508185498.636074,can0 08FF0303 [8] 00 00 00 00 00 00 00 00
1508185498.643395,can0 08FF0001 [8] 00 00 00 00 00 00 00 00
1508185498.644297,can0 0CF00203 [8] 00 00 00 00 00 00 00 00
1508185498.644975,can0 08FF0303 [8] 00 00 00 00 00 00 00 00
1508185498.654467,can0 08FF0001 [8] 00 00 00 00 00 00 00 00
1508185498.655322,can0 0CF00203 [8] 00 00 00 00 00 00 00 00
1508185498.656007,can0 08FF0303 [8] 00 00 00 00 00 00 00 00
1508185498.663342,can0 08FF0001 [8] 00 00 00 00 00 00 00 00
1508185498.66413,can0 0CF00203 [8] 00 00 00 00 00 00 00 00
1508185498.664941,can0 08FF0303 [8] 00 00 00 00 00 00 00 00
1508185498.676861,can0 08FF0001 [8] 00 00 00 00 00 00 00 00
1508185498.445006,can1 18EBFFFA [8] 04 49 56 45 52 53 41 4C
1508185498.445911,can1 0CFE6E0B [8] 00 00 00 00 00 00 00 00
1508185498.453499,can1 0CFE6E0B [8] 00 00 00 00 00 00 00 00
1508185498.473691,can1 0CFE6E0B [8] 00 00 00 00 00 00 00 00
1508185498.474882,can1 18F00131 [8] 00 00 00 00 00 00 00 00
