1507907428.848841,can0 08FF0001 [8] 00 00 00 00 00 00 00 00
1507907428.862259,can0 0CF00203 [8] 00 00 00 00 00 00 00 00
1507907428.863931,can0 08FF0303 [8] 00 00 00 00 00 00 00 00
1507907428.88016,can0 08FF0001 [8] 00 00 00 00 00 00 00 00
1507907428.890116,can0 0CF00203 [8] 00 00 00 00 00 00 00 00
1507907428.89198,can0 08FF0303 [8] 00 00 00 00 00 00 00 00
1507907428.899922,can0 08FF0001 [8] 00 00 00 00 00 00 00 00
1507907428.901821,can0 0CF00203 [8] 00 00 00 00 00 00 00 00
1507907428.911445,can0 08FF0303 [8] 00 00 00 00 00 00 00 00
1507907428.915357,can0 08FF0001 [8] 00 00 00 00 00 00 00 00
1507907428.928857,can0 0CF00203 [8] 00 00 00 00 00 00 00 00
1507907428.933466,can0 08FF0303 [8] 00 00 00 00 00 00 00 00
1507907428.93527,can0 08FF0001 [8] 00 00 00 00 00 00 00 00
1507907428.936735,can0 0CF00203 [8] 00 00 00 00 00 00 00 00
1507907428.938006,can0 08FF0303 [8] 00 00 00 00 00 00 00 00
1507907428.939341,can0 18F00503 [8] 00 00 00 00 00 00 00 00
1507907428.946114,can0 08FF0001 [8] 00 00 00 00 00 00 00 00
1507907428.94782,can0 0CF00203 [8] 00 00 00 00 00 00 00 00
1507907428.953293,can0 08FF0303 [8] 00 00 00 00 00 00 00 00
1507907428.954713,can0 08FF0001 [8] 00 00 00 00 00 00 00 00
1507907428.960176,can0 0CF00203 [8] 00 00 00 00 00 00 00 00
1507907428.961782,can0 08FF0303 [8] 00 00 00 00 00 00 00 00
1507907428.963064,can0 08FF0001 [8] 00 00 00 00 00 00 00 00
1507907428.968425,can0 0CF00203 [8] 00 00 00 00 00 00 00 00
1507907428.969969,can0 08FF0303 [8] 00 00 00 00 00 00 00 00
1507907428.975554,can0 08FF0001 [8] 00 00 00 00 00 00 00 00
1507907428.976909,can0 0CF00203 [8] 00 00 00 00 00 00 00 00
1507907428.978297,can0 08FF0303 [8] 00 00 00 00 00 00 00 00
1507907428.983619,can0 08FF0001 [8] 00 00 00 00 00 00 00 00
1507907428.984953,can0 0CF00203 [8] 00 00 00 00 00 00 00 00
1507907428.986346,can0 08FF0303 [8] 00 00 00 00 00 00 00 00
1507907428.991684,can0 08FF0001 [8] 00 00 00 00 00 00 00 00
1507907428.993099,can0 0CF00203 [8] 00 00 00 00 00 00 00 00
1507907428.994354,can0 08FF0303 [8] 00 00 00 00 00 00 00 00
1507907428.996275,can0 08FF0001 [8] 00 00 00 00 00 00 00 00
1507907428.997679,can0 0CF00203 [8] 00 00 00 00 00 00 00 00
1507907428.999029,can0 08FF0303 [8] 00 00 00 00 00 00 00 00
1507907429.002485,can0 08FF0001 [8] 00 00 00 00 00 00 00 00
1507907429.005799,can0 0CF00203 [8] 00 00 00 00 00 00 00 00
1507907429.007217,can0 08FF0303 [8] 00 00 00 00 00 00 00 00
1507907429.008456,can0 08FF0001 [8] 00 00 00 00 00 00 00 00
1507907429.009939,can0 0CF00203 [8] 00 00 00 00 00 00 00 00
1507907429.011553,can0 08FF0303 [8] 00 00 00 00 00 00 00 00
1507907429.014661,can0 08FF0001 [8] 00 00 00 00 00 00 00 00
1507907429.016051,can0 0CF00203 [8] 00 00 00 00 00 00 00 00
1507907429.017447,can0 08FF0303 [8] 00 00 00 00 00 00 00 00
1507907429.018785,can0 18F00503 [8] 00 00 00 00 00 00 00 00
1507907429.022842,can0 08FF0001 [8] 00 00 00 00 00 00 00 00
1507907429.024453,can0 0CF00203 [8] 00 00 00 00 00 00 00 00
1507907429.025755,can0 08FF0303 [8] 00 00 00 00 00 00 00 00
1507907429.027122,can0 08FF0001 [8] 00 00 00 00 00 00 00 00
1507907429.028429,can0 0CF00203 [8] 00 00 00 00 00 00 00 00
1507907429.029809,can0 08FF0303 [8] 00 00 00 00 00 00 00 00
1507907429.031525,can0 08FF0001 [8] 00 00 00 00 00 00 00 00
1507907429.03762,can0 0CF00203 [8] 00 00 00 00 00 00 00 00
1507907429.039341,can0 08FF0303 [8] 00 00 00 00 00 00 00 00
1507907429.051785,can0 08FF0001 [8] 00 00 00 00 00 00 00 00
1507907429.053178,can0 0CF00203 [8] 00 00 00 00 00 00 00 00
1507907429.062816,can0 08FF0303 [8] 00 00 00 00 00 00 00 00
1507907429.064379,can0 08FF0001 [8] 00 00 00 00 00 00 00 00
1507907429.073809,can0 0CF00203 [8] 00 00 00 00 00 00 00 00
1507907429.075447,can0 08FF0303 [8] 00 00 00 00 00 00 00 00
1507907429.076772,can0 08FF0001 [8] 00 00 00 00 00 00 00 00
1507907429.08643,can0 0CF00203 [8] 00 00 00 00 00 00 00 00
1507907429.087938,can0 08FF0303 [8] 00 00 00 00 00 00 00 00
1507907429.097399,can0 08FF0001 [8] 00 00 00 00 00 00 00 00
1507907429.09901,can0 0CF00203 [8] 00 00 00 00 00 00 00 00
1507907429.108813,can0 08FF0303 [8] 00 00 00 00 00 00 00 00
1507907429.110898,can0 08FF0001 [8] 00 00 00 00 00 00 00 00
1507907429.123453,can0 0CF00203 [8] 00 00 00 00 00 00 00 00
1507907429.124238,can0 08FF0303 [8] 00 00 00 00 00 00 00 00
1507907429.124743,can0 08FF0001 [8] 00 00 00 00 00 00 00 00
1507907429.125172,can0 0CF00203 [8] 00 00 00 00 00 00 00 00
1507907429.125581,can0 08FF0303 [8] 00 00 00 00 00 00 00 00
1507907429.132871,can0 08FF0001 [8] 00 00 00 00 00 00 00 00
1507907429.13338,can0 0CF00203 [8] 00 00 00 00 00 00 00 00
1507907429.133916,can0 08FF0303 [8] 00 00 00 00 00 00 00 00
1507907429.134347,can0 18F00503 [8] 00 00 00 00 00 00 00 00
1507907429.13475,can0 08FF0001 [8] 00 00 00 00 00 00 00 00
1507907429.135142,can0 0CF00203 [8] 00 00 00 00 00 00 00 00
1507907429.143575,can0 08FF0303 [8] 00 00 00 00 00 00 00 00
1507907429.144251,can0 08FF0001 [8] 00 00 00 00 00 00 00 00
1507907429.144787,can0 0CF00203 [8] 00 00 00 00 00 00 00 00
1507907429.145336,can0 08FF0303 [8] 00 00 00 00 00 00 00 00
1507907429.145789,can0 08FF0001 [8] 00 00 00 00 00 00 00 00
1507907429.146279,can0 0CF00203 [8] 00 00 00 00 00 00 00 00
1507907429.14676,can0 08FF0303 [8] 00 00 00 00 00 00 00 00
1507907429.155166,can0 08FF0001 [8] 00 00 00 00 00 00 00 00
1507907429.155764,can0 0CF00203 [8] 00 00 00 00 00 00 00 00
1507907429.156225,can0 08FF0303 [8] 00 00 00 00 00 00 00 00
1507907429.156639,can0 08FF0001 [8] 00 00 00 00 00 00 00 00
1507907429.157126,can0 0CF00203 [8] 00 00 00 00 00 00 00 00
1507907429.157562,can0 08FF0303 [8] 00 00 00 00 00 00 00 00
1507907429.157967,can0 08FF0001 [8] 00 00 00 00 00 00 00 00
1507907429.158359,can0 0CF00203 [8] 00 00 00 00 00 00 00 00
1507907429.158739,can0 08FF0303 [8] 00 00 00 00 00 00 00 00
1507907429.165367,can0 08FF0001 [8] 00 00 00 00 00 00 00 00
1507907429.165904,can0 0CF00203 [8] 00 00 00 00 00 00 00 00
1507907429.166338,can0 08FF0303 [8] 00 00 00 00 00 00 00 00
1507907429.166816,can0 08FF0001 [8] 00 00 00 00 00 00 00 00
1507907429.167249,can0 0CF00203 [8] 00 00 00 00 00 00 00 00
1507907429.167658,can0 08FF0303 [8] 00 00 00 00 00 00 00 00
1507907429.168044,can0 08FF0001 [8] 00 00 00 00 00 00 00 00
1507907429.16842,can0 0CF00203 [8] 00 00 00 00 00 00 00 00
1507907429.172998,can0 08FF0303 [8] 00 00 00 00 00 00 00 00
1507907429.173664,can0 08FF0001 [8] 00 00 00 00 00 00 00 00
1507907429.174142,can0 0CF00203 [8] 00 00 00 00 00 00 00 00
1507907429.174653,can0 08FF0303 [8] 00 00 00 00 00 00 00 00
1507907429.175101,can0 18F00503 [8] 00 00 00 00 00 00 00 00
1507907429.175517,can0 08FF0001 [8] 00 00 00 00 00 00 00 00
1507907429.175913,can0 0CF00203 [8] 00 00 00 00 00 00 00 00
1507907429.176297,can0 08FF0303 [8] 00 00 00 00 00 00 00 00
1507907429.18107,can0 08FF0001 [8] 00 00 00 00 00 00 00 00
1507907429.181626,can0 0CF00203 [8] 00 00 00 00 00 00 00 00
1507907429.182077,can0 08FF0303 [8] 00 00 00 00 00 00 00 00
1507907429.182575,can0 08FF0001 [8] 00 00 00 00 00 00 00 00
1507907429.183011,can0 0CF00203 [8] 00 00 00 00 00 00 00 00
1507907429.183404,can0 08FF0303 [8] 00 00 00 00 00 00 00 00
1507907429.183793,can0 08FF0001 [8] 00 00 00 00 00 00 00 00
1507907429.184173,can0 0CF00203 [8] 00 00 00 00 00 00 00 00
1507907429.188929,can0 08FF0303 [8] 00 00 00 00 00 00 00 00
1507907429.1903,can0 08FF0001 [8] 00 00 00 00 00 00 00 00
1507907429.190993,can0 0CF00203 [8] 00 00 00 00 00 00 00 00
1507907429.191471,can0 08FF0303 [8] 00 00 00 00 00 00 00 00
1507907429.200729,can0 08FF0001 [8] 00 00 00 00 00 00 00 00
1507907429.20128,can0 0CF00203 [8] 00 00 00 00 00 00 00 00
1507907429.201724,can0 08FF0303 [8] 00 00 00 00 00 00 00 00
1507907429.20982,can0 08FF0001 [8] 00 00 00 00 00 00 00 00
1507907429.210511,can0 0CF00203 [8] 00 00 00 00 00 00 00 00
1507907429.211052,can0 08FF0303 [8] 00 00 00 00 00 00 00 00
1507907429.220672,can0 08FF0001 [8] 00 00 00 00 00 00 00 00
1507907429.221237,can0 0CF00203 [8] 00 00 00 00 00 00 00 00
1507907429.221792,can0 08FF0303 [8] 00 00 00 00 00 00 00 00
1507907429.229693,can0 08FF0001 [8] 00 00 00 00 00 00 00 00
1507907429.230222,can0 0CF00203 [8] 00 00 00 00 00 00 00 00
1507907428.877088,can1 0CFE6E0B [8] 00 00 00 00 00 00 00 00
1507907428.897853,can1 0CFE6E0B [8] 00 00 00 00 00 00 00 00
1507907428.903639,can1 0CFE6E0B [8] 00 00 00 00 00 00 00 00
1507907428.90521,can1 18F0010B [8] CF FF F0 FF FF DC FF FF
1507907428.913647,can1 18FEBF0B [8] 00 00 7D 7D FE FE FF FF
1507907428.921467,can1 0CFE6E0B [8] 00 00 00 00 00 00 00 00
1507907428.940496,can1 0CFE6E0B [8] 00 00 00 00 00 00 00 00
1507907428.942681,can1 18F00131 [8] 00 00 00 00 00 00 00 00
1507907428.948431,can1 18F0010B [8] 00 00 00 00 00 00 00 00
1507907428.950194,can1 18FEF117 [8] 00 00 00 00 00 00 00 00
1507907428.951632,can1 18FEF128 [8] 00 00 00 00 00 00 00 00
1507907428.95704,can1 18FEF121 [8] 00 00 00 00 00 00 00 00
1507907428.958432,can1 18FEF131 [8] 00 00 00 00 00 00 00 00
1507907428.963977,can1 18E00017 [8] 00 00 00 00 00 00 00 00
1507907428.96531,can1 18E00019 [8] 00 00 00 00 00 00 00 00
1507907428.966687,can1 18E00021 [8] 00 00 00 00 00 00 00 00
1507907428.972001,can1 18E00028 [8] 00 00 00 00 00 00 00 00
1507907428.973455,can1 18E00031 [8] 00 00 00 00 00 00 00 00
1507907428.974714,can1 18FEF017 [8] 00 00 00 00 00 00 00 00
1507907428.980394,can1 18FEF021 [8] 00 00 00 00 00 00 00 00
1507907428.981957,can1 18FEF028 [8] 00 00 00 00 00 00 00 00
1507907428.987265,can1 18FEF031 [8] 00 00 00 00 00 00 00 00
1507907428.988618,can1 0CFE6E0B [8] 00 00 00 00 00 00 00 00
1507907428.990269,can1 0CFE6E0B [8] 00 00 00 00 00 00 00 00
1507907429.000254,can1 0CFE6E0B [8] 00 00 00 00 00 00 00 00
1507907429.003499,can1 18F0010B [8] CF FF F0 FF FF DC FF FF
1507907429.013506,can1 18FEBF0B [8] 00 00 7D 7D FE FE FF FF
1507907429.020351,can1 0CFE6E0B [8] 00 00 00 00 00 00 00 00
1507907429.040551,can1 0CFE6E0B [8] 00 00 00 00 00 00 00 00
1507907429.042815,can1 18F00131 [8] 00 00 00 00 00 00 00 00
1507907429.044616,can1 18F0010B [8] 00 00 00 00 00 00 00 00
1507907429.054223,can1 18FEF117 [8] 00 00 00 00 00 00 00 00
1507907429.055778,can1 18FEF128 [8] 00 00 00 00 00 00 00 00
1507907429.057062,can1 18FEF121 [8] 00 00 00 00 00 00 00 00
1507907429.066512,can1 18FEF131 [8] 00 00 00 00 00 00 00 00
1507907429.067971,can1 18E00017 [8] 00 00 00 00 00 00 00 00
1507907429.077252,can1 18E00019 [8] 00 00 00 00 00 00 00 00
1507907429.078692,can1 18E00021 [8] 00 00 00 00 00 00 00 00
1507907429.080493,can1 18E00028 [8] 00 00 00 00 00 00 00 00
1507907429.090356,can1 18E00031 [8] 00 00 00 00 00 00 00 00
1507907429.091926,can1 18FEF017 [8] 00 00 00 00 00 00 00 00
1507907429.101419,can1 18FEF021 [8] 00 00 00 00 00 00 00 00
1507907429.102919,can1 18FEF028 [8] 00 00 00 00 00 00 00 00
1507907429.112398,can1 18FEF031 [8] 00 00 00 00 00 00 00 00
1507907429.11671,can1 0CFE6E0B [8] 00 00 00 00 00 00 00 00
1507907429.118489,can1 0CFE6E0B [8] 00 00 00 00 00 00 00 00
1507907429.130235,can1 0CFE6E0B [8] 00 00 00 00 00 00 00 00
1507907429.130963,can1 18F0010B [8] CF FF F0 FF FF DC FF FF
1507907429.131436,can1 18FEBF0B [8] 00 00 7D 7D FE FE FF FF
1507907429.131972,can1 0CFE6E0B [8] 00 00 00 00 00 00 00 00
1507907429.139877,can1 0CFE6E0B [8] 00 00 00 00 00 00 00 00
1507907429.140788,can1 18F00131 [8] 00 00 00 00 00 00 00 00
1507907429.141486,can1 18F0010B [8] 00 00 00 00 00 00 00 00
1507907429.142037,can1 18FEF117 [8] 00 00 00 00 00 00 00 00
1507907429.142533,can1 18FEF128 [8] 00 00 00 00 00 00 00 00
1507907429.143037,can1 18FEF121 [8] 00 00 00 00 00 00 00 00
1507907429.15161,can1 18FEF131 [8] 00 00 00 00 00 00 00 00
1507907429.152245,can1 18E00017 [8] 00 00 00 00 00 00 00 00
1507907429.152701,can1 18E00019 [8] 00 00 00 00 00 00 00 00
1507907429.153215,can1 18E00021 [8] 00 00 00 00 00 00 00 00
1507907429.153653,can1 18E00028 [8] 00 00 00 00 00 00 00 00
1507907429.154056,can1 18E00031 [8] 00 00 00 00 00 00 00 00
1507907429.154443,can1 18FEF017 [8] 00 00 00 00 00 00 00 00
1507907429.154827,can1 18FEF021 [8] 00 00 00 00 00 00 00 00
1507907429.163426,can1 18FEF028 [8] 00 00 00 00 00 00 00 00
1507907429.164025,can1 18FEF031 [8] 00 00 00 00 00 00 00 00
1507907429.164482,can1 0CFE6E0B [8] 00 00 00 00 00 00 00 00
1507907429.17986,can1 0CFE6E0B [8] 00 00 00 00 00 00 00 00
1507907429.199826,can1 0CFE6E0B [8] 00 00 00 00 00 00 00 00
1507907429.203421,can1 18F0010B [8] CF FF F0 FF FF DC FF FF
1507907429.213456,can1 18FEBF0B [8] 00 00 7D 7D FE FE FF FF
1507907429.219738,can1 0CFE6E0B [8] 00 00 00 00 00 00 00 00
1507907429.239831,can1 0CFE6E0B [8] 00 00 00 00 00 00 00 00
1507907429.240551,can1 18F00131 [8] 00 00 00 00 00 00 00 00
1507907429.241327,can1 18F0010B [8] 00 00 00 00 00 00 00 00
1507907429.241855,can1 18FEF117 [8] 00 00 00 00 00 00 00 00
1507907429.242289,can1 18FEF128 [8] 00 00 00 00 00 00 00 00
1507907429.242757,can1 18FEF121 [8] 00 00 00 00 00 00 00 00
1507907429.245928,can1 18FEF131 [8] 00 00 00 00 00 00 00 00
1507907429.246423,can1 18E00017 [8] 00 00 00 00 00 00 00 00
1507907429.246999,can1 18E00019 [8] 00 00 00 00 00 00 00 00
1507907429.247497,can1 18E00021 [8] 00 00 00 00 00 00 00 00
1507907429.247967,can1 18E00028 [8] 00 00 00 00 00 00 00 00
1507907429.251303,can1 18E00031 [8] 00 00 00 00 00 00 00 00
1507907429.251875,can1 18FEF017 [8] 00 00 00 00 00 00 00 00
1507907429.252316,can1 18FEF021 [8] 00 00 00 00 00 00 00 00
1507907429.254171,can1 18FEF028 [8] 00 00 00 00 00 00 00 00
1507907429.254774,can1 18FEF031 [8] 00 00 00 00 00 00 00 00
1507907429.261565,can1 0CFE6E0B [8] 00 00 00 00 00 00 00 00
1507907429.279754,can1 0CFE6E0B [8] 00 00 00 00 00 00 00 00
1507907429.299757,can1 0CFE6E0B [8] 00 00 00 00 00 00 00 00
1507907429.303579,can1 18F0010B [8] CF FF F0 FF FF DC FF FF
1507907429.313552,can1 18FEBF0B [8] 00 00 7D 7D FE FE FF FF
1507907429.319719,can1 0CFE6E0B [8] 00 00 00 00 00 00 00 00
1507907429.339763,can1 0CFE6E0B [8] 00 00 00 00 00 00 00 00
1507907429.340431,can1 18F00131 [8] 00 00 00 00 00 00 00 00
1507907429.341069,can1 18F0010B [8] 00 00 00 00 00 00 00 00
1507907429.34162,can1 18FEF117 [8] 00 00 00 00 00 00 00 00
1507907429.342097,can1 18FEF128 [8] 00 00 00 00 00 00 00 00
1507907429.342617,can1 18FEF121 [8] 00 00 00 00 00 00 00 00
1507907429.345465,can1 18FEF131 [8] 00 00 00 00 00 00 00 00
1507907429.346044,can1 18E00017 [8] 00 00 00 00 00 00 00 00
1507907429.346612,can1 18E00019 [8] 00 00 00 00 00 00 00 00
1507907429.347113,can1 18E00021 [8] 00 00 00 00 00 00 00 00
1507907429.347532,can1 18E00028 [8] 00 00 00 00 00 00 00 00
1507907429.348043,can1 18E00031 [8] 00 00 00 00 00 00 00 00
1507907429.348576,can1 18FEF017 [8] 00 00 00 00 00 00 00 00
1507907429.349067,can1 18FEF021 [8] 00 00 00 00 00 00 00 00
1507907429.351348,can1 18FEF028 [8] 00 00 00 00 00 00 00 00
1507907429.351861,can1 18FEF031 [8] 00 00 00 00 00 00 00 00
1507907429.352362,can1 18FEF521 [8] 00 00 00 00 00 00 00 00
1507907429.361483,can1 0CFE6E0B [8] 00 00 00 00 00 00 00 00
1507907429.379788,can1 0CFE6E0B [8] 00 00 00 00 00 00 00 00
1507907429.399765,can1 0CFE6E0B [8] 00 00 00 00 00 00 00 00
1507907429.403675,can1 18F0010B [8] CF FF F0 FF FF DC FF FF
1507907429.413697,can1 18FEBF0B [8] 00 00 7D 7D FE FE FF FF
1507907429.419731,can1 0CFE6E0B [8] 00 00 00 00 00 00 00 00
1507907429.439944,can1 0CFE6E0B [8] 00 00 00 00 00 00 00 00
1507907429.441115,can1 18F00131 [8] 00 00 00 00 00 00 00 00
1507907429.442032,can1 18F0010B [8] 00 00 00 00 00 00 00 00
1507907429.442883,can1 18FEF117 [8] 00 00 00 00 00 00 00 00
1507907429.443682,can1 18FEF128 [8] 00 00 00 00 00 00 00 00
1507907429.448131,can1 18FEF121 [8] 00 00 00 00 00 00 00 00
1507907429.448966,can1 18FEF131 [8] 00 00 00 00 00 00 00 00
1507907429.449756,can1 18E00017 [8] 00 00 00 00 00 00 00 00
1507907429.450591,can1 18E00019 [8] 00 00 00 00 00 00 00 00
1507907429.45134,can1 18E00021 [8] 00 00 00 00 00 00 00 00
1507907429.454372,can1 18E00028 [8] 00 00 00 00 00 00 00 00
1507907429.455111,can1 18E00031 [8] 00 00 00 00 00 00 00 00
1507907429.455843,can1 18FEF017 [8] 00 00 00 00 00 00 00 00
1507907429.456511,can1 18FEF021 [8] 00 00 00 00 00 00 00 00
1507907429.457136,can1 18FEF028 [8] 00 00 00 00 00 00 00 00
1507907429.457806,can1 18FEF031 [8] 00 00 00 00 00 00 00 00
1507907429.462443,can1 0CFE6E0B [8] 00 00 00 00 00 00 00 00
1507907429.479897,can1 0CFE6E0B [8] 00 00 00 00 00 00 00 00
1507907429.231502,can0 08FF0303 [8] 00 00 00 00 00 00 00 00
1507907429.243165,can0 08FF0001 [8] 00 00 00 00 00 00 00 00
1507907429.243795,can0 0CF00203 [8] 00 00 00 00 00 00 00 00
1507907429.24432,can0 08FF0303 [8] 00 00 00 00 00 00 00 00
1507907429.244958,can0 18F00503 [8] 00 00 00 00 00 00 00 00
1507907429.250277,can0 08FF0001 [8] 00 00 00 00 00 00 00 00
1507907429.253103,can0 0CF00203 [8] 00 00 00 00 00 00 00 00
1507907429.253635,can0 08FF0303 [8] 00 00 00 00 00 00 00 00
1507907429.259794,can0 08FF0001 [8] 00 00 00 00 00 00 00 00
1507907429.26048,can0 0CF00203 [8] 00 00 00 00 00 00 00 00
1507907429.261035,can0 08FF0303 [8] 00 00 00 00 00 00 00 00
1507907429.269737,can0 08FF0001 [8] 00 00 00 00 00 00 00 00
1507907429.270397,can0 0CF00203 [8] 00 00 00 00 00 00 00 00
1507907429.270938,can0 08FF0303 [8] 00 00 00 00 00 00 00 00
1507907429.280502,can0 08FF0001 [8] 00 00 00 00 00 00 00 00
1507907429.281111,can0 0CF00203 [8] 00 00 00 00 00 00 00 00
1507907429.281556,can0 08FF0303 [8] 00 00 00 00 00 00 00 00
1507907429.289677,can0 08FF0001 [8] 00 00 00 00 00 00 00 00
1507907429.290269,can0 0CF00203 [8] 00 00 00 00 00 00 00 00
1507907429.290837,can0 08FF0303 [8] 00 00 00 00 00 00 00 00
1507907429.300456,can0 08FF0001 [8] 00 00 00 00 00 00 00 00
1507907429.301044,can0 0CF00203 [8] 00 00 00 00 00 00 00 00
1507907429.301552,can0 08FF0303 [8] 00 00 00 00 00 00 00 00
1507907429.309725,can0 08FF0001 [8] 00 00 00 00 00 00 00 00
1507907429.310329,can0 0CF00203 [8] 00 00 00 00 00 00 00 00
1507907429.31084,can0 08FF0303 [8] 00 00 00 00 00 00 00 00
1507907429.320542,can0 08FF0001 [8] 00 00 00 00 00 00 00 00
1507907429.321261,can0 0CF00203 [8] 00 00 00 00 00 00 00 00
1507907429.321728,can0 08FF0303 [8] 00 00 00 00 00 00 00 00
1507907429.329698,can0 08FF0001 [8] 00 00 00 00 00 00 00 00
1507907429.330231,can0 0CF00203 [8] 00 00 00 00 00 00 00 00
1507907429.330879,can0 08FF0303 [8] 00 00 00 00 00 00 00 00
1507907429.343193,can0 08FF0001 [8] 00 00 00 00 00 00 00 00
1507907429.343796,can0 0CF00203 [8] 00 00 00 00 00 00 00 00
1507907429.344308,can0 08FF0303 [8] 00 00 00 00 00 00 00 00
1507907429.344874,can0 18F00503 [8] 00 00 00 00 00 00 00 00
1507907429.34971,can0 08FF0001 [8] 00 00 00 00 00 00 00 00
1507907429.350374,can0 0CF00203 [8] 00 00 00 00 00 00 00 00
1507907429.350912,can0 08FF0303 [8] 00 00 00 00 00 00 00 00
1507907429.359771,can0 08FF0001 [8] 00 00 00 00 00 00 00 00
1507907429.360425,can0 0CF00203 [8] 00 00 00 00 00 00 00 00
1507907429.360957,can0 08FF0303 [8] 00 00 00 00 00 00 00 00
1507907429.369728,can0 08FF0001 [8] 00 00 00 00 00 00 00 00
1507907429.370379,can0 0CF00203 [8] 00 00 00 00 00 00 00 00
1507907429.370898,can0 08FF0303 [8] 00 00 00 00 00 00 00 00
1507907429.380481,can0 08FF0001 [8] 00 00 00 00 00 00 00 00
1507907429.38108,can0 0CF00203 [8] 00 00 00 00 00 00 00 00
1507907429.381611,can0 08FF0303 [8] 00 00 00 00 00 00 00 00
1507907429.389695,can0 08FF0001 [8] 00 00 00 00 00 00 00 00
1507907429.39024,can0 0CF00203 [8] 00 00 00 00 00 00 00 00
1507907429.39082,can0 08FF0303 [8] 00 00 00 00 00 00 00 00
1507907429.400473,can0 08FF0001 [8] 00 00 00 00 00 00 00 00
1507907429.401132,can0 0CF00203 [8] 00 00 00 00 00 00 00 00
1507907429.401608,can0 08FF0303 [8] 00 00 00 00 00 00 00 00
1507907429.409734,can0 08FF0001 [8] 00 00 00 00 00 00 00 00
1507907429.410338,can0 0CF00203 [8] 00 00 00 00 00 00 00 00
1507907429.410915,can0 08FF0303 [8] 00 00 00 00 00 00 00 00
1507907429.420533,can0 08FF0001 [8] 00 00 00 00 00 00 00 00
1507907429.421208,can0 0CF00203 [8] 00 00 00 00 00 00 00 00
1507907429.421675,can0 08FF0303 [8] 00 00 00 00 00 00 00 00
1507907429.429705,can0 08FF0001 [8] 00 00 00 00 00 00 00 00
1507907429.430244,can0 0CF00203 [8] 00 00 00 00 00 00 00 00
1507907429.432757,can0 08FF0303 [8] 00 00 00 00 00 00 00 00
1507907429.444457,can0 08FF0001 [8] 00 00 00 00 00 00 00 00
1507907429.44541,can0 0CF00203 [8] 00 00 00 00 00 00 00 00
1507907429.446253,can0 08FF0303 [8] 00 00 00 00 00 00 00 00
1507907429.44701,can0 18F00503 [8] 00 00 00 00 00 00 00 00
1507907429.452178,can0 08FF0001 [8] 00 00 00 00 00 00 00 00
1507907429.452924,can0 0CF00203 [8] 00 00 00 00 00 00 00 00
1507907429.45359,can0 08FF0303 [8] 00 00 00 00 00 00 00 00
1507907429.459945,can0 08FF0001 [8] 00 00 00 00 00 00 00 00
1507907429.460883,can0 0CF00203 [8] 00 00 00 00 00 00 00 00
1507907429.461572,can0 08FF0303 [8] 00 00 00 00 00 00 00 00
1507907429.469858,can0 08FF0001 [8] 00 00 00 00 00 00 00 00
1507907429.47079,can0 0CF00203 [8] 00 00 00 00 00 00 00 00
1507907429.471556,can0 08FF0303 [8] 00 00 00 00 00 00 00 00
1507907429.481721,can0 08FF0001 [8] 00 00 00 00 00 00 00 00
1507907429.482575,can0 0CF00203 [8] 00 00 00 00 00 00 00 00
1507907429.483376,can0 08FF0303 [8] 00 00 00 00 00 00 00 00
1507907429.489842,can0 08FF0001 [8] 00 00 00 00 00 00 00 00
1507907429.490721,can0 0CF00203 [8] 00 00 00 00 00 00 00 00
1507907429.49149,can0 08FF0303 [8] 00 00 00 00 00 00 00 00
1507907429.501057,can0 08FF0001 [8] 00 00 00 00 00 00 00 00
1507907429.501829,can0 0CF00203 [8] 00 00 00 00 00 00 00 00
1507907429.502489,can0 08FF0303 [8] 00 00 00 00 00 00 00 00
1507907429.50985,can0 08FF0001 [8] 00 00 00 00 00 00 00 00
1507907429.510858,can0 0CF00203 [8] 00 00 00 00 00 00 00 00
1507907429.511561,can0 08FF0303 [8] 00 00 00 00 00 00 00 00
1507907429.521176,can0 08FF0001 [8] 00 00 00 00 00 00 00 00
1507907429.521992,can0 0CF00203 [8] 00 00 00 00 00 00 00 00
1507907429.522793,can0 08FF0303 [8] 00 00 00 00 00 00 00 00
1507907429.529946,can0 08FF0001 [8] 00 00 00 00 00 00 00 00
1507907429.531112,can0 0CF00203 [8] 00 00 00 00 00 00 00 00
1507907429.531844,can0 08FF0303 [8] 00 00 00 00 00 00 00 00
1507907429.542151,can0 08FF0001 [8] 00 00 00 00 00 00 00 00
1507907429.543157,can0 0CF00203 [8] 00 00 00 00 00 00 00 00
1507907429.544032,can0 08FF0303 [8] 00 00 00 00 00 00 00 00
1507907429.544871,can0 18F00503 [8] 00 00 00 00 00 00 00 00
1507907429.553794,can0 08FF0001 [8] 00 00 00 00 00 00 00 00
1507907429.55467,can0 0CF00203 [8] 00 00 00 00 00 00 00 00
1507907429.555459,can0 08FF0303 [8] 00 00 00 00 00 00 00 00
1507907429.561591,can0 08FF0001 [8] 00 00 00 00 00 00 00 00
1507907429.562439,can0 0CF00203 [8] 00 00 00 00 00 00 00 00
1507907429.563126,can0 08FF0303 [8] 00 00 00 00 00 00 00 00
1507907429.569892,can0 08FF0001 [8] 00 00 00 00 00 00 00 00
1507907429.570862,can0 0CF00203 [8] 00 00 00 00 00 00 00 00
1507907429.571662,can0 08FF0303 [8] 00 00 00 00 00 00 00 00
1507907429.581164,can0 08FF0001 [8] 00 00 00 00 00 00 00 00
1507907429.582001,can0 0CF00203 [8] 00 00 00 00 00 00 00 00
1507907429.58277,can0 08FF0303 [8] 00 00 00 00 00 00 00 00
1507907429.589918,can0 08FF0001 [8] 00 00 00 00 00 00 00 00
1507907429.591044,can0 0CF00203 [8] 00 00 00 00 00 00 00 00
1507907429.591759,can0 08FF0303 [8] 00 00 00 00 00 00 00 00
1507907429.601298,can0 08FF0001 [8] 00 00 00 00 00 00 00 00
1507907429.602135,can0 0CF00203 [8] 00 00 00 00 00 00 00 00
1507907429.602954,can0 08FF0303 [8] 00 00 00 00 00 00 00 00
1507907429.609974,can0 08FF0001 [8] 00 00 00 00 00 00 00 00
1507907429.611158,can0 0CF00203 [8] 00 00 00 00 00 00 00 00
1507907429.61187,can0 08FF0303 [8] 00 00 00 00 00 00 00 00
1507907429.621203,can0 08FF0001 [8] 00 00 00 00 00 00 00 00
1507907429.62212,can0 0CF00203 [8] 00 00 00 00 00 00 00 00
1507907429.622825,can0 08FF0303 [8] 00 00 00 00 00 00 00 00
1507907429.629827,can0 08FF0001 [8] 00 00 00 00 00 00 00 00
1507907429.6307,can0 0CF00203 [8] 00 00 00 00 00 00 00 00
1507907429.631374,can0 08FF0303 [8] 00 00 00 00 00 00 00 00
1507907429.643675,can0 08FF0001 [8] 00 00 00 00 00 00 00 00
1507907429.644538,can0 0CF00203 [8] 00 00 00 00 00 00 00 00
1507907429.645464,can0 08FF0303 [8] 00 00 00 00 00 00 00 00
1507907429.646231,can0 18F00503 [8] 00 00 00 00 00 00 00 00
1507907429.651389,can0 08FF0001 [8] 00 00 00 00 00 00 00 00
1507907429.652162,can0 0CF00203 [8] 00 00 00 00 00 00 00 00
1507907429.652831,can0 08FF0303 [8] 00 00 00 00 00 00 00 00
1507907429.659931,can0 08FF0001 [8] 00 00 00 00 00 00 00 00
1507907429.660935,can0 0CF00203 [8] 00 00 00 00 00 00 00 00
1507907429.66164,can0 08FF0303 [8] 00 00 00 00 00 00 00 00
1507907429.669917,can0 08FF0001 [8] 00 00 00 00 00 00 00 00
1507907429.671013,can0 0CF00203 [8] 00 00 00 00 00 00 00 00
1507907429.671738,can0 08FF0303 [8] 00 00 00 00 00 00 00 00
1507907429.681081,can0 08FF0001 [8] 00 00 00 00 00 00 00 00
1507907429.68185,can0 0CF00203 [8] 00 00 00 00 00 00 00 00
