1507915336.776573,can0 08FF0001 [8] 00 00 00 00 00 00 00 00
1507915336.792781,can0 0CF00203 [8] 00 00 00 00 00 00 00 00
1507915336.803027,can0 08FF0303 [8] 00 00 00 00 00 00 00 00
1507915336.804712,can0 08FF0001 [8] 00 00 00 00 00 00 00 00
1507915336.816253,can0 0CF00203 [8] 00 00 00 00 00 00 00 00
1507915336.818146,can0 08FF0303 [8] 00 00 00 00 00 00 00 00
1507915336.828278,can0 18F00503 [8] 00 00 00 00 00 00 00 00
1507915336.83025,can0 08FF0001 [8] 00 00 00 00 00 00 00 00
1507915336.838305,can0 0CF00203 [8] 00 00 00 00 00 00 00 00
1507915336.840242,can0 08FF0303 [8] 00 00 00 00 00 00 00 00
1507915336.845986,can0 08FF0001 [8] 00 00 00 00 00 00 00 00
1507915336.847726,can0 0CF00203 [8] 00 00 00 00 00 00 00 00
1507915336.860218,can0 08FF0303 [8] 00 00 00 00 00 00 00 00
1507915336.861635,can0 08FF0001 [8] 00 00 00 00 00 00 00 00
1507915336.871285,can0 0CF00203 [8] 00 00 00 00 00 00 00 00
1507915336.872845,can0 08FF0303 [8] 00 00 00 00 00 00 00 00
1507915336.882288,can0 08FF0001 [8] 00 00 00 00 00 00 00 00
1507915336.883995,can0 0CF00203 [8] 00 00 00 00 00 00 00 00
1507915336.885311,can0 08FF0303 [8] 00 00 00 00 00 00 00 00
1507915336.894973,can0 08FF0001 [8] 00 00 00 00 00 00 00 00
1507915336.896502,can0 0CF00203 [8] 00 00 00 00 00 00 00 00
1507915336.905944,can0 08FF0303 [8] 00 00 00 00 00 00 00 00
1507915336.907566,can0 08FF0001 [8] 00 00 00 00 00 00 00 00
1507915336.917347,can0 0CF00203 [8] 00 00 00 00 00 00 00 00
1507915336.919416,can0 08FF0303 [8] 00 00 00 00 00 00 00 00
1507915336.931943,can0 08FF0001 [8] 00 00 00 00 00 00 00 00
1507915336.933429,can0 0CF00203 [8] 00 00 00 00 00 00 00 00
1507915336.938098,can0 08FF0303 [8] 00 00 00 00 00 00 00 00
1507915336.94906,can0 08FF0001 [8] 00 00 00 00 00 00 00 00
1507915336.949819,can0 0CF00203 [8] 00 00 00 00 00 00 00 00
1507915336.950457,can0 08FF0303 [8] 00 00 00 00 00 00 00 00
1507915336.950971,can0 08FF0001 [8] 00 00 00 00 00 00 00 00
1507915336.951398,can0 0CF00203 [8] 00 00 00 00 00 00 00 00
1507915336.955899,can0 08FF0303 [8] 00 00 00 00 00 00 00 00
1507915336.956531,can0 08FF0001 [8] 00 00 00 00 00 00 00 00
1507915336.95706,can0 0CF00203 [8] 00 00 00 00 00 00 00 00
1507915336.957488,can0 08FF0303 [8] 00 00 00 00 00 00 00 00
1507915336.958024,can0 18F00503 [8] 00 00 00 00 00 00 00 00
1507915336.958464,can0 08FF0001 [8] 00 00 00 00 00 00 00 00
1507915336.958942,can0 0CF00203 [8] 00 00 00 00 00 00 00 00
1507915336.959401,can0 08FF0303 [8] 00 00 00 00 00 00 00 00
1507915336.967797,can0 08FF0001 [8] 00 00 00 00 00 00 00 00
1507915336.968556,can0 0CF00203 [8] 00 00 00 00 00 00 00 00
1507915336.969035,can0 08FF0303 [8] 00 00 00 00 00 00 00 00
1507915336.969603,can0 08FF0001 [8] 00 00 00 00 00 00 00 00
1507915336.970113,can0 0CF00203 [8] 00 00 00 00 00 00 00 00
1507915336.970549,can0 08FF0303 [8] 00 00 00 00 00 00 00 00
1507915336.970959,can0 08FF0001 [8] 00 00 00 00 00 00 00 00
1507915336.971407,can0 0CF00203 [8] 00 00 00 00 00 00 00 00
1507915336.978386,can0 08FF0303 [8] 00 00 00 00 00 00 00 00
1507915336.978974,can0 08FF0001 [8] 00 00 00 00 00 00 00 00
1507915336.979566,can0 0CF00203 [8] 00 00 00 00 00 00 00 00
1507915336.980001,can0 08FF0303 [8] 00 00 00 00 00 00 00 00
1507915336.980414,can0 08FF0001 [8] 00 00 00 00 00 00 00 00
1507915336.980847,can0 0CF00203 [8] 00 00 00 00 00 00 00 00
1507915336.98537,can0 08FF0303 [8] 00 00 00 00 00 00 00 00
1507915336.986039,can0 08FF0001 [8] 00 00 00 00 00 00 00 00
1507915336.98652,can0 0CF00203 [8] 00 00 00 00 00 00 00 00
1507915336.986943,can0 08FF0303 [8] 00 00 00 00 00 00 00 00
1507915336.987479,can0 08FF0001 [8] 00 00 00 00 00 00 00 00
1507915336.987891,can0 0CF00203 [8] 00 00 00 00 00 00 00 00
1507915336.993724,can0 08FF0303 [8] 00 00 00 00 00 00 00 00
1507915336.994247,can0 08FF0001 [8] 00 00 00 00 00 00 00 00
1507915336.994684,can0 0CF00203 [8] 00 00 00 00 00 00 00 00
1507915336.995206,can0 08FF0303 [8] 00 00 00 00 00 00 00 00
1507915336.995624,can0 08FF0001 [8] 00 00 00 00 00 00 00 00
1507915336.996023,can0 0CF00203 [8] 00 00 00 00 00 00 00 00
1507915336.996411,can0 08FF0303 [8] 00 00 00 00 00 00 00 00
1507915337.000909,can0 18F00503 [8] 00 00 00 00 00 00 00 00
1507915337.00168,can0 08FF0001 [8] 00 00 00 00 00 00 00 00
1507915337.002186,can0 0CF00203 [8] 00 00 00 00 00 00 00 00
1507915337.0027,can0 08FF0303 [8] 00 00 00 00 00 00 00 00
1507915337.003162,can0 08FF0001 [8] 00 00 00 00 00 00 00 00
1507915337.003581,can0 0CF00203 [8] 00 00 00 00 00 00 00 00
1507915337.003981,can0 08FF0303 [8] 00 00 00 00 00 00 00 00
1507915337.004368,can0 08FF0001 [8] 00 00 00 00 00 00 00 00
1507915337.007413,can0 0CF00203 [8] 00 00 00 00 00 00 00 00
1507915337.009292,can0 08FF0303 [8] 00 00 00 00 00 00 00 00
1507915337.009863,can0 08FF0001 [8] 00 00 00 00 00 00 00 00
1507915337.010307,can0 0CF00203 [8] 00 00 00 00 00 00 00 00
1507915337.01082,can0 08FF0303 [8] 00 00 00 00 00 00 00 00
1507915337.011238,can0 08FF0001 [8] 00 00 00 00 00 00 00 00
1507915337.011633,can0 0CF00203 [8] 00 00 00 00 00 00 00 00
1507915337.012025,can0 08FF0303 [8] 00 00 00 00 00 00 00 00
1507915337.012476,can0 08FF0001 [8] 00 00 00 00 00 00 00 00
1507915337.012891,can0 0CF00203 [8] 00 00 00 00 00 00 00 00
1507915337.013284,can0 08FF0303 [8] 00 00 00 00 00 00 00 00
1507915337.018191,can0 08FF0001 [8] 00 00 00 00 00 00 00 00
1507915337.01879,can0 0CF00203 [8] 00 00 00 00 00 00 00 00
1507915337.019288,can0 08FF0303 [8] 00 00 00 00 00 00 00 00
1507915337.02899,can0 08FF0001 [8] 00 00 00 00 00 00 00 00
1507915337.029608,can0 0CF00203 [8] 00 00 00 00 00 00 00 00
1507915337.030127,can0 08FF0303 [8] 00 00 00 00 00 00 00 00
1507915337.038199,can0 08FF0001 [8] 00 00 00 00 00 00 00 00
1507915337.038805,can0 0CF00203 [8] 00 00 00 00 00 00 00 00
1507915337.03932,can0 08FF0303 [8] 00 00 00 00 00 00 00 00
1507915337.051701,can0 08FF0001 [8] 00 00 00 00 00 00 00 00
1507915337.052331,can0 0CF00203 [8] 00 00 00 00 00 00 00 00
1507915337.052861,can0 08FF0303 [8] 00 00 00 00 00 00 00 00
1507915337.053344,can0 18F00503 [8] 00 00 00 00 00 00 00 00
1507915337.058209,can0 08FF0001 [8] 00 00 00 00 00 00 00 00
1507915337.058815,can0 0CF00203 [8] 00 00 00 00 00 00 00 00
1507915337.059387,can0 08FF0303 [8] 00 00 00 00 00 00 00 00
1507915337.068261,can0 08FF0001 [8] 00 00 00 00 00 00 00 00
1507915337.068914,can0 0CF00203 [8] 00 00 00 00 00 00 00 00
1507915337.069528,can0 08FF0303 [8] 00 00 00 00 00 00 00 00
1507915337.078224,can0 08FF0001 [8] 00 00 00 00 00 00 00 00
1507915337.078892,can0 0CF00203 [8] 00 00 00 00 00 00 00 00
1507915337.07944,can0 08FF0303 [8] 00 00 00 00 00 00 00 00
1507915337.088994,can0 08FF0001 [8] 00 00 00 00 00 00 00 00
1507915337.089597,can0 0CF00203 [8] 00 00 00 00 00 00 00 00
1507915337.090043,can0 08FF0303 [8] 00 00 00 00 00 00 00 00
1507915337.09819,can0 08FF0001 [8] 00 00 00 00 00 00 00 00
1507915337.098778,can0 0CF00203 [8] 00 00 00 00 00 00 00 00
1507915337.09935,can0 08FF0303 [8] 00 00 00 00 00 00 00 00
1507915337.108972,can0 08FF0001 [8] 00 00 00 00 00 00 00 00
1507915337.109575,can0 0CF00203 [8] 00 00 00 00 00 00 00 00
1507915337.110008,can0 08FF0303 [8] 00 00 00 00 00 00 00 00
1507915337.118189,can0 08FF0001 [8] 00 00 00 00 00 00 00 00
1507915337.118767,can0 0CF00203 [8] 00 00 00 00 00 00 00 00
1507915337.119337,can0 08FF0303 [8] 00 00 00 00 00 00 00 00
1507915337.129098,can0 08FF0001 [8] 00 00 00 00 00 00 00 00
1507915337.129811,can0 0CF00203 [8] 00 00 00 00 00 00 00 00
1507915337.130289,can0 08FF0303 [8] 00 00 00 00 00 00 00 00
1507915337.138213,can0 08FF0001 [8] 00 00 00 00 00 00 00 00
1507915337.138795,can0 0CF00203 [8] 00 00 00 00 00 00 00 00
1507915337.13931,can0 08FF0303 [8] 00 00 00 00 00 00 00 00
1507915337.151299,can0 08FF0001 [8] 00 00 00 00 00 00 00 00
1507915337.151922,can0 0CF00203 [8] 00 00 00 00 00 00 00 00
1507915337.15245,can0 08FF0303 [8] 00 00 00 00 00 00 00 00
1507915337.152931,can0 18F00503 [8] 00 00 00 00 00 00 00 00
1507915337.158219,can0 08FF0001 [8] 00 00 00 00 00 00 00 00
1507915337.158826,can0 0CF00203 [8] 00 00 00 00 00 00 00 00
1507915337.159411,can0 08FF0303 [8] 00 00 00 00 00 00 00 00
1507915337.168254,can0 08FF0001 [8] 00 00 00 00 00 00 00 00
1507915336.814939,can1 0CFE6E0B [8] 00 00 00 00 00 00 00 00
1507915336.831566,can1 0CFE6E0B [8] 00 00 00 00 00 00 00 00
1507915336.849031,can1 0CFE6E0B [8] 00 00 00 00 00 00 00 00
1507915336.851318,can1 18F00131 [8] 00 00 00 00 00 00 00 00
1507915336.853303,can1 18F0010B [8] 00 00 00 00 00 00 00 00
1507915336.862788,can1 18FEF117 [8] 00 00 00 00 00 00 00 00
1507915336.864324,can1 18FEF128 [8] 00 00 00 00 00 00 00 00
1507915336.865605,can1 18FEF121 [8] 00 00 00 00 00 00 00 00
1507915336.875,can1 18FEF131 [8] 00 00 00 00 00 00 00 00
1507915336.876456,can1 18E00017 [8] 00 00 00 00 00 00 00 00
1507915336.885706,can1 18E00019 [8] 00 00 00 00 00 00 00 00
1507915336.887153,can1 18E00021 [8] 00 00 00 00 00 00 00 00
1507915336.888937,can1 18E00028 [8] 00 00 00 00 00 00 00 00
1507915336.898757,can1 18E00031 [8] 00 00 00 00 00 00 00 00
1507915336.900375,can1 18FEF017 [8] 00 00 00 00 00 00 00 00
1507915336.909818,can1 18FEF021 [8] 00 00 00 00 00 00 00 00
1507915336.911334,can1 18FEF028 [8] 00 00 00 00 00 00 00 00
1507915336.912619,can1 18FEF031 [8] 00 00 00 00 00 00 00 00
1507915336.921964,can1 18F0010B [8] CF FF F0 FF FF DC FF FF
1507915336.927575,can1 0CFE6E0B [8] 00 00 00 00 00 00 00 00
1507915336.929662,can1 18FEBF0B [8] 00 00 7D 7D FE FE FF FF
1507915336.941863,can1 0CFE6E0B [8] 00 00 00 00 00 00 00 00
1507915336.94258,can1 0CFE6E0B [8] 00 00 00 00 00 00 00 00
1507915336.943053,can1 0CFE6E0B [8] 00 00 00 00 00 00 00 00
1507915336.952176,can1 0CFE6E0B [8] 00 00 00 00 00 00 00 00
1507915336.952829,can1 18F00131 [8] 00 00 00 00 00 00 00 00
1507915336.953367,can1 18F0010B [8] 00 00 00 00 00 00 00 00
1507915336.953923,can1 18FEF117 [8] 00 00 00 00 00 00 00 00
1507915336.954427,can1 18FEF128 [8] 00 00 00 00 00 00 00 00
1507915336.954845,can1 18FEF121 [8] 00 00 00 00 00 00 00 00
1507915336.955307,can1 18FEF131 [8] 00 00 00 00 00 00 00 00
1507915336.963716,can1 18E00017 [8] 00 00 00 00 00 00 00 00
1507915336.964482,can1 18E00019 [8] 00 00 00 00 00 00 00 00
1507915336.964996,can1 18E00021 [8] 00 00 00 00 00 00 00 00
1507915336.965427,can1 18E00028 [8] 00 00 00 00 00 00 00 00
1507915336.965939,can1 18E00031 [8] 00 00 00 00 00 00 00 00
1507915336.966359,can1 18FEF017 [8] 00 00 00 00 00 00 00 00
1507915336.966754,can1 18FEF021 [8] 00 00 00 00 00 00 00 00
1507915336.967138,can1 18FEF028 [8] 00 00 00 00 00 00 00 00
1507915336.975527,can1 18FEF031 [8] 00 00 00 00 00 00 00 00
1507915336.976268,can1 18F0010B [8] CF FF F0 FF FF DC FF FF
1507915336.976771,can1 0CFE6E0B [8] 00 00 00 00 00 00 00 00
1507915336.977195,can1 18FEBF0B [8] 00 00 7D 7D FE FE FF FF
1507915336.988298,can1 0CFE6E0B [8] 00 00 00 00 00 00 00 00
1507915337.008358,can1 0CFE6E0B [8] 00 00 00 00 00 00 00 00
1507915337.028262,can1 0CFE6E0B [8] 00 00 00 00 00 00 00 00
1507915337.048266,can1 0CFE6E0B [8] 00 00 00 00 00 00 00 00
1507915337.048937,can1 18F00131 [8] 00 00 00 00 00 00 00 00
1507915337.049557,can1 18F0010B [8] 00 00 00 00 00 00 00 00
1507915337.050118,can1 18FEF117 [8] 00 00 00 00 00 00 00 00
1507915337.050598,can1 18FEF128 [8] 00 00 00 00 00 00 00 00
1507915337.051057,can1 18FEF121 [8] 00 00 00 00 00 00 00 00
1507915337.053994,can1 18FEF131 [8] 00 00 00 00 00 00 00 00
1507915337.054581,can1 18E00017 [8] 00 00 00 00 00 00 00 00
1507915337.055134,can1 18E00019 [8] 00 00 00 00 00 00 00 00
1507915337.055694,can1 18E00021 [8] 00 00 00 00 00 00 00 00
1507915337.05618,can1 18E00028 [8] 00 00 00 00 00 00 00 00
1507915337.056603,can1 18E00031 [8] 00 00 00 00 00 00 00 00
1507915337.057066,can1 18FEF017 [8] 00 00 00 00 00 00 00 00
1507915337.057518,can1 18FEF021 [8] 00 00 00 00 00 00 00 00
1507915337.05976,can1 18FEF028 [8] 00 00 00 00 00 00 00 00
1507915337.060378,can1 18FEF031 [8] 00 00 00 00 00 00 00 00
1507915337.060839,can1 18F0010B [8] CF FF F0 FF FF DC FF FF
1507915337.070065,can1 0CFE6E0B [8] 00 00 00 00 00 00 00 00
1507915337.07067,can1 18FEBF0B [8] 00 00 7D 7D FE FE FF FF
1507915337.088252,can1 0CFE6E0B [8] 00 00 00 00 00 00 00 00
1507915337.108281,can1 0CFE6E0B [8] 00 00 00 00 00 00 00 00
1507915337.128299,can1 0CFE6E0B [8] 00 00 00 00 00 00 00 00
1507915337.148272,can1 0CFE6E0B [8] 00 00 00 00 00 00 00 00
1507915337.148941,can1 18F00131 [8] 00 00 00 00 00 00 00 00
1507915337.149568,can1 18F0010B [8] 00 00 00 00 00 00 00 00
1507915337.150109,can1 18FEF117 [8] 00 00 00 00 00 00 00 00
1507915337.150593,can1 18FEF128 [8] 00 00 00 00 00 00 00 00
1507915337.153418,can1 18FEF121 [8] 00 00 00 00 00 00 00 00
1507915337.154022,can1 18FEF131 [8] 00 00 00 00 00 00 00 00
1507915337.154546,can1 18E00017 [8] 00 00 00 00 00 00 00 00
1507915337.155077,can1 18E00019 [8] 00 00 00 00 00 00 00 00
1507915337.155565,can1 18E00021 [8] 00 00 00 00 00 00 00 00
1507915337.155992,can1 18E00028 [8] 00 00 00 00 00 00 00 00
1507915337.156449,can1 18E00031 [8] 00 00 00 00 00 00 00 00
1507915337.156899,can1 18FEF017 [8] 00 00 00 00 00 00 00 00
1507915337.157367,can1 18FEF021 [8] 00 00 00 00 00 00 00 00
1507915337.15776,can1 18FEF028 [8] 00 00 00 00 00 00 00 00
1507915337.160052,can1 18FEF031 [8] 00 00 00 00 00 00 00 00
1507915337.160634,can1 18F0010B [8] CF FF F0 FF FF DC FF FF
1507915337.171014,can1 0CFE6E0B [8] 00 00 00 00 00 00 00 00
1507915337.171604,can1 18FEBF0B [8] 00 00 7D 7D FE FE FF FF
1507915337.188328,can1 0CFE6E0B [8] 00 00 00 00 00 00 00 00
1507915337.208255,can1 0CFE6E0B [8] 00 00 00 00 00 00 00 00
1507915337.228267,can1 0CFE6E0B [8] 00 00 00 00 00 00 00 00
1507915337.248264,can1 0CFE6E0B [8] 00 00 00 00 00 00 00 00
1507915337.250779,can1 18F00131 [8] 00 00 00 00 00 00 00 00
1507915337.252153,can1 18F0010B [8] 00 00 00 00 00 00 00 00
1507915337.252996,can1 18FEF117 [8] 00 00 00 00 00 00 00 00
1507915337.25376,can1 18FEF128 [8] 00 00 00 00 00 00 00 00
1507915337.254553,can1 18FEF121 [8] 00 00 00 00 00 00 00 00
1507915337.259501,can1 18FEF131 [8] 00 00 00 00 00 00 00 00
1507915337.260193,can1 18E00017 [8] 00 00 00 00 00 00 00 00
1507915337.261036,can1 18E00019 [8] 00 00 00 00 00 00 00 00
1507915337.26169,can1 18E00021 [8] 00 00 00 00 00 00 00 00
1507915337.262314,can1 18E00028 [8] 00 00 00 00 00 00 00 00
1507915337.265019,can1 18E00031 [8] 00 00 00 00 00 00 00 00
1507915337.26569,can1 18FEF017 [8] 00 00 00 00 00 00 00 00
1507915337.266388,can1 18FEF021 [8] 00 00 00 00 00 00 00 00
1507915337.267096,can1 18FEF028 [8] 00 00 00 00 00 00 00 00
1507915337.267736,can1 18FEF031 [8] 00 00 00 00 00 00 00 00
1507915337.271305,can1 18F0010B [8] CF FF F0 FF FF DC FF FF
1507915337.272024,can1 0CFE6E0B [8] 00 00 00 00 00 00 00 00
1507915337.272772,can1 18FEBF0B [8] 00 00 7D 7D FE FE FF FF
1507915337.290744,can1 0CFE6E0B [8] 00 00 00 00 00 00 00 00
1507915337.308489,can1 0CFE6E0B [8] 00 00 00 00 00 00 00 00
1507915337.328494,can1 0CFE6E0B [8] 00 00 00 00 00 00 00 00
1507915337.34868,can1 0CFE6E0B [8] 00 00 00 00 00 00 00 00
1507915337.349873,can1 18F00131 [8] 00 00 00 00 00 00 00 00
1507915337.354606,can1 18F0010B [8] 00 00 00 00 00 00 00 00
1507915337.355447,can1 18FEF117 [8] 00 00 00 00 00 00 00 00
1507915337.356347,can1 18FEF128 [8] 00 00 00 00 00 00 00 00
1507915337.357098,can1 18FEF121 [8] 00 00 00 00 00 00 00 00
1507915337.357742,can1 18FEF131 [8] 00 00 00 00 00 00 00 00
1507915337.365334,can1 18E00017 [8] 00 00 00 00 00 00 00 00
1507915337.366193,can1 18E00019 [8] 00 00 00 00 00 00 00 00
1507915337.366886,can1 18E00021 [8] 00 00 00 00 00 00 00 00
1507915337.367523,can1 18E00028 [8] 00 00 00 00 00 00 00 00
1507915337.376213,can1 18E00031 [8] 00 00 00 00 00 00 00 00
1507915337.377027,can1 18FEF017 [8] 00 00 00 00 00 00 00 00
1507915337.377781,can1 18FEF021 [8] 00 00 00 00 00 00 00 00
1507915337.381312,can1 18FEF028 [8] 00 00 00 00 00 00 00 00
1507915337.382126,can1 18FEF031 [8] 00 00 00 00 00 00 00 00
1507915337.382785,can1 18F0010B [8] CF FF F0 FF FF DC FF FF
1507915337.383416,can1 0CFE6E0B [8] 00 00 00 00 00 00 00 00
1507915337.384122,can1 18FEBF0B [8] 00 00 7D 7D FE FE FF FF
1507915337.392959,can1 0CFE6E0B [8] 00 00 00 00 00 00 00 00
1507915337.40843,can1 0CFE6E0B [8] 00 00 00 00 00 00 00 00
1507915337.429102,can1 0CFE6E0B [8] 00 00 00 00 00 00 00 00
1507915337.448436,can1 0CFE6E0B [8] 00 00 00 00 00 00 00 00
1507915337.169637,can0 0CF00203 [8] 00 00 00 00 00 00 00 00
1507915337.170222,can0 08FF0303 [8] 00 00 00 00 00 00 00 00
1507915337.17827,can0 08FF0001 [8] 00 00 00 00 00 00 00 00
1507915337.178971,can0 0CF00203 [8] 00 00 00 00 00 00 00 00
1507915337.179618,can0 08FF0303 [8] 00 00 00 00 00 00 00 00
1507915337.189069,can0 08FF0001 [8] 00 00 00 00 00 00 00 00
1507915337.18968,can0 0CF00203 [8] 00 00 00 00 00 00 00 00
1507915337.190179,can0 08FF0303 [8] 00 00 00 00 00 00 00 00
1507915337.198195,can0 08FF0001 [8] 00 00 00 00 00 00 00 00
1507915337.198738,can0 0CF00203 [8] 00 00 00 00 00 00 00 00
1507915337.199346,can0 08FF0303 [8] 00 00 00 00 00 00 00 00
1507915337.208954,can0 08FF0001 [8] 00 00 00 00 00 00 00 00
1507915337.209551,can0 0CF00203 [8] 00 00 00 00 00 00 00 00
1507915337.210085,can0 08FF0303 [8] 00 00 00 00 00 00 00 00
1507915337.218191,can0 08FF0001 [8] 00 00 00 00 00 00 00 00
1507915337.21873,can0 0CF00203 [8] 00 00 00 00 00 00 00 00
1507915337.219342,can0 08FF0303 [8] 00 00 00 00 00 00 00 00
1507915337.228955,can0 08FF0001 [8] 00 00 00 00 00 00 00 00
1507915337.229604,can0 0CF00203 [8] 00 00 00 00 00 00 00 00
1507915337.23006,can0 08FF0303 [8] 00 00 00 00 00 00 00 00
1507915337.238203,can0 08FF0001 [8] 00 00 00 00 00 00 00 00
1507915337.238783,can0 0CF00203 [8] 00 00 00 00 00 00 00 00
1507915337.239356,can0 08FF0303 [8] 00 00 00 00 00 00 00 00
1507915337.25492,can0 08FF0001 [8] 00 00 00 00 00 00 00 00
1507915337.255905,can0 0CF00203 [8] 00 00 00 00 00 00 00 00
1507915337.256839,can0 08FF0303 [8] 00 00 00 00 00 00 00 00
1507915337.257532,can0 18F00503 [8] 00 00 00 00 00 00 00 00
1507915337.258262,can0 08FF0001 [8] 00 00 00 00 00 00 00 00
1507915337.26301,can0 0CF00203 [8] 00 00 00 00 00 00 00 00
1507915337.263732,can0 08FF0303 [8] 00 00 00 00 00 00 00 00
1507915337.268443,can0 08FF0001 [8] 00 00 00 00 00 00 00 00
1507915337.269384,can0 0CF00203 [8] 00 00 00 00 00 00 00 00
1507915337.270066,can0 08FF0303 [8] 00 00 00 00 00 00 00 00
1507915337.278368,can0 08FF0001 [8] 00 00 00 00 00 00 00 00
1507915337.279326,can0 0CF00203 [8] 00 00 00 00 00 00 00 00
1507915337.2801,can0 08FF0303 [8] 00 00 00 00 00 00 00 00
1507915337.288341,can0 08FF0001 [8] 00 00 00 00 00 00 00 00
1507915337.289217,can0 0CF00203 [8] 00 00 00 00 00 00 00 00
1507915337.289957,can0 08FF0303 [8] 00 00 00 00 00 00 00 00
1507915337.298354,can0 08FF0001 [8] 00 00 00 00 00 00 00 00
1507915337.299293,can0 0CF00203 [8] 00 00 00 00 00 00 00 00
1507915337.300069,can0 08FF0303 [8] 00 00 00 00 00 00 00 00
1507915337.31358,can0 08FF0001 [8] 00 00 00 00 00 00 00 00
1507915337.314504,can0 0CF00203 [8] 00 00 00 00 00 00 00 00
1507915337.315291,can0 08FF0303 [8] 00 00 00 00 00 00 00 00
1507915337.318392,can0 08FF0001 [8] 00 00 00 00 00 00 00 00
1507915337.319435,can0 0CF00203 [8] 00 00 00 00 00 00 00 00
1507915337.320158,can0 08FF0303 [8] 00 00 00 00 00 00 00 00
1507915337.329805,can0 08FF0001 [8] 00 00 00 00 00 00 00 00
1507915337.330639,can0 0CF00203 [8] 00 00 00 00 00 00 00 00
1507915337.331478,can0 08FF0303 [8] 00 00 00 00 00 00 00 00
1507915337.338423,can0 08FF0001 [8] 00 00 00 00 00 00 00 00
1507915337.339554,can0 0CF00203 [8] 00 00 00 00 00 00 00 00
1507915337.340272,can0 08FF0303 [8] 00 00 00 00 00 00 00 00
1507915337.350754,can0 08FF0001 [8] 00 00 00 00 00 00 00 00
1507915337.351769,can0 0CF00203 [8] 00 00 00 00 00 00 00 00
1507915337.352716,can0 08FF0303 [8] 00 00 00 00 00 00 00 00
1507915337.353479,can0 18F00503 [8] 00 00 00 00 00 00 00 00
1507915337.35839,can0 08FF0001 [8] 00 00 00 00 00 00 00 00
1507915337.359331,can0 0CF00203 [8] 00 00 00 00 00 00 00 00
1507915337.360012,can0 08FF0303 [8] 00 00 00 00 00 00 00 00
1507915337.3702,can0 08FF0001 [8] 00 00 00 00 00 00 00 00
1507915337.371148,can0 0CF00203 [8] 00 00 00 00 00 00 00 00
1507915337.371934,can0 08FF0303 [8] 00 00 00 00 00 00 00 00
1507915337.378369,can0 08FF0001 [8] 00 00 00 00 00 00 00 00
1507915337.379349,can0 0CF00203 [8] 00 00 00 00 00 00 00 00
1507915337.380151,can0 08FF0303 [8] 00 00 00 00 00 00 00 00
1507915337.388451,can0 08FF0001 [8] 00 00 00 00 00 00 00 00
1507915337.389582,can0 0CF00203 [8] 00 00 00 00 00 00 00 00
1507915337.390327,can0 08FF0303 [8] 00 00 00 00 00 00 00 00
1507915337.398447,can0 08FF0001 [8] 00 00 00 00 00 00 00 00
1507915337.399555,can0 0CF00203 [8] 00 00 00 00 00 00 00 00
1507915337.400274,can0 08FF0303 [8] 00 00 00 00 00 00 00 00
1507915337.409583,can0 08FF0001 [8] 00 00 00 00 00 00 00 00
1507915337.41058,can0 0CF00203 [8] 00 00 00 00 00 00 00 00
1507915337.411418,can0 08FF0303 [8] 00 00 00 00 00 00 00 00
1507915337.418328,can0 08FF0001 [8] 00 00 00 00 00 00 00 00
1507915337.419278,can0 0CF00203 [8] 00 00 00 00 00 00 00 00
1507915337.41995,can0 08FF0303 [8] 00 00 00 00 00 00 00 00
1507915337.43022,can0 08FF0001 [8] 00 00 00 00 00 00 00 00
1507915337.431123,can0 0CF00203 [8] 00 00 00 00 00 00 00 00
1507915337.431814,can0 08FF0303 [8] 00 00 00 00 00 00 00 00
1507915337.438389,can0 08FF0001 [8] 00 00 00 00 00 00 00 00
1507915337.439336,can0 0CF00203 [8] 00 00 00 00 00 00 00 00
1507915337.44002,can0 08FF0303 [8] 00 00 00 00 00 00 00 00
1507915337.452303,can0 08FF0001 [8] 00 00 00 00 00 00 00 00
1507915337.453305,can0 0CF00203 [8] 00 00 00 00 00 00 00 00
1507915337.454161,can0 08FF0303 [8] 00 00 00 00 00 00 00 00
1507915337.454922,can0 18F00503 [8] 00 00 00 00 00 00 00 00
1507915337.459995,can0 08FF0001 [8] 00 00 00 00 00 00 00 00
1507915337.460879,can0 0CF00203 [8] 00 00 00 00 00 00 00 00
1507915337.461566,can0 08FF0303 [8] 00 00 00 00 00 00 00 00
1507915337.468378,can0 08FF0001 [8] 00 00 00 00 00 00 00 00
1507915337.469325,can0 0CF00203 [8] 00 00 00 00 00 00 00 00
1507915337.470101,can0 08FF0303 [8] 00 00 00 00 00 00 00 00
1507915337.478386,can0 08FF0001 [8] 00 00 00 00 00 00 00 00
1507915337.47942,can0 0CF00203 [8] 00 00 00 00 00 00 00 00
1507915337.48014,can0 08FF0303 [8] 00 00 00 00 00 00 00 00
1507915337.488361,can0 08FF0001 [8] 00 00 00 00 00 00 00 00
1507915337.489298,can0 0CF00203 [8] 00 00 00 00 00 00 00 00
1507915337.489975,can0 08FF0303 [8] 00 00 00 00 00 00 00 00
1507915337.498375,can0 08FF0001 [8] 00 00 00 00 00 00 00 00
1507915337.499386,can0 0CF00203 [8] 00 00 00 00 00 00 00 00
1507915337.50009,can0 08FF0303 [8] 00 00 00 00 00 00 00 00
1507915337.509504,can0 08FF0001 [8] 00 00 00 00 00 00 00 00
1507915337.510266,can0 0CF00203 [8] 00 00 00 00 00 00 00 00
1507915337.511035,can0 08FF0303 [8] 00 00 00 00 00 00 00 00
1507915337.51837,can0 08FF0001 [8] 00 00 00 00 00 00 00 00
1507915337.51924,can0 0CF00203 [8] 00 00 00 00 00 00 00 00
1507915337.519909,can0 08FF0303 [8] 00 00 00 00 00 00 00 00
1507915337.529435,can0 08FF0001 [8] 00 00 00 00 00 00 00 00
1507915337.530267,can0 0CF00203 [8] 00 00 00 00 00 00 00 00
1507915337.530956,can0 08FF0303 [8] 00 00 00 00 00 00 00 00
1507915337.538329,can0 08FF0001 [8] 00 00 00 00 00 00 00 00
1507915337.539241,can0 0CF00203 [8] 00 00 00 00 00 00 00 00
1507915337.540008,can0 08FF0303 [8] 00 00 00 00 00 00 00 00
1507915337.551963,can0 08FF0001 [8] 00 00 00 00 00 00 00 00
1507915337.552934,can0 0CF00203 [8] 00 00 00 00 00 00 00 00
1507915337.553881,can0 08FF0303 [8] 00 00 00 00 00 00 00 00
1507915337.55464,can0 18F00503 [8] 00 00 00 00 00 00 00 00
1507915337.55959,can0 08FF0001 [8] 00 00 00 00 00 00 00 00
1507915337.560363,can0 0CF00203 [8] 00 00 00 00 00 00 00 00
1507915337.56113,can0 08FF0303 [8] 00 00 00 00 00 00 00 00
1507915337.568414,can0 08FF0001 [8] 00 00 00 00 00 00 00 00
1507915337.569443,can0 0CF00203 [8] 00 00 00 00 00 00 00 00
1507915337.570153,can0 08FF0303 [8] 00 00 00 00 00 00 00 00
1507915337.578373,can0 08FF0001 [8] 00 00 00 00 00 00 00 00
1507915337.579397,can0 0CF00203 [8] 00 00 00 00 00 00 00 00
1507915337.580101,can0 08FF0303 [8] 00 00 00 00 00 00 00 00
1507915337.589501,can0 08FF0001 [8] 00 00 00 00 00 00 00 00
1507915337.59027,can0 0CF00203 [8] 00 00 00 00 00 00 00 00
1507915337.591027,can0 08FF0303 [8] 00 00 00 00 00 00 00 00
1507915337.598373,can0 08FF0001 [8] 00 00 00 00 00 00 00 00
1507915337.599252,can0 0CF00203 [8] 00 00 00 00 00 00 00 00
1507915337.599922,can0 08FF0303 [8] 00 00 00 00 00 00 00 00
1507915337.609631,can0 08FF0001 [8] 00 00 00 00 00 00 00 00
1507915337.610555,can0 0CF00203 [8] 00 00 00 00 00 00 00 00
1507915337.611431,can0 08FF0303 [8] 00 00 00 00 00 00 00 00
1507915337.618357,can0 08FF0001 [8] 00 00 00 00 00 00 00 00
1507915337.619236,can0 0CF00203 [8] 00 00 00 00 00 00 00 00
