1507908910.064358,can0 08FF0001 [8] 00 00 00 00 00 00 00 00
1507908910.081081,can0 0CF00203 [8] 00 00 00 00 00 00 00 00
1507908910.083225,can0 08FF0303 [8] 00 00 00 00 00 00 00 00
1507908910.099843,can0 08FF0001 [8] 00 00 00 00 00 00 00 00
1507908910.102046,can0 0CF00203 [8] 00 00 00 00 00 00 00 00
1507908910.10824,can0 08FF0303 [8] 00 00 00 00 00 00 00 00
1507908910.109904,can0 08FF0001 [8] 00 00 00 00 00 00 00 00
1507908910.120308,can0 0CF00203 [8] 00 00 00 00 00 00 00 00
1507908910.130062,can0 08FF0303 [8] 00 00 00 00 00 00 00 00
1507908910.131735,can0 08FF0001 [8] 00 00 00 00 00 00 00 00
1507908910.133078,can0 0CF00203 [8] 00 00 00 00 00 00 00 00
1507908910.14251,can0 08FF0303 [8] 00 00 00 00 00 00 00 00
1507908910.144027,can0 08FF0001 [8] 00 00 00 00 00 00 00 00
1507908910.153341,can0 0CF00203 [8] 00 00 00 00 00 00 00 00
1507908910.154802,can0 08FF0303 [8] 00 00 00 00 00 00 00 00
1507908910.156472,can0 08FF0001 [8] 00 00 00 00 00 00 00 00
1507908910.16621,can0 0CF00203 [8] 00 00 00 00 00 00 00 00
1507908910.167973,can0 08FF0303 [8] 00 00 00 00 00 00 00 00
1507908910.17759,can0 08FF0001 [8] 00 00 00 00 00 00 00 00
1507908910.179143,can0 0CF00203 [8] 00 00 00 00 00 00 00 00
1507908910.188439,can0 08FF0303 [8] 00 00 00 00 00 00 00 00
1507908910.189919,can0 08FF0001 [8] 00 00 00 00 00 00 00 00
1507908910.191372,can0 0CF00203 [8] 00 00 00 00 00 00 00 00
1507908910.20267,can0 08FF0303 [8] 00 00 00 00 00 00 00 00
1507908910.204206,can0 08FF0001 [8] 00 00 00 00 00 00 00 00
1507908910.205505,can0 0CF00203 [8] 00 00 00 00 00 00 00 00
1507908910.21494,can0 08FF0303 [8] 00 00 00 00 00 00 00 00
1507908910.216805,can0 18F00503 [8] 00 00 00 00 00 00 00 00
1507908910.226523,can0 08FF0001 [8] 00 00 00 00 00 00 00 00
1507908910.22828,can0 0CF00203 [8] 00 00 00 00 00 00 00 00
1507908910.237716,can0 08FF0303 [8] 00 00 00 00 00 00 00 00
1507908910.239293,can0 08FF0001 [8] 00 00 00 00 00 00 00 00
1507908910.240585,can0 0CF00203 [8] 00 00 00 00 00 00 00 00
1507908910.250011,can0 08FF0303 [8] 00 00 00 00 00 00 00 00
1507908910.251493,can0 08FF0001 [8] 00 00 00 00 00 00 00 00
1507908910.260817,can0 0CF00203 [8] 00 00 00 00 00 00 00 00
1507908910.262281,can0 08FF0303 [8] 00 00 00 00 00 00 00 00
1507908910.263728,can0 08FF0001 [8] 00 00 00 00 00 00 00 00
1507908910.27307,can0 0CF00203 [8] 00 00 00 00 00 00 00 00
1507908910.274577,can0 08FF0303 [8] 00 00 00 00 00 00 00 00
1507908910.27586,can0 08FF0001 [8] 00 00 00 00 00 00 00 00
1507908910.285433,can0 0CF00203 [8] 00 00 00 00 00 00 00 00
1507908910.287386,can0 08FF0303 [8] 00 00 00 00 00 00 00 00
1507908910.297288,can0 08FF0001 [8] 00 00 00 00 00 00 00 00
1507908910.309581,can0 0CF00203 [8] 00 00 00 00 00 00 00 00
1507908910.310168,can0 08FF0303 [8] 00 00 00 00 00 00 00 00
1507908910.310627,can0 08FF0001 [8] 00 00 00 00 00 00 00 00
1507908910.31114,can0 0CF00203 [8] 00 00 00 00 00 00 00 00
1507908910.311674,can0 08FF0303 [8] 00 00 00 00 00 00 00 00
1507908910.312101,can0 08FF0001 [8] 00 00 00 00 00 00 00 00
1507908910.3125,can0 0CF00203 [8] 00 00 00 00 00 00 00 00
1507908910.312889,can0 08FF0303 [8] 00 00 00 00 00 00 00 00
1507908910.321315,can0 08FF0001 [8] 00 00 00 00 00 00 00 00
1507908910.321973,can0 0CF00203 [8] 00 00 00 00 00 00 00 00
1507908910.322505,can0 08FF0303 [8] 00 00 00 00 00 00 00 00
1507908910.323055,can0 08FF0001 [8] 00 00 00 00 00 00 00 00
1507908910.323521,can0 0CF00203 [8] 00 00 00 00 00 00 00 00
1507908910.324013,can0 08FF0303 [8] 00 00 00 00 00 00 00 00
1507908910.324486,can0 18F00503 [8] 00 00 00 00 00 00 00 00
1507908910.332916,can0 08FF0001 [8] 00 00 00 00 00 00 00 00
1507908910.333498,can0 0CF00203 [8] 00 00 00 00 00 00 00 00
1507908910.333947,can0 08FF0303 [8] 00 00 00 00 00 00 00 00
1507908910.334354,can0 08FF0001 [8] 00 00 00 00 00 00 00 00
1507908910.334831,can0 0CF00203 [8] 00 00 00 00 00 00 00 00
1507908910.335259,can0 08FF0303 [8] 00 00 00 00 00 00 00 00
1507908910.335663,can0 08FF0001 [8] 00 00 00 00 00 00 00 00
1507908910.336183,can0 0CF00203 [8] 00 00 00 00 00 00 00 00
1507908910.344274,can0 08FF0303 [8] 00 00 00 00 00 00 00 00
1507908910.344933,can0 08FF0001 [8] 00 00 00 00 00 00 00 00
1507908910.345403,can0 0CF00203 [8] 00 00 00 00 00 00 00 00
1507908910.345819,can0 08FF0303 [8] 00 00 00 00 00 00 00 00
1507908910.346348,can0 08FF0001 [8] 00 00 00 00 00 00 00 00
1507908910.346928,can0 0CF00203 [8] 00 00 00 00 00 00 00 00
1507908910.347416,can0 08FF0303 [8] 00 00 00 00 00 00 00 00
1507908910.347828,can0 08FF0001 [8] 00 00 00 00 00 00 00 00
1507908910.348224,can0 0CF00203 [8] 00 00 00 00 00 00 00 00
1507908910.353084,can0 08FF0303 [8] 00 00 00 00 00 00 00 00
1507908910.353682,can0 08FF0001 [8] 00 00 00 00 00 00 00 00
1507908910.354134,can0 0CF00203 [8] 00 00 00 00 00 00 00 00
1507908910.354683,can0 08FF0303 [8] 00 00 00 00 00 00 00 00
1507908910.355109,can0 08FF0001 [8] 00 00 00 00 00 00 00 00
1507908910.355505,can0 0CF00203 [8] 00 00 00 00 00 00 00 00
1507908910.355893,can0 08FF0303 [8] 00 00 00 00 00 00 00 00
1507908910.359425,can0 08FF0001 [8] 00 00 00 00 00 00 00 00
1507908910.359973,can0 0CF00203 [8] 00 00 00 00 00 00 00 00
1507908910.360545,can0 08FF0303 [8] 00 00 00 00 00 00 00 00
1507908910.360979,can0 08FF0001 [8] 00 00 00 00 00 00 00 00
1507908910.36139,can0 0CF00203 [8] 00 00 00 00 00 00 00 00
1507908910.361779,can0 08FF0303 [8] 00 00 00 00 00 00 00 00
1507908910.362259,can0 18F00503 [8] 00 00 00 00 00 00 00 00
1507908910.362673,can0 08FF0001 [8] 00 00 00 00 00 00 00 00
1507908910.363064,can0 0CF00203 [8] 00 00 00 00 00 00 00 00
1507908910.363535,can0 08FF0303 [8] 00 00 00 00 00 00 00 00
1507908910.364007,can0 08FF0001 [8] 00 00 00 00 00 00 00 00
1507908910.364439,can0 0CF00203 [8] 00 00 00 00 00 00 00 00
1507908910.364846,can0 08FF0303 [8] 00 00 00 00 00 00 00 00
1507908910.365238,can0 08FF0001 [8] 00 00 00 00 00 00 00 00
1507908910.365623,can0 0CF00203 [8] 00 00 00 00 00 00 00 00
1507908910.366151,can0 08FF0303 [8] 00 00 00 00 00 00 00 00
1507908910.366658,can0 08FF0001 [8] 00 00 00 00 00 00 00 00
1507908910.367085,can0 0CF00203 [8] 00 00 00 00 00 00 00 00
1507908910.367557,can0 08FF0303 [8] 00 00 00 00 00 00 00 00
1507908910.36801,can0 08FF0001 [8] 00 00 00 00 00 00 00 00
1507908910.368426,can0 0CF00203 [8] 00 00 00 00 00 00 00 00
1507908910.368823,can0 08FF0303 [8] 00 00 00 00 00 00 00 00
1507908910.37711,can0 08FF0001 [8] 00 00 00 00 00 00 00 00
1507908910.377794,can0 0CF00203 [8] 00 00 00 00 00 00 00 00
1507908910.378276,can0 08FF0303 [8] 00 00 00 00 00 00 00 00
1507908910.386234,can0 08FF0001 [8] 00 00 00 00 00 00 00 00
1507908910.386764,can0 0CF00203 [8] 00 00 00 00 00 00 00 00
1507908910.38741,can0 08FF0303 [8] 00 00 00 00 00 00 00 00
1507908910.396988,can0 08FF0001 [8] 00 00 00 00 00 00 00 00
1507908910.397642,can0 0CF00203 [8] 00 00 00 00 00 00 00 00
1507908910.398094,can0 08FF0303 [8] 00 00 00 00 00 00 00 00
1507908910.406269,can0 08FF0001 [8] 00 00 00 00 00 00 00 00
1507908910.406888,can0 0CF00203 [8] 00 00 00 00 00 00 00 00
1507908910.407502,can0 08FF0303 [8] 00 00 00 00 00 00 00 00
1507908910.419153,can0 08FF0001 [8] 00 00 00 00 00 00 00 00
1507908910.41977,can0 0CF00203 [8] 00 00 00 00 00 00 00 00
1507908910.420293,can0 08FF0303 [8] 00 00 00 00 00 00 00 00
1507908910.420849,can0 18F00503 [8] 00 00 00 00 00 00 00 00
1507908910.426243,can0 08FF0001 [8] 00 00 00 00 00 00 00 00
1507908910.426911,can0 0CF00203 [8] 00 00 00 00 00 00 00 00
1507908910.427434,can0 08FF0303 [8] 00 00 00 00 00 00 00 00
1507908910.436336,can0 08FF0001 [8] 00 00 00 00 00 00 00 00
1507908910.436954,can0 0CF00203 [8] 00 00 00 00 00 00 00 00
1507908910.43747,can0 08FF0303 [8] 00 00 00 00 00 00 00 00
1507908910.44627,can0 08FF0001 [8] 00 00 00 00 00 00 00 00
1507908910.446869,can0 0CF00203 [8] 00 00 00 00 00 00 00 00
1507908910.447379,can0 08FF0303 [8] 00 00 00 00 00 00 00 00
1507908910.456963,can0 08FF0001 [8] 00 00 00 00 00 00 00 00
1507908910.45755,can0 0CF00203 [8] 00 00 00 00 00 00 00 00
1507908910.458087,can0 08FF0303 [8] 00 00 00 00 00 00 00 00
1507908910.466221,can0 08FF0001 [8] 00 00 00 00 00 00 00 00
1507908910.466757,can0 0CF00203 [8] 00 00 00 00 00 00 00 00
1507908910.10593,can1 0CFE6E0B [8] 00 00 00 00 00 00 00 00
1507908910.127968,can1 18F0010B [8] CF FF F0 FF FF DC FF FF
1507908910.137853,can1 18FEBF0B [8] 00 00 7D 7D FE FE FF FF
1507908910.139726,can1 0CFE6E0B [8] 00 00 00 00 00 00 00 00
1507908910.141085,can1 18F00131 [8] 00 00 00 00 00 00 00 00
1507908910.150695,can1 18F0010B [8] 00 00 00 00 00 00 00 00
1507908910.152218,can1 18FEF117 [8] 00 00 00 00 00 00 00 00
1507908910.161612,can1 18FEF128 [8] 00 00 00 00 00 00 00 00
1507908910.163264,can1 18FEF121 [8] 00 00 00 00 00 00 00 00
1507908910.164578,can1 18FEF131 [8] 00 00 00 00 00 00 00 00
1507908910.174192,can1 18E00017 [8] 00 00 00 00 00 00 00 00
1507908910.175692,can1 18E00019 [8] 00 00 00 00 00 00 00 00
1507908910.185469,can1 18E00021 [8] 00 00 00 00 00 00 00 00
1507908910.187468,can1 18E00028 [8] 00 00 00 00 00 00 00 00
1507908910.197371,can1 18E00031 [8] 00 00 00 00 00 00 00 00
1507908910.199378,can1 18FEF017 [8] 00 00 00 00 00 00 00 00
1507908910.200992,can1 18FEF021 [8] 00 00 00 00 00 00 00 00
1507908910.210408,can1 18FEF028 [8] 00 00 00 00 00 00 00 00
1507908910.212207,can1 18FEF031 [8] 00 00 00 00 00 00 00 00
1507908910.21352,can1 0CFE6E0B [8] 00 00 00 00 00 00 00 00
1507908910.223673,can1 0CFE6E0B [8] 00 00 00 00 00 00 00 00
1507908910.233252,can1 0CFE6E0B [8] 00 00 00 00 00 00 00 00
1507908910.234879,can1 0CFE6E0B [8] 00 00 00 00 00 00 00 00
1507908910.236714,can1 18F0010B [8] CF FF F0 FF FF DC FF FF
1507908910.246449,can1 18FEBF0B [8] 00 00 7D 7D FE FE FF FF
1507908910.248252,can1 0CFE6E0B [8] 00 00 00 00 00 00 00 00
1507908910.257994,can1 18F00131 [8] 00 00 00 00 00 00 00 00
1507908910.259574,can1 18F0010B [8] 00 00 00 00 00 00 00 00
1507908910.268946,can1 18FEF117 [8] 00 00 00 00 00 00 00 00
1507908910.270571,can1 18FEF128 [8] 00 00 00 00 00 00 00 00
1507908910.271869,can1 18FEF121 [8] 00 00 00 00 00 00 00 00
1507908910.281419,can1 18FEF131 [8] 00 00 00 00 00 00 00 00
1507908910.282945,can1 18E00017 [8] 00 00 00 00 00 00 00 00
1507908910.292279,can1 18E00019 [8] 00 00 00 00 00 00 00 00
1507908910.293921,can1 18E00021 [8] 00 00 00 00 00 00 00 00
1507908910.295234,can1 18E00028 [8] 00 00 00 00 00 00 00 00
1507908910.306145,can1 18E00031 [8] 00 00 00 00 00 00 00 00
1507908910.306826,can1 18FEF017 [8] 00 00 00 00 00 00 00 00
1507908910.307425,can1 18FEF021 [8] 00 00 00 00 00 00 00 00
1507908910.307892,can1 18FEF028 [8] 00 00 00 00 00 00 00 00
1507908910.30831,can1 18FEF031 [8] 00 00 00 00 00 00 00 00
1507908910.308708,can1 0CFE6E0B [8] 00 00 00 00 00 00 00 00
1507908910.309161,can1 0CFE6E0B [8] 00 00 00 00 00 00 00 00
1507908910.318,can1 0CFE6E0B [8] 00 00 00 00 00 00 00 00
1507908910.318631,can1 0CFE6E0B [8] 00 00 00 00 00 00 00 00
1507908910.319225,can1 18F0010B [8] CF FF F0 FF FF DC FF FF
1507908910.319751,can1 18FEBF0B [8] 00 00 7D 7D FE FE FF FF
1507908910.320237,can1 0CFE6E0B [8] 00 00 00 00 00 00 00 00
1507908910.320699,can1 18F00131 [8] 00 00 00 00 00 00 00 00
1507908910.329187,can1 18F0010B [8] 00 00 00 00 00 00 00 00
1507908910.329864,can1 18FEF117 [8] 00 00 00 00 00 00 00 00
1507908910.330335,can1 18FEF128 [8] 00 00 00 00 00 00 00 00
1507908910.33083,can1 18FEF121 [8] 00 00 00 00 00 00 00 00
1507908910.331281,can1 18FEF131 [8] 00 00 00 00 00 00 00 00
1507908910.33169,can1 18E00017 [8] 00 00 00 00 00 00 00 00
1507908910.332077,can1 18E00019 [8] 00 00 00 00 00 00 00 00
1507908910.332455,can1 18E00021 [8] 00 00 00 00 00 00 00 00
1507908910.340945,can1 18E00028 [8] 00 00 00 00 00 00 00 00
1507908910.341596,can1 18E00031 [8] 00 00 00 00 00 00 00 00
1507908910.342075,can1 18FEF017 [8] 00 00 00 00 00 00 00 00
1507908910.342571,can1 18FEF021 [8] 00 00 00 00 00 00 00 00
1507908910.343011,can1 18FEF028 [8] 00 00 00 00 00 00 00 00
1507908910.343415,can1 18FEF031 [8] 00 00 00 00 00 00 00 00
1507908910.343807,can1 0CFE6E0B [8] 00 00 00 00 00 00 00 00
1507908910.3564,can1 0CFE6E0B [8] 00 00 00 00 00 00 00 00
1507908910.376347,can1 0CFE6E0B [8] 00 00 00 00 00 00 00 00
1507908910.396289,can1 0CFE6E0B [8] 00 00 00 00 00 00 00 00
1507908910.401322,can1 18F0010B [8] CF FF F0 FF FF DC FF FF
1507908910.411339,can1 18FEBF0B [8] 00 00 7D 7D FE FE FF FF
1507908910.416262,can1 0CFE6E0B [8] 00 00 00 00 00 00 00 00
1507908910.416933,can1 18F00131 [8] 00 00 00 00 00 00 00 00
1507908910.417501,can1 18F0010B [8] 00 00 00 00 00 00 00 00
1507908910.418013,can1 18FEF117 [8] 00 00 00 00 00 00 00 00
1507908910.41849,can1 18FEF128 [8] 00 00 00 00 00 00 00 00
1507908910.421448,can1 18FEF121 [8] 00 00 00 00 00 00 00 00
1507908910.422037,can1 18FEF131 [8] 00 00 00 00 00 00 00 00
1507908910.42259,can1 18E00017 [8] 00 00 00 00 00 00 00 00
1507908910.423099,can1 18E00019 [8] 00 00 00 00 00 00 00 00
1507908910.423521,can1 18E00021 [8] 00 00 00 00 00 00 00 00
1507908910.423988,can1 18E00028 [8] 00 00 00 00 00 00 00 00
1507908910.424438,can1 18E00031 [8] 00 00 00 00 00 00 00 00
1507908910.424953,can1 18FEF017 [8] 00 00 00 00 00 00 00 00
1507908910.425402,can1 18FEF021 [8] 00 00 00 00 00 00 00 00
1507908910.425798,can1 18FEF028 [8] 00 00 00 00 00 00 00 00
1507908910.428084,can1 18FEF031 [8] 00 00 00 00 00 00 00 00
1507908910.428631,can1 18FEF521 [8] 00 00 00 00 00 00 00 00
1507908910.437992,can1 0CFE6E0B [8] 00 00 00 00 00 00 00 00
1507908910.456281,can1 0CFE6E0B [8] 00 00 00 00 00 00 00 00
1507908910.476361,can1 0CFE6E0B [8] 00 00 00 00 00 00 00 00
1507908910.496299,can1 0CFE6E0B [8] 00 00 00 00 00 00 00 00
1507908910.501441,can1 18F0010B [8] CF FF F0 FF FF DC FF FF
1507908910.511473,can1 18FEBF0B [8] 00 00 7D 7D FE FE FF FF
1507908910.516321,can1 0CFE6E0B [8] 00 00 00 00 00 00 00 00
1507908910.516945,can1 18F00131 [8] 00 00 00 00 00 00 00 00
1507908910.517491,can1 18F0010B [8] 00 00 00 00 00 00 00 00
1507908910.518008,can1 18FEF117 [8] 00 00 00 00 00 00 00 00
1507908910.518533,can1 18FEF128 [8] 00 00 00 00 00 00 00 00
1507908910.521489,can1 18FEF121 [8] 00 00 00 00 00 00 00 00
1507908910.522067,can1 18FEF131 [8] 00 00 00 00 00 00 00 00
1507908910.522646,can1 18E00017 [8] 00 00 00 00 00 00 00 00
1507908910.523125,can1 18E00019 [8] 00 00 00 00 00 00 00 00
1507908910.523534,can1 18E00021 [8] 00 00 00 00 00 00 00 00
1507908910.524003,can1 18E00028 [8] 00 00 00 00 00 00 00 00
1507908910.524524,can1 18E00031 [8] 00 00 00 00 00 00 00 00
1507908910.53021,can1 18FEF017 [8] 00 00 00 00 00 00 00 00
1507908910.530774,can1 18FEF021 [8] 00 00 00 00 00 00 00 00
1507908910.531208,can1 18FEF028 [8] 00 00 00 00 00 00 00 00
1507908910.531626,can1 18FEF031 [8] 00 00 00 00 00 00 00 00
1507908910.536368,can1 0CFE6E0B [8] 00 00 00 00 00 00 00 00
1507908910.556426,can1 0CFE6E0B [8] 00 00 00 00 00 00 00 00
1507908910.576392,can1 0CFE6E0B [8] 00 00 00 00 00 00 00 00
1507908910.596318,can1 0CFE6E0B [8] 00 00 00 00 00 00 00 00
1507908910.60158,can1 18F0010B [8] CF FF F0 FF FF DC FF FF
1507908910.611736,can1 18FEBF0B [8] 00 00 7D 7D FE FE FF FF
1507908910.616405,can1 0CFE6E0B [8] 00 00 00 00 00 00 00 00
1507908910.617399,can1 18F00131 [8] 00 00 00 00 00 00 00 00
1507908910.618275,can1 18F0010B [8] 00 00 00 00 00 00 00 00
1507908910.619088,can1 18FEF117 [8] 00 00 00 00 00 00 00 00
1507908910.61979,can1 18FEF128 [8] 00 00 00 00 00 00 00 00
1507908910.62444,can1 18FEF121 [8] 00 00 00 00 00 00 00 00
1507908910.625206,can1 18FEF131 [8] 00 00 00 00 00 00 00 00
1507908910.625927,can1 18E00017 [8] 00 00 00 00 00 00 00 00
1507908910.626794,can1 18E00019 [8] 00 00 00 00 00 00 00 00
1507908910.627512,can1 18E00021 [8] 00 00 00 00 00 00 00 00
1507908910.630629,can1 18E00028 [8] 00 00 00 00 00 00 00 00
1507908910.631309,can1 18E00031 [8] 00 00 00 00 00 00 00 00
1507908910.632038,can1 18FEF017 [8] 00 00 00 00 00 00 00 00
1507908910.632685,can1 18FEF021 [8] 00 00 00 00 00 00 00 00
1507908910.633307,can1 18FEF028 [8] 00 00 00 00 00 00 00 00
1507908910.634218,can1 18FEF031 [8] 00 00 00 00 00 00 00 00
1507908910.639056,can1 0CFE6E0B [8] 00 00 00 00 00 00 00 00
1507908910.656433,can1 0CFE6E0B [8] 00 00 00 00 00 00 00 00
1507908910.676428,can1 0CFE6E0B [8] 00 00 00 00 00 00 00 00
1507908910.696433,can1 0CFE6E0B [8] 00 00 00 00 00 00 00 00
1507908910.70188,can1 18F0010B [8] CF FF F0 FF FF DC FF FF
1507908910.467976,can0 08FF0303 [8] 00 00 00 00 00 00 00 00
1507908910.477274,can0 08FF0001 [8] 00 00 00 00 00 00 00 00
1507908910.477875,can0 0CF00203 [8] 00 00 00 00 00 00 00 00
1507908910.47834,can0 08FF0303 [8] 00 00 00 00 00 00 00 00
1507908910.48624,can0 08FF0001 [8] 00 00 00 00 00 00 00 00
1507908910.486792,can0 0CF00203 [8] 00 00 00 00 00 00 00 00
1507908910.48736,can0 08FF0303 [8] 00 00 00 00 00 00 00 00
1507908910.497056,can0 08FF0001 [8] 00 00 00 00 00 00 00 00
1507908910.497658,can0 0CF00203 [8] 00 00 00 00 00 00 00 00
1507908910.4981,can0 08FF0303 [8] 00 00 00 00 00 00 00 00
1507908910.506281,can0 08FF0001 [8] 00 00 00 00 00 00 00 00
1507908910.50696,can0 0CF00203 [8] 00 00 00 00 00 00 00 00
1507908910.507501,can0 08FF0303 [8] 00 00 00 00 00 00 00 00
1507908910.519143,can0 08FF0001 [8] 00 00 00 00 00 00 00 00
1507908910.519772,can0 0CF00203 [8] 00 00 00 00 00 00 00 00
1507908910.520372,can0 08FF0303 [8] 00 00 00 00 00 00 00 00
1507908910.520894,can0 18F00503 [8] 00 00 00 00 00 00 00 00
1507908910.52835,can0 08FF0001 [8] 00 00 00 00 00 00 00 00
1507908910.529029,can0 0CF00203 [8] 00 00 00 00 00 00 00 00
1507908910.529502,can0 08FF0303 [8] 00 00 00 00 00 00 00 00
1507908910.537288,can0 08FF0001 [8] 00 00 00 00 00 00 00 00
1507908910.537978,can0 0CF00203 [8] 00 00 00 00 00 00 00 00
1507908910.538483,can0 08FF0303 [8] 00 00 00 00 00 00 00 00
1507908910.546367,can0 08FF0001 [8] 00 00 00 00 00 00 00 00
1507908910.547125,can0 0CF00203 [8] 00 00 00 00 00 00 00 00
1507908910.547762,can0 08FF0303 [8] 00 00 00 00 00 00 00 00
1507908910.557463,can0 08FF0001 [8] 00 00 00 00 00 00 00 00
1507908910.558106,can0 0CF00203 [8] 00 00 00 00 00 00 00 00
1507908910.558576,can0 08FF0303 [8] 00 00 00 00 00 00 00 00
1507908910.566386,can0 08FF0001 [8] 00 00 00 00 00 00 00 00
1507908910.567282,can0 0CF00203 [8] 00 00 00 00 00 00 00 00
1507908910.567817,can0 08FF0303 [8] 00 00 00 00 00 00 00 00
1507908910.577379,can0 08FF0001 [8] 00 00 00 00 00 00 00 00
1507908910.577976,can0 0CF00203 [8] 00 00 00 00 00 00 00 00
1507908910.57842,can0 08FF0303 [8] 00 00 00 00 00 00 00 00
1507908910.586258,can0 08FF0001 [8] 00 00 00 00 00 00 00 00
1507908910.586871,can0 0CF00203 [8] 00 00 00 00 00 00 00 00
1507908910.587393,can0 08FF0303 [8] 00 00 00 00 00 00 00 00
1507908910.59709,can0 08FF0001 [8] 00 00 00 00 00 00 00 00
1507908910.597693,can0 0CF00203 [8] 00 00 00 00 00 00 00 00
1507908910.598136,can0 08FF0303 [8] 00 00 00 00 00 00 00 00
1507908910.607448,can0 08FF0001 [8] 00 00 00 00 00 00 00 00
1507908910.609126,can0 0CF00203 [8] 00 00 00 00 00 00 00 00
1507908910.609854,can0 08FF0303 [8] 00 00 00 00 00 00 00 00
1507908910.62023,can0 08FF0001 [8] 00 00 00 00 00 00 00 00
1507908910.621108,can0 0CF00203 [8] 00 00 00 00 00 00 00 00
1507908910.622035,can0 08FF0303 [8] 00 00 00 00 00 00 00 00
1507908910.622826,can0 18F00503 [8] 00 00 00 00 00 00 00 00
1507908910.627952,can0 08FF0001 [8] 00 00 00 00 00 00 00 00
1507908910.628719,can0 0CF00203 [8] 00 00 00 00 00 00 00 00
1507908910.629391,can0 08FF0303 [8] 00 00 00 00 00 00 00 00
1507908910.636452,can0 08FF0001 [8] 00 00 00 00 00 00 00 00
1507908910.637543,can0 0CF00203 [8] 00 00 00 00 00 00 00 00
1507908910.638266,can0 08FF0303 [8] 00 00 00 00 00 00 00 00
1507908910.646402,can0 08FF0001 [8] 00 00 00 00 00 00 00 00
1507908910.647427,can0 0CF00203 [8] 00 00 00 00 00 00 00 00
1507908910.64814,can0 08FF0303 [8] 00 00 00 00 00 00 00 00
1507908910.657531,can0 08FF0001 [8] 00 00 00 00 00 00 00 00
1507908910.658296,can0 0CF00203 [8] 00 00 00 00 00 00 00 00
1507908910.659052,can0 08FF0303 [8] 00 00 00 00 00 00 00 00
1507908910.666352,can0 08FF0001 [8] 00 00 00 00 00 00 00 00
1507908910.667293,can0 0CF00203 [8] 00 00 00 00 00 00 00 00
1507908910.667974,can0 08FF0303 [8] 00 00 00 00 00 00 00 00
1507908910.677542,can0 08FF0001 [8] 00 00 00 00 00 00 00 00
1507908910.678303,can0 0CF00203 [8] 00 00 00 00 00 00 00 00
1507908910.679075,can0 08FF0303 [8] 00 00 00 00 00 00 00 00
1507908910.686406,can0 08FF0001 [8] 00 00 00 00 00 00 00 00
1507908910.687281,can0 0CF00203 [8] 00 00 00 00 00 00 00 00
1507908910.687954,can0 08FF0303 [8] 00 00 00 00 00 00 00 00
1507908910.697464,can0 08FF0001 [8] 00 00 00 00 00 00 00 00
1507908910.698313,can0 0CF00203 [8] 00 00 00 00 00 00 00 00
1507908910.699014,can0 08FF0303 [8] 00 00 00 00 00 00 00 00
1507908910.706487,can0 08FF0001 [8] 00 00 00 00 00 00 00 00
1507908910.707544,can0 0CF00203 [8] 00 00 00 00 00 00 00 00
1507908910.708374,can0 08FF0303 [8] 00 00 00 00 00 00 00 00
1507908910.719831,can0 08FF0001 [8] 00 00 00 00 00 00 00 00
1507908910.72079,can0 0CF00203 [8] 00 00 00 00 00 00 00 00
1507908910.721656,can0 08FF0303 [8] 00 00 00 00 00 00 00 00
1507908910.722507,can0 18F00503 [8] 00 00 00 00 00 00 00 00
1507908910.727564,can0 08FF0001 [8] 00 00 00 00 00 00 00 00
1507908910.728332,can0 0CF00203 [8] 00 00 00 00 00 00 00 00
1507908910.728996,can0 08FF0303 [8] 00 00 00 00 00 00 00 00
1507908910.736455,can0 08FF0001 [8] 00 00 00 00 00 00 00 00
1507908910.737469,can0 0CF00203 [8] 00 00 00 00 00 00 00 00
1507908910.738173,can0 08FF0303 [8] 00 00 00 00 00 00 00 00
1507908910.746408,can0 08FF0001 [8] 00 00 00 00 00 00 00 00
1507908910.747411,can0 0CF00203 [8] 00 00 00 00 00 00 00 00
1507908910.748099,can0 08FF0303 [8] 00 00 00 00 00 00 00 00
1507908910.757539,can0 08FF0001 [8] 00 00 00 00 00 00 00 00
1507908910.758319,can0 0CF00203 [8] 00 00 00 00 00 00 00 00
1507908910.759104,can0 08FF0303 [8] 00 00 00 00 00 00 00 00
1507908910.76641,can0 08FF0001 [8] 00 00 00 00 00 00 00 00
1507908910.767285,can0 0CF00203 [8] 00 00 00 00 00 00 00 00
1507908910.767961,can0 08FF0303 [8] 00 00 00 00 00 00 00 00
1507908910.777469,can0 08FF0001 [8] 00 00 00 00 00 00 00 00
1507908910.778308,can0 0CF00203 [8] 00 00 00 00 00 00 00 00
1507908910.778992,can0 08FF0303 [8] 00 00 00 00 00 00 00 00
1507908910.786379,can0 08FF0001 [8] 00 00 00 00 00 00 00 00
1507908910.787319,can0 0CF00203 [8] 00 00 00 00 00 00 00 00
1507908910.788095,can0 08FF0303 [8] 00 00 00 00 00 00 00 00
1507908910.797596,can0 08FF0001 [8] 00 00 00 00 00 00 00 00
1507908910.798398,can0 0CF00203 [8] 00 00 00 00 00 00 00 00
1507908910.799076,can0 08FF0303 [8] 00 00 00 00 00 00 00 00
1507908910.806417,can0 08FF0001 [8] 00 00 00 00 00 00 00 00
1507908910.807443,can0 0CF00203 [8] 00 00 00 00 00 00 00 00
1507908910.808169,can0 08FF0303 [8] 00 00 00 00 00 00 00 00
1507908910.821402,can0 08FF0001 [8] 00 00 00 00 00 00 00 00
1507908910.822286,can0 0CF00203 [8] 00 00 00 00 00 00 00 00
1507908910.82322,can0 08FF0303 [8] 00 00 00 00 00 00 00 00
1507908910.823982,can0 18F00503 [8] 00 00 00 00 00 00 00 00
1507908910.829134,can0 08FF0001 [8] 00 00 00 00 00 00 00 00
1507908910.829894,can0 0CF00203 [8] 00 00 00 00 00 00 00 00
1507908910.830566,can0 08FF0303 [8] 00 00 00 00 00 00 00 00
1507908910.836459,can0 08FF0001 [8] 00 00 00 00 00 00 00 00
1507908910.83748,can0 0CF00203 [8] 00 00 00 00 00 00 00 00
1507908910.838174,can0 08FF0303 [8] 00 00 00 00 00 00 00 00
1507908910.846461,can0 08FF0001 [8] 00 00 00 00 00 00 00 00
1507908910.847416,can0 0CF00203 [8] 00 00 00 00 00 00 00 00
1507908910.848103,can0 08FF0303 [8] 00 00 00 00 00 00 00 00
1507908910.857474,can0 08FF0001 [8] 00 00 00 00 00 00 00 00
1507908910.858313,can0 0CF00203 [8] 00 00 00 00 00 00 00 00
1507908910.859008,can0 08FF0303 [8] 00 00 00 00 00 00 00 00
1507908910.866367,can0 08FF0001 [8] 00 00 00 00 00 00 00 00
1507908910.867231,can0 0CF00203 [8] 00 00 00 00 00 00 00 00
1507908910.867971,can0 08FF0303 [8] 00 00 00 00 00 00 00 00
1507908910.877495,can0 08FF0001 [8] 00 00 00 00 00 00 00 00
1507908910.878352,can0 0CF00203 [8] 00 00 00 00 00 00 00 00
1507908910.879038,can0 08FF0303 [8] 00 00 00 00 00 00 00 00
1507908910.886365,can0 08FF0001 [8] 00 00 00 00 00 00 00 00
1507908910.887152,can0 0CF00203 [8] 00 00 00 00 00 00 00 00
1507908910.887981,can0 08FF0303 [8] 00 00 00 00 00 00 00 00
1507908910.897529,can0 08FF0001 [8] 00 00 00 00 00 00 00 00
1507908910.898289,can0 0CF00203 [8] 00 00 00 00 00 00 00 00
1507908910.898953,can0 08FF0303 [8] 00 00 00 00 00 00 00 00
1507908910.906406,can0 08FF0001 [8] 00 00 00 00 00 00 00 00
1507908910.711924,can1 18FEBF0B [8] 00 00 7D 7D FE FE FF FF
1507908910.716422,can1 0CFE6E0B [8] 00 00 00 00 00 00 00 00
1507908910.717417,can1 18F00131 [8] 00 00 00 00 00 00 00 00
1507908910.718385,can1 18F0010B [8] 00 00 00 00 00 00 00 00
1507908910.719122,can1 18FEF117 [8] 00 00 00 00 00 00 00 00
