1507932073.760273,can0 08FF0001 [8] 00 00 00 00 00 00 00 00
1507932073.778363,can0 0CF00203 [8] 00 00 00 00 00 00 00 00
1507932073.786317,can0 08FF0303 [8] 00 00 00 00 00 00 00 00
1507932073.788249,can0 08FF0001 [8] 00 00 00 00 00 00 00 00
1507932073.789599,can0 0CF00203 [8] 00 00 00 00 00 00 00 00
1507932073.816551,can0 08FF0303 [8] 00 00 00 00 00 00 00 00
1507932073.819676,can0 08FF0001 [8] 00 00 00 00 00 00 00 00
1507932073.820548,can0 0CF00203 [8] 00 00 00 00 00 00 00 00
1507932073.821181,can0 08FF0303 [8] 00 00 00 00 00 00 00 00
1507932073.821734,can0 08FF0001 [8] 00 00 00 00 00 00 00 00
1507932073.822216,can0 0CF00203 [8] 00 00 00 00 00 00 00 00
1507932073.822629,can0 08FF0303 [8] 00 00 00 00 00 00 00 00
1507932073.832946,can0 08FF0001 [8] 00 00 00 00 00 00 00 00
1507932073.833686,can0 0CF00203 [8] 00 00 00 00 00 00 00 00
1507932073.834233,can0 08FF0303 [8] 00 00 00 00 00 00 00 00
1507932073.834795,can0 08FF0001 [8] 00 00 00 00 00 00 00 00
1507932073.83524,can0 0CF00203 [8] 00 00 00 00 00 00 00 00
1507932073.835654,can0 08FF0303 [8] 00 00 00 00 00 00 00 00
1507932073.83604,can0 08FF0001 [8] 00 00 00 00 00 00 00 00
1507932073.836413,can0 0CF00203 [8] 00 00 00 00 00 00 00 00
1507932073.844894,can0 08FF0303 [8] 00 00 00 00 00 00 00 00
1507932073.845435,can0 08FF0001 [8] 00 00 00 00 00 00 00 00
1507932073.845863,can0 0CF00203 [8] 00 00 00 00 00 00 00 00
1507932073.846258,can0 08FF0303 [8] 00 00 00 00 00 00 00 00
1507932073.846748,can0 08FF0001 [8] 00 00 00 00 00 00 00 00
1507932073.847147,can0 0CF00203 [8] 00 00 00 00 00 00 00 00
1507932073.847545,can0 08FF0303 [8] 00 00 00 00 00 00 00 00
1507932073.847923,can0 18F00503 [8] 00 00 00 00 00 00 00 00
1507932073.848296,can0 08FF0001 [8] 00 00 00 00 00 00 00 00
1507932073.856666,can0 0CF00203 [8] 00 00 00 00 00 00 00 00
1507932073.857137,can0 08FF0303 [8] 00 00 00 00 00 00 00 00
1507932073.857543,can0 08FF0001 [8] 00 00 00 00 00 00 00 00
1507932073.857934,can0 0CF00203 [8] 00 00 00 00 00 00 00 00
1507932073.858532,can0 08FF0303 [8] 00 00 00 00 00 00 00 00
1507932073.85897,can0 08FF0001 [8] 00 00 00 00 00 00 00 00
1507932073.859366,can0 0CF00203 [8] 00 00 00 00 00 00 00 00
1507932073.859759,can0 08FF0303 [8] 00 00 00 00 00 00 00 00
1507932073.864306,can0 08FF0001 [8] 00 00 00 00 00 00 00 00
1507932073.865094,can0 0CF00203 [8] 00 00 00 00 00 00 00 00
1507932073.865581,can0 08FF0303 [8] 00 00 00 00 00 00 00 00
1507932073.866081,can0 08FF0001 [8] 00 00 00 00 00 00 00 00
1507932073.866515,can0 0CF00203 [8] 00 00 00 00 00 00 00 00
1507932073.86691,can0 08FF0303 [8] 00 00 00 00 00 00 00 00
1507932073.874914,can0 08FF0001 [8] 00 00 00 00 00 00 00 00
1507932073.875529,can0 0CF00203 [8] 00 00 00 00 00 00 00 00
1507932073.876101,can0 08FF0303 [8] 00 00 00 00 00 00 00 00
1507932073.883855,can0 08FF0001 [8] 00 00 00 00 00 00 00 00
1507932073.88475,can0 0CF00203 [8] 00 00 00 00 00 00 00 00
1507932073.885241,can0 08FF0303 [8] 00 00 00 00 00 00 00 00
1507932073.894814,can0 08FF0001 [8] 00 00 00 00 00 00 00 00
1507932073.895521,can0 0CF00203 [8] 00 00 00 00 00 00 00 00
1507932073.896007,can0 08FF0303 [8] 00 00 00 00 00 00 00 00
1507932073.903789,can0 08FF0001 [8] 00 00 00 00 00 00 00 00
1507932073.904654,can0 0CF00203 [8] 00 00 00 00 00 00 00 00
1507932073.905236,can0 08FF0303 [8] 00 00 00 00 00 00 00 00
1507932073.917031,can0 08FF0001 [8] 00 00 00 00 00 00 00 00
1507932073.917658,can0 0CF00203 [8] 00 00 00 00 00 00 00 00
1507932073.918176,can0 08FF0303 [8] 00 00 00 00 00 00 00 00
1507932073.918707,can0 18F00503 [8] 00 00 00 00 00 00 00 00
1507932073.923632,can0 08FF0001 [8] 00 00 00 00 00 00 00 00
1507932073.924212,can0 0CF00203 [8] 00 00 00 00 00 00 00 00
1507932073.924771,can0 08FF0303 [8] 00 00 00 00 00 00 00 00
1507932073.933697,can0 08FF0001 [8] 00 00 00 00 00 00 00 00
1507932073.934356,can0 0CF00203 [8] 00 00 00 00 00 00 00 00
1507932073.934884,can0 08FF0303 [8] 00 00 00 00 00 00 00 00
1507932073.94368,can0 08FF0001 [8] 00 00 00 00 00 00 00 00
1507932073.944389,can0 0CF00203 [8] 00 00 00 00 00 00 00 00
1507932073.944948,can0 08FF0303 [8] 00 00 00 00 00 00 00 00
1507932073.95367,can0 08FF0001 [8] 00 00 00 00 00 00 00 00
1507932073.954324,can0 0CF00203 [8] 00 00 00 00 00 00 00 00
1507932073.954839,can0 08FF0303 [8] 00 00 00 00 00 00 00 00
1507932073.963677,can0 08FF0001 [8] 00 00 00 00 00 00 00 00
1507932073.964278,can0 0CF00203 [8] 00 00 00 00 00 00 00 00
1507932073.964787,can0 08FF0303 [8] 00 00 00 00 00 00 00 00
1507932073.974351,can0 08FF0001 [8] 00 00 00 00 00 00 00 00
1507932073.974934,can0 0CF00203 [8] 00 00 00 00 00 00 00 00
1507932073.975432,can0 08FF0303 [8] 00 00 00 00 00 00 00 00
1507932073.983624,can0 08FF0001 [8] 00 00 00 00 00 00 00 00
1507932073.984186,can0 0CF00203 [8] 00 00 00 00 00 00 00 00
1507932073.984767,can0 08FF0303 [8] 00 00 00 00 00 00 00 00
1507932073.99438,can0 08FF0001 [8] 00 00 00 00 00 00 00 00
1507932073.99502,can0 0CF00203 [8] 00 00 00 00 00 00 00 00
1507932073.995472,can0 08FF0303 [8] 00 00 00 00 00 00 00 00
1507932074.004892,can0 08FF0001 [8] 00 00 00 00 00 00 00 00
1507932074.00556,can0 0CF00203 [8] 00 00 00 00 00 00 00 00
1507932074.006023,can0 08FF0303 [8] 00 00 00 00 00 00 00 00
1507932074.01831,can0 08FF0001 [8] 00 00 00 00 00 00 00 00
1507932074.018942,can0 0CF00203 [8] 00 00 00 00 00 00 00 00
1507932074.019452,can0 08FF0303 [8] 00 00 00 00 00 00 00 00
1507932074.019936,can0 18F00503 [8] 00 00 00 00 00 00 00 00
1507932074.023646,can0 08FF0001 [8] 00 00 00 00 00 00 00 00
1507932074.02427,can0 0CF00203 [8] 00 00 00 00 00 00 00 00
1507932074.024782,can0 08FF0303 [8] 00 00 00 00 00 00 00 00
1507932074.033695,can0 08FF0001 [8] 00 00 00 00 00 00 00 00
1507932074.034344,can0 0CF00203 [8] 00 00 00 00 00 00 00 00
1507932074.034858,can0 08FF0303 [8] 00 00 00 00 00 00 00 00
1507932074.04371,can0 08FF0001 [8] 00 00 00 00 00 00 00 00
1507932074.044324,can0 0CF00203 [8] 00 00 00 00 00 00 00 00
1507932074.044827,can0 08FF0303 [8] 00 00 00 00 00 00 00 00
1507932074.05367,can0 08FF0001 [8] 00 00 00 00 00 00 00 00
1507932074.054261,can0 0CF00203 [8] 00 00 00 00 00 00 00 00
1507932074.054767,can0 08FF0303 [8] 00 00 00 00 00 00 00 00
1507932074.063654,can0 08FF0001 [8] 00 00 00 00 00 00 00 00
1507932074.064247,can0 0CF00203 [8] 00 00 00 00 00 00 00 00
1507932074.064743,can0 08FF0303 [8] 00 00 00 00 00 00 00 00
1507932074.074387,can0 08FF0001 [8] 00 00 00 00 00 00 00 00
1507932074.075041,can0 0CF00203 [8] 00 00 00 00 00 00 00 00
1507932074.075504,can0 08FF0303 [8] 00 00 00 00 00 00 00 00
1507932074.083624,can0 08FF0001 [8] 00 00 00 00 00 00 00 00
1507932074.084186,can0 0CF00203 [8] 00 00 00 00 00 00 00 00
1507932074.084802,can0 08FF0303 [8] 00 00 00 00 00 00 00 00
1507932074.094391,can0 08FF0001 [8] 00 00 00 00 00 00 00 00
1507932074.095039,can0 0CF00203 [8] 00 00 00 00 00 00 00 00
1507932074.095474,can0 08FF0303 [8] 00 00 00 00 00 00 00 00
1507932074.103612,can0 08FF0001 [8] 00 00 00 00 00 00 00 00
1507932074.104132,can0 0CF00203 [8] 00 00 00 00 00 00 00 00
1507932074.104774,can0 08FF0303 [8] 00 00 00 00 00 00 00 00
1507932074.118681,can0 08FF0001 [8] 00 00 00 00 00 00 00 00
1507932074.119624,can0 0CF00203 [8] 00 00 00 00 00 00 00 00
1507932074.120584,can0 08FF0303 [8] 00 00 00 00 00 00 00 00
1507932074.121333,can0 18F00503 [8] 00 00 00 00 00 00 00 00
1507932074.126127,can0 08FF0001 [8] 00 00 00 00 00 00 00 00
1507932074.126853,can0 0CF00203 [8] 00 00 00 00 00 00 00 00
1507932074.127478,can0 08FF0303 [8] 00 00 00 00 00 00 00 00
1507932074.133828,can0 08FF0001 [8] 00 00 00 00 00 00 00 00
1507932074.134765,can0 0CF00203 [8] 00 00 00 00 00 00 00 00
1507932074.135513,can0 08FF0303 [8] 00 00 00 00 00 00 00 00
1507932074.143766,can0 08FF0001 [8] 00 00 00 00 00 00 00 00
1507932074.144698,can0 0CF00203 [8] 00 00 00 00 00 00 00 00
1507932074.145449,can0 08FF0303 [8] 00 00 00 00 00 00 00 00
1507932074.153784,can0 08FF0001 [8] 00 00 00 00 00 00 00 00
1507932074.154703,can0 0CF00203 [8] 00 00 00 00 00 00 00 00
1507932074.155462,can0 08FF0303 [8] 00 00 00 00 00 00 00 00
1507932074.163773,can0 08FF0001 [8] 00 00 00 00 00 00 00 00
1507932074.164687,can0 0CF00203 [8] 00 00 00 00 00 00 00 00
1507932073.827119,can1 0CFE6E0B [8] 00 00 00 00 00 00 00 00
1507932073.829204,can1 0CFE6E0B [8] 00 00 00 00 00 00 00 00
1507932073.829886,can1 18F00131 [8] 00 00 00 00 00 00 00 00
1507932073.830338,can1 18F0010B [8] 00 00 00 00 00 00 00 00
1507932073.830908,can1 18FEF117 [8] 00 00 00 00 00 00 00 00
1507932073.831366,can1 18FEF128 [8] 00 00 00 00 00 00 00 00
1507932073.831825,can1 18FEF121 [8] 00 00 00 00 00 00 00 00
1507932073.832245,can1 18FEF131 [8] 00 00 00 00 00 00 00 00
1507932073.832647,can1 18E00017 [8] 00 00 00 00 00 00 00 00
1507932073.841561,can1 18E00019 [8] 00 00 00 00 00 00 00 00
1507932073.84223,can1 18E00021 [8] 00 00 00 00 00 00 00 00
1507932073.842803,can1 18E00028 [8] 00 00 00 00 00 00 00 00
1507932073.843255,can1 18E00031 [8] 00 00 00 00 00 00 00 00
1507932073.843763,can1 18FEF017 [8] 00 00 00 00 00 00 00 00
1507932073.844238,can1 18FEF021 [8] 00 00 00 00 00 00 00 00
1507932073.852862,can1 18FEF028 [8] 00 00 00 00 00 00 00 00
1507932073.853635,can1 18FEF031 [8] 00 00 00 00 00 00 00 00
1507932073.854271,can1 0CFE6E0B [8] 00 00 00 00 00 00 00 00
1507932073.854816,can1 18F0010B [8] CF FF F0 FF FF DC FF FF
1507932073.85524,can1 18FEBF0B [8] 00 00 7D 7D FE FE FF FF
1507932073.855636,can1 0CFE6E0B [8] 00 00 00 00 00 00 00 00
1507932073.873905,can1 0CFE6E0B [8] 00 00 00 00 00 00 00 00
1507932073.893819,can1 0CFE6E0B [8] 00 00 00 00 00 00 00 00
1507932073.913729,can1 0CFE6E0B [8] 00 00 00 00 00 00 00 00
1507932073.914475,can1 18F00131 [8] 00 00 00 00 00 00 00 00
1507932073.915235,can1 18F0010B [8] 00 00 00 00 00 00 00 00
1507932073.915772,can1 18FEF117 [8] 00 00 00 00 00 00 00 00
1507932073.916202,can1 18FEF128 [8] 00 00 00 00 00 00 00 00
1507932073.916665,can1 18FEF121 [8] 00 00 00 00 00 00 00 00
1507932073.919693,can1 18FEF131 [8] 00 00 00 00 00 00 00 00
1507932073.92023,can1 18E00017 [8] 00 00 00 00 00 00 00 00
1507932073.920784,can1 18E00019 [8] 00 00 00 00 00 00 00 00
1507932073.921282,can1 18E00021 [8] 00 00 00 00 00 00 00 00
1507932073.921751,can1 18E00028 [8] 00 00 00 00 00 00 00 00
1507932073.922199,can1 18E00031 [8] 00 00 00 00 00 00 00 00
1507932073.922649,can1 18FEF017 [8] 00 00 00 00 00 00 00 00
1507932073.923067,can1 18FEF021 [8] 00 00 00 00 00 00 00 00
1507932073.925284,can1 18FEF028 [8] 00 00 00 00 00 00 00 00
1507932073.925782,can1 18FEF031 [8] 00 00 00 00 00 00 00 00
1507932073.935405,can1 0CFE6E0B [8] 00 00 00 00 00 00 00 00
1507932073.942332,can1 18F0010B [8] CF FF F0 FF FF DC FF FF
1507932073.952319,can1 18FEBF0B [8] 00 00 7D 7D FE FE FF FF
1507932073.955352,can1 0CFE6E0B [8] 00 00 00 00 00 00 00 00
1507932073.973671,can1 0CFE6E0B [8] 00 00 00 00 00 00 00 00
1507932073.993683,can1 0CFE6E0B [8] 00 00 00 00 00 00 00 00
1507932074.01376,can1 0CFE6E0B [8] 00 00 00 00 00 00 00 00
1507932074.014677,can1 18F00131 [8] 00 00 00 00 00 00 00 00
1507932074.015286,can1 18F0010B [8] 00 00 00 00 00 00 00 00
1507932074.01579,can1 18FEF117 [8] 00 00 00 00 00 00 00 00
1507932074.016205,can1 18FEF128 [8] 00 00 00 00 00 00 00 00
1507932074.016746,can1 18FEF121 [8] 00 00 00 00 00 00 00 00
1507932074.017215,can1 18FEF131 [8] 00 00 00 00 00 00 00 00
1507932074.017671,can1 18E00017 [8] 00 00 00 00 00 00 00 00
1507932074.020555,can1 18E00019 [8] 00 00 00 00 00 00 00 00
1507932074.021135,can1 18E00021 [8] 00 00 00 00 00 00 00 00
1507932074.02169,can1 18E00028 [8] 00 00 00 00 00 00 00 00
1507932074.022221,can1 18E00031 [8] 00 00 00 00 00 00 00 00
1507932074.022678,can1 18FEF017 [8] 00 00 00 00 00 00 00 00
1507932074.023082,can1 18FEF021 [8] 00 00 00 00 00 00 00 00
1507932074.025304,can1 18FEF028 [8] 00 00 00 00 00 00 00 00
1507932074.025807,can1 18FEF031 [8] 00 00 00 00 00 00 00 00
1507932074.035366,can1 0CFE6E0B [8] 00 00 00 00 00 00 00 00
1507932074.042408,can1 18F0010B [8] CF FF F0 FF FF DC FF FF
1507932074.05244,can1 18FEBF0B [8] 00 00 7D 7D FE FE FF FF
1507932074.055276,can1 0CFE6E0B [8] 00 00 00 00 00 00 00 00
1507932074.073673,can1 0CFE6E0B [8] 00 00 00 00 00 00 00 00
1507932074.093688,can1 0CFE6E0B [8] 00 00 00 00 00 00 00 00
1507932074.113668,can1 0CFE6E0B [8] 00 00 00 00 00 00 00 00
1507932074.114469,can1 18F00131 [8] 00 00 00 00 00 00 00 00
1507932074.115072,can1 18F0010B [8] 00 00 00 00 00 00 00 00
1507932074.115608,can1 18FEF117 [8] 00 00 00 00 00 00 00 00
1507932074.117728,can1 18FEF128 [8] 00 00 00 00 00 00 00 00
1507932074.12269,can1 18FEF121 [8] 00 00 00 00 00 00 00 00
1507932074.123486,can1 18FEF131 [8] 00 00 00 00 00 00 00 00
1507932074.124315,can1 18E00017 [8] 00 00 00 00 00 00 00 00
1507932074.125061,can1 18E00019 [8] 00 00 00 00 00 00 00 00
1507932074.128113,can1 18E00021 [8] 00 00 00 00 00 00 00 00
1507932074.128851,can1 18E00028 [8] 00 00 00 00 00 00 00 00
1507932074.129524,can1 18E00031 [8] 00 00 00 00 00 00 00 00
1507932074.130262,can1 18FEF017 [8] 00 00 00 00 00 00 00 00
1507932074.130893,can1 18FEF021 [8] 00 00 00 00 00 00 00 00
1507932074.131502,can1 18FEF028 [8] 00 00 00 00 00 00 00 00
1507932074.132194,can1 18FEF031 [8] 00 00 00 00 00 00 00 00
1507932074.136294,can1 0CFE6E0B [8] 00 00 00 00 00 00 00 00
1507932074.142638,can1 18F0010B [8] CF FF F0 FF FF DC FF FF
1507932074.152685,can1 18FEBF0B [8] 00 00 7D 7D FE FE FF FF
1507932074.156228,can1 0CFE6E0B [8] 00 00 00 00 00 00 00 00
1507932074.173895,can1 0CFE6E0B [8] 00 00 00 00 00 00 00 00
1507932074.193841,can1 0CFE6E0B [8] 00 00 00 00 00 00 00 00
1507932074.213845,can1 0CFE6E0B [8] 00 00 00 00 00 00 00 00
1507932074.21487,can1 18F00131 [8] 00 00 00 00 00 00 00 00
1507932074.215846,can1 18F0010B [8] 00 00 00 00 00 00 00 00
1507932074.216599,can1 18FEF117 [8] 00 00 00 00 00 00 00 00
1507932074.217322,can1 18FEF128 [8] 00 00 00 00 00 00 00 00
1507932074.221821,can1 18FEF121 [8] 00 00 00 00 00 00 00 00
1507932074.222625,can1 18FEF131 [8] 00 00 00 00 00 00 00 00
1507932074.223276,can1 18E00017 [8] 00 00 00 00 00 00 00 00
1507932074.224203,can1 18E00019 [8] 00 00 00 00 00 00 00 00
1507932074.224941,can1 18E00021 [8] 00 00 00 00 00 00 00 00
1507932074.235536,can1 18E00028 [8] 00 00 00 00 00 00 00 00
1507932074.23631,can1 18E00031 [8] 00 00 00 00 00 00 00 00
1507932074.236978,can1 18FEF017 [8] 00 00 00 00 00 00 00 00
1507932074.243781,can1 18FEF021 [8] 00 00 00 00 00 00 00 00
1507932074.244628,can1 18FEF028 [8] 00 00 00 00 00 00 00 00
1507932074.25151,can1 18FEF031 [8] 00 00 00 00 00 00 00 00
1507932074.252323,can1 0CFE6E0B [8] 00 00 00 00 00 00 00 00
1507932074.26112,can1 18F0010B [8] CF FF F0 FF FF DC FF FF
1507932074.261849,can1 18FEBF0B [8] 00 00 7D 7D FE FE FF FF
1507932074.268467,can1 0CFE6E0B [8] 00 00 00 00 00 00 00 00
1507932074.273825,can1 0CFE6E0B [8] 00 00 00 00 00 00 00 00
1507932074.293847,can1 0CFE6E0B [8] 00 00 00 00 00 00 00 00
1507932074.313812,can1 0CFE6E0B [8] 00 00 00 00 00 00 00 00
1507932074.314902,can1 18F00131 [8] 00 00 00 00 00 00 00 00
1507932074.315903,can1 18F0010B [8] 00 00 00 00 00 00 00 00
1507932074.316658,can1 18FEF117 [8] 00 00 00 00 00 00 00 00
1507932074.323502,can1 18FEF128 [8] 00 00 00 00 00 00 00 00
1507932074.324434,can1 18FEF121 [8] 00 00 00 00 00 00 00 00
1507932074.343113,can1 18FEF131 [8] 00 00 00 00 00 00 00 00
1507932074.344133,can1 18E00017 [8] 00 00 00 00 00 00 00 00
1507932074.352973,can1 18E00019 [8] 00 00 00 00 00 00 00 00
1507932074.353859,can1 18E00021 [8] 00 00 00 00 00 00 00 00
1507932074.366526,can1 18E00028 [8] 00 00 00 00 00 00 00 00
1507932074.367268,can1 18E00031 [8] 00 00 00 00 00 00 00 00
1507932074.375896,can1 18FEF017 [8] 00 00 00 00 00 00 00 00
1507932074.376705,can1 18FEF021 [8] 00 00 00 00 00 00 00 00
1507932074.377377,can1 18FEF028 [8] 00 00 00 00 00 00 00 00
1507932074.38608,can1 18FEF031 [8] 00 00 00 00 00 00 00 00
1507932074.386842,can1 0CFE6E0B [8] 00 00 00 00 00 00 00 00
1507932074.38758,can1 18F0010B [8] CF FF F0 FF FF DC FF FF
1507932074.388241,can1 18FEBF0B [8] 00 00 7D 7D FE FE FF FF
1507932074.388869,can1 0CFE6E0B [8] 00 00 00 00 00 00 00 00
1507932074.397451,can1 0CFE6E0B [8] 00 00 00 00 00 00 00 00
1507932074.398246,can1 0CFE6E0B [8] 00 00 00 00 00 00 00 00
1507932074.41388,can1 0CFE6E0B [8] 00 00 00 00 00 00 00 00
1507932074.415041,can1 18F00131 [8] 00 00 00 00 00 00 00 00
1507932074.16631,can0 08FF0303 [8] 00 00 00 00 00 00 00 00
1507932074.175096,can0 08FF0001 [8] 00 00 00 00 00 00 00 00
1507932074.175964,can0 0CF00203 [8] 00 00 00 00 00 00 00 00
1507932074.176801,can0 08FF0303 [8] 00 00 00 00 00 00 00 00
1507932074.183779,can0 08FF0001 [8] 00 00 00 00 00 00 00 00
1507932074.184782,can0 0CF00203 [8] 00 00 00 00 00 00 00 00
1507932074.185464,can0 08FF0303 [8] 00 00 00 00 00 00 00 00
1507932074.194992,can0 08FF0001 [8] 00 00 00 00 00 00 00 00
1507932074.195745,can0 0CF00203 [8] 00 00 00 00 00 00 00 00
1507932074.196504,can0 08FF0303 [8] 00 00 00 00 00 00 00 00
1507932074.203729,can0 08FF0001 [8] 00 00 00 00 00 00 00 00
1507932074.20465,can0 0CF00203 [8] 00 00 00 00 00 00 00 00
1507932074.20531,can0 08FF0303 [8] 00 00 00 00 00 00 00 00
1507932074.217841,can0 08FF0001 [8] 00 00 00 00 00 00 00 00
1507932074.218752,can0 0CF00203 [8] 00 00 00 00 00 00 00 00
1507932074.219577,can0 08FF0303 [8] 00 00 00 00 00 00 00 00
1507932074.220333,can0 18F00503 [8] 00 00 00 00 00 00 00 00
1507932074.225612,can0 08FF0001 [8] 00 00 00 00 00 00 00 00
1507932074.229939,can0 0CF00203 [8] 00 00 00 00 00 00 00 00
1507932074.2307,can0 08FF0303 [8] 00 00 00 00 00 00 00 00
1507932074.237369,can0 08FF0001 [8] 00 00 00 00 00 00 00 00
1507932074.238119,can0 0CF00203 [8] 00 00 00 00 00 00 00 00
1507932074.238768,can0 08FF0303 [8] 00 00 00 00 00 00 00 00
1507932074.245472,can0 08FF0001 [8] 00 00 00 00 00 00 00 00
1507932074.246168,can0 0CF00203 [8] 00 00 00 00 00 00 00 00
1507932074.254753,can0 08FF0303 [8] 00 00 00 00 00 00 00 00
1507932074.25564,can0 08FF0001 [8] 00 00 00 00 00 00 00 00
1507932074.25633,can0 0CF00203 [8] 00 00 00 00 00 00 00 00
1507932074.263044,can0 08FF0303 [8] 00 00 00 00 00 00 00 00
1507932074.263879,can0 08FF0001 [8] 00 00 00 00 00 00 00 00
1507932074.269459,can0 0CF00203 [8] 00 00 00 00 00 00 00 00
1507932074.270182,can0 08FF0303 [8] 00 00 00 00 00 00 00 00
1507932074.27493,can0 08FF0001 [8] 00 00 00 00 00 00 00 00
1507932074.275681,can0 0CF00203 [8] 00 00 00 00 00 00 00 00
1507932074.276425,can0 08FF0303 [8] 00 00 00 00 00 00 00 00
1507932074.283734,can0 08FF0001 [8] 00 00 00 00 00 00 00 00
1507932074.284704,can0 0CF00203 [8] 00 00 00 00 00 00 00 00
1507932074.285377,can0 08FF0303 [8] 00 00 00 00 00 00 00 00
1507932074.294906,can0 08FF0001 [8] 00 00 00 00 00 00 00 00
1507932074.295735,can0 0CF00203 [8] 00 00 00 00 00 00 00 00
1507932074.296422,can0 08FF0303 [8] 00 00 00 00 00 00 00 00
1507932074.303764,can0 08FF0001 [8] 00 00 00 00 00 00 00 00
1507932074.304638,can0 0CF00203 [8] 00 00 00 00 00 00 00 00
1507932074.305304,can0 08FF0303 [8] 00 00 00 00 00 00 00 00
1507932074.321336,can0 08FF0001 [8] 00 00 00 00 00 00 00 00
1507932074.322299,can0 0CF00203 [8] 00 00 00 00 00 00 00 00
1507932074.33482,can0 08FF0303 [8] 00 00 00 00 00 00 00 00
1507932074.335805,can0 18F00503 [8] 00 00 00 00 00 00 00 00
1507932074.336535,can0 08FF0001 [8] 00 00 00 00 00 00 00 00
1507932074.351199,can0 0CF00203 [8] 00 00 00 00 00 00 00 00
1507932074.351918,can0 08FF0303 [8] 00 00 00 00 00 00 00 00
1507932074.360639,can0 08FF0001 [8] 00 00 00 00 00 00 00 00
1507932074.361432,can0 0CF00203 [8] 00 00 00 00 00 00 00 00
1507932074.374049,can0 08FF0303 [8] 00 00 00 00 00 00 00 00
1507932074.375027,can0 08FF0001 [8] 00 00 00 00 00 00 00 00
1507932074.381779,can0 0CF00203 [8] 00 00 00 00 00 00 00 00
1507932074.382738,can0 08FF0303 [8] 00 00 00 00 00 00 00 00
1507932074.38366,can0 08FF0001 [8] 00 00 00 00 00 00 00 00
1507932074.384468,can0 0CF00203 [8] 00 00 00 00 00 00 00 00
1507932074.385232,can0 08FF0303 [8] 00 00 00 00 00 00 00 00
1507932074.394223,can0 08FF0001 [8] 00 00 00 00 00 00 00 00
1507932074.395099,can0 0CF00203 [8] 00 00 00 00 00 00 00 00
1507932074.395891,can0 08FF0303 [8] 00 00 00 00 00 00 00 00
1507932074.396531,can0 08FF0001 [8] 00 00 00 00 00 00 00 00
1507932074.403232,can0 0CF00203 [8] 00 00 00 00 00 00 00 00
1507932074.404395,can0 08FF0303 [8] 00 00 00 00 00 00 00 00
1507932074.405449,can0 08FF0001 [8] 00 00 00 00 00 00 00 00
1507932074.406144,can0 0CF00203 [8] 00 00 00 00 00 00 00 00
1507932074.406782,can0 08FF0303 [8] 00 00 00 00 00 00 00 00
1507932074.411601,can0 08FF0001 [8] 00 00 00 00 00 00 00 00
1507932074.412323,can0 0CF00203 [8] 00 00 00 00 00 00 00 00
1507932074.413058,can0 08FF0303 [8] 00 00 00 00 00 00 00 00
1507932074.419513,can0 08FF0001 [8] 00 00 00 00 00 00 00 00
1507932074.420569,can0 0CF00203 [8] 00 00 00 00 00 00 00 00
1507932074.42148,can0 08FF0303 [8] 00 00 00 00 00 00 00 00
1507932074.422306,can0 08FF0001 [8] 00 00 00 00 00 00 00 00
1507932074.431058,can0 0CF00203 [8] 00 00 00 00 00 00 00 00
1507932074.431845,can0 08FF0303 [8] 00 00 00 00 00 00 00 00
1507932074.432607,can0 18F00503 [8] 00 00 00 00 00 00 00 00
1507932074.433261,can0 08FF0001 [8] 00 00 00 00 00 00 00 00
1507932074.434159,can0 0CF00203 [8] 00 00 00 00 00 00 00 00
1507932074.443173,can0 08FF0303 [8] 00 00 00 00 00 00 00 00
1507932074.444218,can0 08FF0001 [8] 00 00 00 00 00 00 00 00
1507932074.445025,can0 0CF00203 [8] 00 00 00 00 00 00 00 00
1507932074.445679,can0 08FF0303 [8] 00 00 00 00 00 00 00 00
1507932074.454449,can0 08FF0001 [8] 00 00 00 00 00 00 00 00
1507932074.455368,can0 0CF00203 [8] 00 00 00 00 00 00 00 00
1507932074.456148,can0 08FF0303 [8] 00 00 00 00 00 00 00 00
1507932074.456804,can0 08FF0001 [8] 00 00 00 00 00 00 00 00
1507932074.457441,can0 0CF00203 [8] 00 00 00 00 00 00 00 00
1507932074.464298,can0 08FF0303 [8] 00 00 00 00 00 00 00 00
1507932074.465194,can0 08FF0001 [8] 00 00 00 00 00 00 00 00
1507932074.465964,can0 0CF00203 [8] 00 00 00 00 00 00 00 00
1507932074.466621,can0 08FF0303 [8] 00 00 00 00 00 00 00 00
1507932074.475214,can0 08FF0001 [8] 00 00 00 00 00 00 00 00
1507932074.476136,can0 0CF00203 [8] 00 00 00 00 00 00 00 00
1507932074.476811,can0 08FF0303 [8] 00 00 00 00 00 00 00 00
1507932074.483777,can0 08FF0001 [8] 00 00 00 00 00 00 00 00
1507932074.484706,can0 0CF00203 [8] 00 00 00 00 00 00 00 00
1507932074.485478,can0 08FF0303 [8] 00 00 00 00 00 00 00 00
1507932074.494998,can0 08FF0001 [8] 00 00 00 00 00 00 00 00
1507932074.495768,can0 0CF00203 [8] 00 00 00 00 00 00 00 00
1507932074.496429,can0 08FF0303 [8] 00 00 00 00 00 00 00 00
1507932074.503744,can0 08FF0001 [8] 00 00 00 00 00 00 00 00
1507932074.50454,can0 0CF00203 [8] 00 00 00 00 00 00 00 00
1507932074.505335,can0 08FF0303 [8] 00 00 00 00 00 00 00 00
1507932074.518575,can0 08FF0001 [8] 00 00 00 00 00 00 00 00
1507932074.519521,can0 0CF00203 [8] 00 00 00 00 00 00 00 00
1507932074.520348,can0 08FF0303 [8] 00 00 00 00 00 00 00 00
1507932074.521175,can0 18F00503 [8] 00 00 00 00 00 00 00 00
1507932074.52639,can0 08FF0001 [8] 00 00 00 00 00 00 00 00
1507932074.527126,can0 0CF00203 [8] 00 00 00 00 00 00 00 00
1507932074.52778,can0 08FF0303 [8] 00 00 00 00 00 00 00 00
1507932074.533832,can0 08FF0001 [8] 00 00 00 00 00 00 00 00
1507932074.53483,can0 0CF00203 [8] 00 00 00 00 00 00 00 00
1507932074.535511,can0 08FF0303 [8] 00 00 00 00 00 00 00 00
1507932074.543809,can0 08FF0001 [8] 00 00 00 00 00 00 00 00
1507932074.544737,can0 0CF00203 [8] 00 00 00 00 00 00 00 00
1507932074.545413,can0 08FF0303 [8] 00 00 00 00 00 00 00 00
1507932074.555149,can0 08FF0001 [8] 00 00 00 00 00 00 00 00
1507932074.555978,can0 0CF00203 [8] 00 00 00 00 00 00 00 00
1507932074.556643,can0 08FF0303 [8] 00 00 00 00 00 00 00 00
1507932074.563751,can0 08FF0001 [8] 00 00 00 00 00 00 00 00
1507932074.564536,can0 0CF00203 [8] 00 00 00 00 00 00 00 00
1507932074.56534,can0 08FF0303 [8] 00 00 00 00 00 00 00 00
1507932074.575157,can0 08FF0001 [8] 00 00 00 00 00 00 00 00
1507932074.575973,can0 0CF00203 [8] 00 00 00 00 00 00 00 00
1507932074.576652,can0 08FF0303 [8] 00 00 00 00 00 00 00 00
1507932074.583783,can0 08FF0001 [8] 00 00 00 00 00 00 00 00
1507932074.584778,can0 0CF00203 [8] 00 00 00 00 00 00 00 00
1507932074.585465,can0 08FF0303 [8] 00 00 00 00 00 00 00 00
1507932074.595022,can0 08FF0001 [8] 00 00 00 00 00 00 00 00
1507932074.59578,can0 0CF00203 [8] 00 00 00 00 00 00 00 00
1507932074.596505,can0 08FF0303 [8] 00 00 00 00 00 00 00 00
1507932074.603761,can0 08FF0001 [8] 00 00 00 00 00 00 00 00
1507932074.422748,can1 18F0010B [8] 00 00 00 00 00 00 00 00
1507932074.423671,can1 18FEF117 [8] 00 00 00 00 00 00 00 00
1507932074.424475,can1 18FEF128 [8] 00 00 00 00 00 00 00 00
1507932074.42538,can1 18FEF121 [8] 00 00 00 00 00 00 00 00
1507932074.426137,can1 18FEF131 [8] 00 00 00 00 00 00 00 00
