1508186729.755193,can0 08FF0001 [8] 00 00 00 00 00 00 00 00
1508186729.768161,can0 0CF00203 [8] 00 00 00 00 00 00 00 00
1508186729.7869,can0 08FF0303 [8] 00 00 00 00 00 00 00 00
1508186729.788859,can0 08FF0001 [8] 00 00 00 00 00 00 00 00
1508186729.798519,can0 0CF00203 [8] 00 00 00 00 00 00 00 00
1508186729.800232,can0 08FF0303 [8] 00 00 00 00 00 00 00 00
1508186729.809603,can0 08FF0001 [8] 00 00 00 00 00 00 00 00
1508186729.811113,can0 0CF00203 [8] 00 00 00 00 00 00 00 00
1508186729.812676,can0 08FF0303 [8] 00 00 00 00 00 00 00 00
1508186729.820914,can0 18F00503 [8] 00 00 00 00 00 00 00 00
1508186729.822466,can0 08FF0001 [8] 00 00 00 00 00 00 00 00
1508186729.824851,can0 0CF00203 [8] 00 00 00 00 00 00 00 00
1508186729.826342,can0 08FF0303 [8] 00 00 00 00 00 00 00 00
1508186729.828128,can0 08FF0001 [8] 00 00 00 00 00 00 00 00
1508186729.829489,can0 0CF00203 [8] 00 00 00 00 00 00 00 00
1508186729.830711,can0 08FF0303 [8] 00 00 00 00 00 00 00 00
1508186729.832016,can0 08FF0001 [8] 00 00 00 00 00 00 00 00
1508186729.833307,can0 0CF00203 [8] 00 00 00 00 00 00 00 00
1508186729.834498,can0 08FF0303 [8] 00 00 00 00 00 00 00 00
1508186729.835798,can0 08FF0001 [8] 00 00 00 00 00 00 00 00
1508186729.841238,can0 0CF00203 [8] 00 00 00 00 00 00 00 00
1508186729.843203,can0 08FF0303 [8] 00 00 00 00 00 00 00 00
1508186729.848852,can0 08FF0001 [8] 00 00 00 00 00 00 00 00
1508186729.850229,can0 0CF00203 [8] 00 00 00 00 00 00 00 00
1508186729.851632,can0 08FF0303 [8] 00 00 00 00 00 00 00 00
1508186729.857228,can0 08FF0001 [8] 00 00 00 00 00 00 00 00
1508186729.858924,can0 0CF00203 [8] 00 00 00 00 00 00 00 00
1508186729.86448,can0 08FF0303 [8] 00 00 00 00 00 00 00 00
1508186729.865829,can0 08FF0001 [8] 00 00 00 00 00 00 00 00
1508186729.867492,can0 0CF00203 [8] 00 00 00 00 00 00 00 00
1508186729.879387,can0 08FF0303 [8] 00 00 00 00 00 00 00 00
1508186729.881022,can0 08FF0001 [8] 00 00 00 00 00 00 00 00
1508186729.890466,can0 0CF00203 [8] 00 00 00 00 00 00 00 00
1508186729.892004,can0 08FF0303 [8] 00 00 00 00 00 00 00 00
1508186729.901258,can0 08FF0001 [8] 00 00 00 00 00 00 00 00
1508186729.902736,can0 0CF00203 [8] 00 00 00 00 00 00 00 00
1508186729.904166,can0 08FF0303 [8] 00 00 00 00 00 00 00 00
1508186729.913479,can0 08FF0001 [8] 00 00 00 00 00 00 00 00
1508186729.91502,can0 0CF00203 [8] 00 00 00 00 00 00 00 00
1508186729.916307,can0 08FF0303 [8] 00 00 00 00 00 00 00 00
1508186729.925554,can0 18F00503 [8] 00 00 00 00 00 00 00 00
1508186729.927187,can0 08FF0001 [8] 00 00 00 00 00 00 00 00
1508186729.932945,can0 0CF00203 [8] 00 00 00 00 00 00 00 00
1508186729.934604,can0 08FF0303 [8] 00 00 00 00 00 00 00 00
1508186729.935925,can0 08FF0001 [8] 00 00 00 00 00 00 00 00
1508186729.949302,can0 0CF00203 [8] 00 00 00 00 00 00 00 00
1508186729.950779,can0 08FF0303 [8] 00 00 00 00 00 00 00 00
1508186729.960082,can0 08FF0001 [8] 00 00 00 00 00 00 00 00
1508186729.961784,can0 0CF00203 [8] 00 00 00 00 00 00 00 00
1508186729.96312,can0 08FF0303 [8] 00 00 00 00 00 00 00 00
1508186729.972474,can0 08FF0001 [8] 00 00 00 00 00 00 00 00
1508186729.981934,can0 0CF00203 [8] 00 00 00 00 00 00 00 00
1508186729.983449,can0 08FF0303 [8] 00 00 00 00 00 00 00 00
1508186729.984742,can0 08FF0001 [8] 00 00 00 00 00 00 00 00
1508186729.994306,can0 0CF00203 [8] 00 00 00 00 00 00 00 00
1508186729.995871,can0 08FF0303 [8] 00 00 00 00 00 00 00 00
1508186730.005321,can0 08FF0001 [8] 00 00 00 00 00 00 00 00
1508186730.007117,can0 0CF00203 [8] 00 00 00 00 00 00 00 00
1508186730.019999,can0 08FF0303 [8] 00 00 00 00 00 00 00 00
1508186730.02074,can0 08FF0001 [8] 00 00 00 00 00 00 00 00
1508186730.02122,can0 0CF00203 [8] 00 00 00 00 00 00 00 00
1508186730.02164,can0 08FF0303 [8] 00 00 00 00 00 00 00 00
1508186730.022034,can0 08FF0001 [8] 00 00 00 00 00 00 00 00
1508186730.029672,can0 0CF00203 [8] 00 00 00 00 00 00 00 00
1508186730.030278,can0 08FF0303 [8] 00 00 00 00 00 00 00 00
1508186730.030726,can0 08FF0001 [8] 00 00 00 00 00 00 00 00
1508186730.031129,can0 0CF00203 [8] 00 00 00 00 00 00 00 00
1508186730.031516,can0 08FF0303 [8] 00 00 00 00 00 00 00 00
1508186730.031898,can0 08FF0001 [8] 00 00 00 00 00 00 00 00
1508186730.032377,can0 0CF00203 [8] 00 00 00 00 00 00 00 00
1508186730.032781,can0 08FF0303 [8] 00 00 00 00 00 00 00 00
1508186730.033318,can0 18F00503 [8] 00 00 00 00 00 00 00 00
1508186730.033736,can0 08FF0001 [8] 00 00 00 00 00 00 00 00
1508186730.040322,can0 0CF00203 [8] 00 00 00 00 00 00 00 00
1508186730.040904,can0 08FF0303 [8] 00 00 00 00 00 00 00 00
1508186730.041411,can0 08FF0001 [8] 00 00 00 00 00 00 00 00
1508186730.041912,can0 0CF00203 [8] 00 00 00 00 00 00 00 00
1508186730.042402,can0 08FF0303 [8] 00 00 00 00 00 00 00 00
1508186730.042876,can0 08FF0001 [8] 00 00 00 00 00 00 00 00
1508186730.043336,can0 0CF00203 [8] 00 00 00 00 00 00 00 00
1508186730.053756,can0 08FF0303 [8] 00 00 00 00 00 00 00 00
1508186730.054497,can0 08FF0001 [8] 00 00 00 00 00 00 00 00
1508186730.054994,can0 0CF00203 [8] 00 00 00 00 00 00 00 00
1508186730.055518,can0 08FF0303 [8] 00 00 00 00 00 00 00 00
1508186730.055965,can0 08FF0001 [8] 00 00 00 00 00 00 00 00
1508186730.056378,can0 0CF00203 [8] 00 00 00 00 00 00 00 00
1508186730.056917,can0 08FF0303 [8] 00 00 00 00 00 00 00 00
1508186730.064192,can0 08FF0001 [8] 00 00 00 00 00 00 00 00
1508186730.064797,can0 0CF00203 [8] 00 00 00 00 00 00 00 00
1508186730.065359,can0 08FF0303 [8] 00 00 00 00 00 00 00 00
1508186730.06582,can0 08FF0001 [8] 00 00 00 00 00 00 00 00
1508186730.066238,can0 0CF00203 [8] 00 00 00 00 00 00 00 00
1508186730.066635,can0 08FF0303 [8] 00 00 00 00 00 00 00 00
1508186730.072431,can0 08FF0001 [8] 00 00 00 00 00 00 00 00
1508186730.073145,can0 0CF00203 [8] 00 00 00 00 00 00 00 00
1508186730.07365,can0 08FF0303 [8] 00 00 00 00 00 00 00 00
1508186730.074083,can0 08FF0001 [8] 00 00 00 00 00 00 00 00
1508186730.074487,can0 0CF00203 [8] 00 00 00 00 00 00 00 00
1508186730.074942,can0 08FF0303 [8] 00 00 00 00 00 00 00 00
1508186730.075367,can0 08FF0001 [8] 00 00 00 00 00 00 00 00
1508186730.075775,can0 0CF00203 [8] 00 00 00 00 00 00 00 00
1508186730.076155,can0 08FF0303 [8] 00 00 00 00 00 00 00 00
1508186730.076532,can0 18F00503 [8] 00 00 00 00 00 00 00 00
1508186730.078605,can0 08FF0001 [8] 00 00 00 00 00 00 00 00
1508186730.07925,can0 0CF00203 [8] 00 00 00 00 00 00 00 00
1508186730.079708,can0 08FF0303 [8] 00 00 00 00 00 00 00 00
1508186730.080125,can0 08FF0001 [8] 00 00 00 00 00 00 00 00
1508186730.080605,can0 0CF00203 [8] 00 00 00 00 00 00 00 00
1508186730.081116,can0 08FF0303 [8] 00 00 00 00 00 00 00 00
1508186730.081541,can0 08FF0001 [8] 00 00 00 00 00 00 00 00
1508186730.081944,can0 0CF00203 [8] 00 00 00 00 00 00 00 00
1508186730.082333,can0 08FF0303 [8] 00 00 00 00 00 00 00 00
1508186730.082775,can0 08FF0001 [8] 00 00 00 00 00 00 00 00
1508186730.08319,can0 0CF00203 [8] 00 00 00 00 00 00 00 00
1508186730.083584,can0 08FF0303 [8] 00 00 00 00 00 00 00 00
1508186730.086964,can0 08FF0001 [8] 00 00 00 00 00 00 00 00
1508186730.087512,can0 0CF00203 [8] 00 00 00 00 00 00 00 00
1508186730.088079,can0 08FF0303 [8] 00 00 00 00 00 00 00 00
1508186730.097765,can0 08FF0001 [8] 00 00 00 00 00 00 00 00
1508186730.098439,can0 0CF00203 [8] 00 00 00 00 00 00 00 00
1508186730.098908,can0 08FF0303 [8] 00 00 00 00 00 00 00 00
1508186730.106929,can0 08FF0001 [8] 00 00 00 00 00 00 00 00
1508186730.107456,can0 0CF00203 [8] 00 00 00 00 00 00 00 00
1508186730.108114,can0 08FF0303 [8] 00 00 00 00 00 00 00 00
1508186730.11775,can0 08FF0001 [8] 00 00 00 00 00 00 00 00
1508186730.118404,can0 0CF00203 [8] 00 00 00 00 00 00 00 00
1508186730.118857,can0 08FF0303 [8] 00 00 00 00 00 00 00 00
1508186730.126941,can0 08FF0001 [8] 00 00 00 00 00 00 00 00
1508186730.127467,can0 0CF00203 [8] 00 00 00 00 00 00 00 00
1508186730.1281,can0 08FF0303 [8] 00 00 00 00 00 00 00 00
1508186730.140454,can0 08FF0001 [8] 00 00 00 00 00 00 00 00
1508186730.141063,can0 0CF00203 [8] 00 00 00 00 00 00 00 00
1508186730.141646,can0 08FF0303 [8] 00 00 00 00 00 00 00 00
1508186730.142142,can0 18F00503 [8] 00 00 00 00 00 00 00 00
1508186730.146961,can0 08FF0001 [8] 00 00 00 00 00 00 00 00
1508186729.78564,can1 18FEBF0B [8] 00 00 7D 7D FE FE FF FF
1508186729.806433,can1 0CFE6E0B [8] 00 00 00 00 00 00 00 00
1508186729.808772,can1 0CFE6E0B [8] 00 00 00 00 00 00 00 00
1508186729.818637,can1 0CFE6E0B [8] 00 00 00 00 00 00 00 00
1508186729.837642,can1 0CFE6E0B [8] 00 00 00 00 00 00 00 00
1508186729.839786,can1 18F00131 [8] 00 00 00 00 00 00 00 00
1508186729.845524,can1 18F0010B [8] 00 00 00 00 00 00 00 00
1508186729.847118,can1 18FEF117 [8] 00 00 00 00 00 00 00 00
1508186729.852855,can1 18FEF128 [8] 00 00 00 00 00 00 00 00
1508186729.854301,can1 18FEF121 [8] 00 00 00 00 00 00 00 00
1508186729.855562,can1 18FEF131 [8] 00 00 00 00 00 00 00 00
1508186729.861095,can1 18E00017 [8] 00 00 00 00 00 00 00 00
1508186729.862574,can1 18E00019 [8] 00 00 00 00 00 00 00 00
1508186729.863825,can1 18E00021 [8] 00 00 00 00 00 00 00 00
1508186729.86933,can1 18E00028 [8] 00 00 00 00 00 00 00 00
1508186729.871263,can1 18E00031 [8] 00 00 00 00 00 00 00 00
1508186729.872729,can1 18FEF017 [8] 00 00 00 00 00 00 00 00
1508186729.885995,can1 18FEF021 [8] 00 00 00 00 00 00 00 00
1508186729.888224,can1 18FEF028 [8] 00 00 00 00 00 00 00 00
1508186729.898063,can1 18FEF031 [8] 00 00 00 00 00 00 00 00
1508186729.899801,can1 0CFE6E0B [8] 00 00 00 00 00 00 00 00
1508186729.909151,can1 18F0010B [8] CF FF F0 FF FF DC FF FF
1508186729.910772,can1 18FEBF0B [8] 00 00 7D 7D FE FE FF FF
1508186729.912265,can1 0CFE6E0B [8] 00 00 00 00 00 00 00 00
1508186729.921754,can1 0CFE6E0B [8] 00 00 00 00 00 00 00 00
1508186729.923333,can1 0CFE6E0B [8] 00 00 00 00 00 00 00 00
1508186729.937684,can1 0CFE6E0B [8] 00 00 00 00 00 00 00 00
1508186729.939905,can1 18F00131 [8] 00 00 00 00 00 00 00 00
1508186729.945897,can1 18F0010B [8] 00 00 00 00 00 00 00 00
1508186729.947652,can1 18FEF117 [8] 00 00 00 00 00 00 00 00
1508186729.957811,can1 18FEF128 [8] 00 00 00 00 00 00 00 00
1508186729.959337,can1 18FEF121 [8] 00 00 00 00 00 00 00 00
1508186729.969035,can1 18FEF131 [8] 00 00 00 00 00 00 00 00
1508186729.977506,can1 18E00017 [8] 00 00 00 00 00 00 00 00
1508186729.979359,can1 18E00019 [8] 00 00 00 00 00 00 00 00
1508186729.980698,can1 18E00021 [8] 00 00 00 00 00 00 00 00
1508186729.986109,can1 18E00028 [8] 00 00 00 00 00 00 00 00
1508186729.987823,can1 18E00031 [8] 00 00 00 00 00 00 00 00
1508186730.001196,can1 18FEF017 [8] 00 00 00 00 00 00 00 00
1508186730.002866,can1 18FEF021 [8] 00 00 00 00 00 00 00 00
1508186730.004191,can1 18FEF028 [8] 00 00 00 00 00 00 00 00
1508186730.013696,can1 18FEF031 [8] 00 00 00 00 00 00 00 00
1508186730.015257,can1 0CFE6E0B [8] 00 00 00 00 00 00 00 00
1508186730.026323,can1 18F0010B [8] CF FF F0 FF FF DC FF FF
1508186730.027168,can1 18FEBF0B [8] 00 00 7D 7D FE FE FF FF
1508186730.027762,can1 0CFE6E0B [8] 00 00 00 00 00 00 00 00
1508186730.028377,can1 0CFE6E0B [8] 00 00 00 00 00 00 00 00
1508186730.028842,can1 0CFE6E0B [8] 00 00 00 00 00 00 00 00
1508186730.037128,can1 0CFE6E0B [8] 00 00 00 00 00 00 00 00
1508186730.0381,can1 18F00131 [8] 00 00 00 00 00 00 00 00
1508186730.038735,can1 18F0010B [8] 00 00 00 00 00 00 00 00
1508186730.03925,can1 18FEF117 [8] 00 00 00 00 00 00 00 00
1508186730.043771,can1 18FEF128 [8] 00 00 00 00 00 00 00 00
1508186730.044405,can1 18FEF121 [8] 00 00 00 00 00 00 00 00
1508186730.044936,can1 18FEF131 [8] 00 00 00 00 00 00 00 00
1508186730.045372,can1 18E00017 [8] 00 00 00 00 00 00 00 00
1508186730.045925,can1 18E00019 [8] 00 00 00 00 00 00 00 00
1508186730.046424,can1 18E00021 [8] 00 00 00 00 00 00 00 00
1508186730.046925,can1 18E00028 [8] 00 00 00 00 00 00 00 00
1508186730.047401,can1 18E00031 [8] 00 00 00 00 00 00 00 00
1508186730.057925,can1 18FEF017 [8] 00 00 00 00 00 00 00 00
1508186730.058477,can1 18FEF021 [8] 00 00 00 00 00 00 00 00
1508186730.058922,can1 18FEF028 [8] 00 00 00 00 00 00 00 00
1508186730.059404,can1 18FEF031 [8] 00 00 00 00 00 00 00 00
1508186730.05983,can1 0CFE6E0B [8] 00 00 00 00 00 00 00 00
1508186730.063481,can1 18F0010B [8] CF FF F0 FF FF DC FF FF
1508186730.071709,can1 18FEBF0B [8] 00 00 7D 7D FE FE FF FF
1508186730.077073,can1 0CFE6E0B [8] 00 00 00 00 00 00 00 00
1508186730.09702,can1 0CFE6E0B [8] 00 00 00 00 00 00 00 00
1508186730.117013,can1 0CFE6E0B [8] 00 00 00 00 00 00 00 00
1508186730.137004,can1 0CFE6E0B [8] 00 00 00 00 00 00 00 00
1508186730.137718,can1 18F00131 [8] 00 00 00 00 00 00 00 00
1508186730.138305,can1 18F0010B [8] 00 00 00 00 00 00 00 00
1508186730.138848,can1 18FEF117 [8] 00 00 00 00 00 00 00 00
1508186730.139316,can1 18FEF128 [8] 00 00 00 00 00 00 00 00
1508186730.139857,can1 18FEF121 [8] 00 00 00 00 00 00 00 00
1508186730.142715,can1 18FEF131 [8] 00 00 00 00 00 00 00 00
1508186730.143346,can1 18E00017 [8] 00 00 00 00 00 00 00 00
1508186730.143875,can1 18E00019 [8] 00 00 00 00 00 00 00 00
1508186730.144368,can1 18E00021 [8] 00 00 00 00 00 00 00 00
1508186730.144782,can1 18E00028 [8] 00 00 00 00 00 00 00 00
1508186730.145304,can1 18E00031 [8] 00 00 00 00 00 00 00 00
1508186730.145791,can1 18FEF017 [8] 00 00 00 00 00 00 00 00
1508186730.146203,can1 18FEF021 [8] 00 00 00 00 00 00 00 00
1508186730.146596,can1 18FEF028 [8] 00 00 00 00 00 00 00 00
1508186730.150012,can1 18FEF031 [8] 00 00 00 00 00 00 00 00
1508186730.158813,can1 0CFE6E0B [8] 00 00 00 00 00 00 00 00
1508186730.161618,can1 18F0010B [8] CF FF F0 FF FF DC FF FF
1508186730.171822,can1 18FEBF0B [8] 00 00 7D 7D FE FE FF FF
1508186730.176998,can1 0CFE6E0B [8] 00 00 00 00 00 00 00 00
1508186730.197043,can1 0CFE6E0B [8] 00 00 00 00 00 00 00 00
1508186730.217029,can1 0CFE6E0B [8] 00 00 00 00 00 00 00 00
1508186730.237055,can1 0CFE6E0B [8] 00 00 00 00 00 00 00 00
1508186730.237734,can1 18F00131 [8] 00 00 00 00 00 00 00 00
1508186730.238293,can1 18F0010B [8] 00 00 00 00 00 00 00 00
1508186730.238833,can1 18FEF117 [8] 00 00 00 00 00 00 00 00
1508186730.239397,can1 18FEF128 [8] 00 00 00 00 00 00 00 00
1508186730.239882,can1 18FEF121 [8] 00 00 00 00 00 00 00 00
1508186730.242692,can1 18FEF131 [8] 00 00 00 00 00 00 00 00
1508186730.243335,can1 18E00017 [8] 00 00 00 00 00 00 00 00
1508186730.243856,can1 18E00019 [8] 00 00 00 00 00 00 00 00
1508186730.244336,can1 18E00021 [8] 00 00 00 00 00 00 00 00
1508186730.244758,can1 18E00028 [8] 00 00 00 00 00 00 00 00
1508186730.245301,can1 18E00031 [8] 00 00 00 00 00 00 00 00
1508186730.245775,can1 18FEF017 [8] 00 00 00 00 00 00 00 00
1508186730.246181,can1 18FEF021 [8] 00 00 00 00 00 00 00 00
1508186730.246573,can1 18FEF028 [8] 00 00 00 00 00 00 00 00
1508186730.249024,can1 18FEF031 [8] 00 00 00 00 00 00 00 00
1508186730.25876,can1 0CFE6E0B [8] 00 00 00 00 00 00 00 00
1508186730.261755,can1 18F0010B [8] CF FF F0 FF FF DC FF FF
1508186730.271925,can1 18FEBF0B [8] 00 00 7D 7D FE FE FF FF
1508186730.27876,can1 0CFE6E0B [8] 00 00 00 00 00 00 00 00
1508186730.297014,can1 0CFE6E0B [8] 00 00 00 00 00 00 00 00
1508186730.317033,can1 0CFE6E0B [8] 00 00 00 00 00 00 00 00
1508186730.337169,can1 0CFE6E0B [8] 00 00 00 00 00 00 00 00
1508186730.338242,can1 18F00131 [8] 00 00 00 00 00 00 00 00
1508186730.33925,can1 18F0010B [8] 00 00 00 00 00 00 00 00
1508186730.340013,can1 18FEF117 [8] 00 00 00 00 00 00 00 00
1508186730.344486,can1 18FEF128 [8] 00 00 00 00 00 00 00 00
1508186730.345332,can1 18FEF121 [8] 00 00 00 00 00 00 00 00
1508186730.346087,can1 18FEF131 [8] 00 00 00 00 00 00 00 00
1508186730.346949,can1 18E00017 [8] 00 00 00 00 00 00 00 00
1508186730.347711,can1 18E00019 [8] 00 00 00 00 00 00 00 00
1508186730.350828,can1 18E00021 [8] 00 00 00 00 00 00 00 00
1508186730.351575,can1 18E00028 [8] 00 00 00 00 00 00 00 00
1508186730.352322,can1 18E00031 [8] 00 00 00 00 00 00 00 00
1508186730.35299,can1 18FEF017 [8] 00 00 00 00 00 00 00 00
1508186730.353632,can1 18FEF021 [8] 00 00 00 00 00 00 00 00
1508186730.354324,can1 18FEF028 [8] 00 00 00 00 00 00 00 00
1508186730.354963,can1 18FEF031 [8] 00 00 00 00 00 00 00 00
1508186730.35966,can1 0CFE6E0B [8] 00 00 00 00 00 00 00 00
1508186730.361978,can1 18F0010B [8] CF FF F0 FF FF DC FF FF
1508186730.372241,can1 18FEBF0B [8] 00 00 7D 7D FE FE FF FF
1508186730.379961,can1 0CFE6E0B [8] 00 00 00 00 00 00 00 00
1508186730.397409,can1 0CFE6E0B [8] 00 00 00 00 00 00 00 00
1508186730.148408,can0 0CF00203 [8] 00 00 00 00 00 00 00 00
1508186730.148999,can0 08FF0303 [8] 00 00 00 00 00 00 00 00
1508186730.157096,can0 08FF0001 [8] 00 00 00 00 00 00 00 00
1508186730.157728,can0 0CF00203 [8] 00 00 00 00 00 00 00 00
1508186730.15826,can0 08FF0303 [8] 00 00 00 00 00 00 00 00
1508186730.166987,can0 08FF0001 [8] 00 00 00 00 00 00 00 00
1508186730.167588,can0 0CF00203 [8] 00 00 00 00 00 00 00 00
1508186730.168087,can0 08FF0303 [8] 00 00 00 00 00 00 00 00
1508186730.177679,can0 08FF0001 [8] 00 00 00 00 00 00 00 00
1508186730.17832,can0 0CF00203 [8] 00 00 00 00 00 00 00 00
1508186730.178872,can0 08FF0303 [8] 00 00 00 00 00 00 00 00
1508186730.187017,can0 08FF0001 [8] 00 00 00 00 00 00 00 00
1508186730.187688,can0 0CF00203 [8] 00 00 00 00 00 00 00 00
1508186730.188291,can0 08FF0303 [8] 00 00 00 00 00 00 00 00
1508186730.197786,can0 08FF0001 [8] 00 00 00 00 00 00 00 00
1508186730.19846,can0 0CF00203 [8] 00 00 00 00 00 00 00 00
1508186730.198909,can0 08FF0303 [8] 00 00 00 00 00 00 00 00
1508186730.206952,can0 08FF0001 [8] 00 00 00 00 00 00 00 00
1508186730.207482,can0 0CF00203 [8] 00 00 00 00 00 00 00 00
1508186730.208067,can0 08FF0303 [8] 00 00 00 00 00 00 00 00
1508186730.217853,can0 08FF0001 [8] 00 00 00 00 00 00 00 00
1508186730.218474,can0 0CF00203 [8] 00 00 00 00 00 00 00 00
1508186730.218932,can0 08FF0303 [8] 00 00 00 00 00 00 00 00
1508186730.226957,can0 08FF0001 [8] 00 00 00 00 00 00 00 00
1508186730.227557,can0 0CF00203 [8] 00 00 00 00 00 00 00 00
1508186730.228062,can0 08FF0303 [8] 00 00 00 00 00 00 00 00
1508186730.240449,can0 08FF0001 [8] 00 00 00 00 00 00 00 00
1508186730.241105,can0 0CF00203 [8] 00 00 00 00 00 00 00 00
1508186730.241636,can0 08FF0303 [8] 00 00 00 00 00 00 00 00
1508186730.242113,can0 18F00503 [8] 00 00 00 00 00 00 00 00
1508186730.247013,can0 08FF0001 [8] 00 00 00 00 00 00 00 00
1508186730.247605,can0 0CF00203 [8] 00 00 00 00 00 00 00 00
1508186730.248112,can0 08FF0303 [8] 00 00 00 00 00 00 00 00
1508186730.257037,can0 08FF0001 [8] 00 00 00 00 00 00 00 00
1508186730.257653,can0 0CF00203 [8] 00 00 00 00 00 00 00 00
1508186730.258166,can0 08FF0303 [8] 00 00 00 00 00 00 00 00
1508186730.266986,can0 08FF0001 [8] 00 00 00 00 00 00 00 00
1508186730.267586,can0 0CF00203 [8] 00 00 00 00 00 00 00 00
1508186730.268089,can0 08FF0303 [8] 00 00 00 00 00 00 00 00
1508186730.277024,can0 08FF0001 [8] 00 00 00 00 00 00 00 00
1508186730.277639,can0 0CF00203 [8] 00 00 00 00 00 00 00 00
1508186730.278221,can0 08FF0303 [8] 00 00 00 00 00 00 00 00
1508186730.286995,can0 08FF0001 [8] 00 00 00 00 00 00 00 00
1508186730.287584,can0 0CF00203 [8] 00 00 00 00 00 00 00 00
1508186730.288165,can0 08FF0303 [8] 00 00 00 00 00 00 00 00
1508186730.297749,can0 08FF0001 [8] 00 00 00 00 00 00 00 00
1508186730.298331,can0 0CF00203 [8] 00 00 00 00 00 00 00 00
1508186730.298778,can0 08FF0303 [8] 00 00 00 00 00 00 00 00
1508186730.306952,can0 08FF0001 [8] 00 00 00 00 00 00 00 00
1508186730.307641,can0 0CF00203 [8] 00 00 00 00 00 00 00 00
1508186730.308173,can0 08FF0303 [8] 00 00 00 00 00 00 00 00
1508186730.317803,can0 08FF0001 [8] 00 00 00 00 00 00 00 00
1508186730.318401,can0 0CF00203 [8] 00 00 00 00 00 00 00 00
1508186730.318843,can0 08FF0303 [8] 00 00 00 00 00 00 00 00
1508186730.327133,can0 08FF0001 [8] 00 00 00 00 00 00 00 00
1508186730.328088,can0 0CF00203 [8] 00 00 00 00 00 00 00 00
1508186730.328773,can0 08FF0303 [8] 00 00 00 00 00 00 00 00
1508186730.340948,can0 08FF0001 [8] 00 00 00 00 00 00 00 00
1508186730.341795,can0 0CF00203 [8] 00 00 00 00 00 00 00 00
1508186730.342702,can0 08FF0303 [8] 00 00 00 00 00 00 00 00
1508186730.343455,can0 18F00503 [8] 00 00 00 00 00 00 00 00
1508186730.348661,can0 08FF0001 [8] 00 00 00 00 00 00 00 00
1508186730.349419,can0 0CF00203 [8] 00 00 00 00 00 00 00 00
1508186730.350078,can0 08FF0303 [8] 00 00 00 00 00 00 00 00
1508186730.357164,can0 08FF0001 [8] 00 00 00 00 00 00 00 00
1508186730.358178,can0 0CF00203 [8] 00 00 00 00 00 00 00 00
1508186730.358894,can0 08FF0303 [8] 00 00 00 00 00 00 00 00
1508186730.367107,can0 08FF0001 [8] 00 00 00 00 00 00 00 00
1508186730.368137,can0 0CF00203 [8] 00 00 00 00 00 00 00 00
1508186730.368832,can0 08FF0303 [8] 00 00 00 00 00 00 00 00
1508186730.377252,can0 08FF0001 [8] 00 00 00 00 00 00 00 00
1508186730.378417,can0 0CF00203 [8] 00 00 00 00 00 00 00 00
1508186730.379142,can0 08FF0303 [8] 00 00 00 00 00 00 00 00
1508186730.387159,can0 08FF0001 [8] 00 00 00 00 00 00 00 00
1508186730.388291,can0 0CF00203 [8] 00 00 00 00 00 00 00 00
1508186730.389016,can0 08FF0303 [8] 00 00 00 00 00 00 00 00
1508186730.399357,can0 08FF0001 [8] 00 00 00 00 00 00 00 00
1508186730.400265,can0 0CF00203 [8] 00 00 00 00 00 00 00 00
1508186730.400955,can0 08FF0303 [8] 00 00 00 00 00 00 00 00
1508186730.407211,can0 08FF0001 [8] 00 00 00 00 00 00 00 00
1508186730.408247,can0 0CF00203 [8] 00 00 00 00 00 00 00 00
1508186730.409046,can0 08FF0303 [8] 00 00 00 00 00 00 00 00
1508186730.418524,can0 08FF0001 [8] 00 00 00 00 00 00 00 00
1508186730.419464,can0 0CF00203 [8] 00 00 00 00 00 00 00 00
1508186730.420147,can0 08FF0303 [8] 00 00 00 00 00 00 00 00
1508186730.427162,can0 08FF0001 [8] 00 00 00 00 00 00 00 00
1508186730.428224,can0 0CF00203 [8] 00 00 00 00 00 00 00 00
1508186730.429049,can0 08FF0303 [8] 00 00 00 00 00 00 00 00
1508186730.440581,can0 08FF0001 [8] 00 00 00 00 00 00 00 00
1508186730.441596,can0 0CF00203 [8] 00 00 00 00 00 00 00 00
1508186730.442472,can0 08FF0303 [8] 00 00 00 00 00 00 00 00
1508186730.44331,can0 18F00503 [8] 00 00 00 00 00 00 00 00
1508186730.44711,can0 08FF0001 [8] 00 00 00 00 00 00 00 00
1508186730.44814,can0 0CF00203 [8] 00 00 00 00 00 00 00 00
1508186730.448851,can0 08FF0303 [8] 00 00 00 00 00 00 00 00
1508186730.45718,can0 08FF0001 [8] 00 00 00 00 00 00 00 00
1508186730.458224,can0 0CF00203 [8] 00 00 00 00 00 00 00 00
1508186730.458926,can0 08FF0303 [8] 00 00 00 00 00 00 00 00
1508186730.467109,can0 08FF0001 [8] 00 00 00 00 00 00 00 00
1508186730.468119,can0 0CF00203 [8] 00 00 00 00 00 00 00 00
1508186730.468805,can0 08FF0303 [8] 00 00 00 00 00 00 00 00
1508186730.477176,can0 08FF0001 [8] 00 00 00 00 00 00 00 00
1508186730.478191,can0 0CF00203 [8] 00 00 00 00 00 00 00 00
1508186730.478882,can0 08FF0303 [8] 00 00 00 00 00 00 00 00
1508186730.487173,can0 08FF0001 [8] 00 00 00 00 00 00 00 00
1508186730.488106,can0 0CF00203 [8] 00 00 00 00 00 00 00 00
1508186730.488785,can0 08FF0303 [8] 00 00 00 00 00 00 00 00
1508186730.498217,can0 08FF0001 [8] 00 00 00 00 00 00 00 00
1508186730.499048,can0 0CF00203 [8] 00 00 00 00 00 00 00 00
1508186730.499742,can0 08FF0303 [8] 00 00 00 00 00 00 00 00
1508186730.507066,can0 08FF0001 [8] 00 00 00 00 00 00 00 00
1508186730.507842,can0 0CF00203 [8] 00 00 00 00 00 00 00 00
1508186730.508645,can0 08FF0303 [8] 00 00 00 00 00 00 00 00
1508186730.51819,can0 08FF0001 [8] 00 00 00 00 00 00 00 00
1508186730.519054,can0 0CF00203 [8] 00 00 00 00 00 00 00 00
1508186730.51972,can0 08FF0303 [8] 00 00 00 00 00 00 00 00
1508186730.527057,can0 08FF0001 [8] 00 00 00 00 00 00 00 00
1508186730.527859,can0 0CF00203 [8] 00 00 00 00 00 00 00 00
1508186730.528704,can0 08FF0303 [8] 00 00 00 00 00 00 00 00
1508186730.542097,can0 08FF0001 [8] 00 00 00 00 00 00 00 00
1508186730.542952,can0 0CF00203 [8] 00 00 00 00 00 00 00 00
1508186730.543875,can0 08FF0303 [8] 00 00 00 00 00 00 00 00
1508186730.544636,can0 18F00503 [8] 00 00 00 00 00 00 00 00
1508186730.549832,can0 08FF0001 [8] 00 00 00 00 00 00 00 00
1508186730.550571,can0 0CF00203 [8] 00 00 00 00 00 00 00 00
1508186730.551234,can0 08FF0303 [8] 00 00 00 00 00 00 00 00
1508186730.557177,can0 08FF0001 [8] 00 00 00 00 00 00 00 00
1508186730.558183,can0 0CF00203 [8] 00 00 00 00 00 00 00 00
1508186730.558875,can0 08FF0303 [8] 00 00 00 00 00 00 00 00
1508186730.567187,can0 08FF0001 [8] 00 00 00 00 00 00 00 00
1508186730.568127,can0 0CF00203 [8] 00 00 00 00 00 00 00 00
1508186730.568807,can0 08FF0303 [8] 00 00 00 00 00 00 00 00
1508186730.57716,can0 08FF0001 [8] 00 00 00 00 00 00 00 00
1508186730.578109,can0 0CF00203 [8] 00 00 00 00 00 00 00 00
1508186730.578852,can0 08FF0303 [8] 00 00 00 00 00 00 00 00
1508186730.587173,can0 08FF0001 [8] 00 00 00 00 00 00 00 00
1508186730.588166,can0 0CF00203 [8] 00 00 00 00 00 00 00 00
1508186730.588944,can0 08FF0303 [8] 00 00 00 00 00 00 00 00
1508186730.598223,can0 08FF0001 [8] 00 00 00 00 00 00 00 00
1508186730.599095,can0 0CF00203 [8] 00 00 00 00 00 00 00 00
