1508186566.363735,can0 08FF0001 [8] 00 00 00 00 00 00 00 00
1508186566.38219,can0 0CF00203 [8] 00 00 00 00 00 00 00 00
1508186566.392158,can0 08FF0303 [8] 00 00 00 00 00 00 00 00
1508186566.393914,can0 08FF0001 [8] 00 00 00 00 00 00 00 00
1508186566.405321,can0 0CF00203 [8] 00 00 00 00 00 00 00 00
1508186566.407274,can0 08FF0303 [8] 00 00 00 00 00 00 00 00
1508186566.422937,can0 08FF0001 [8] 00 00 00 00 00 00 00 00
1508186566.424769,can0 0CF00203 [8] 00 00 00 00 00 00 00 00
1508186566.426244,can0 08FF0303 [8] 00 00 00 00 00 00 00 00
1508186566.436168,can0 08FF0001 [8] 00 00 00 00 00 00 00 00
1508186566.437935,can0 0CF00203 [8] 00 00 00 00 00 00 00 00
1508186566.447412,can0 08FF0303 [8] 00 00 00 00 00 00 00 00
1508186566.449256,can0 08FF0001 [8] 00 00 00 00 00 00 00 00
1508186566.45907,can0 0CF00203 [8] 00 00 00 00 00 00 00 00
1508186566.460709,can0 08FF0303 [8] 00 00 00 00 00 00 00 00
1508186566.47015,can0 08FF0001 [8] 00 00 00 00 00 00 00 00
1508186566.471723,can0 0CF00203 [8] 00 00 00 00 00 00 00 00
1508186566.473061,can0 08FF0303 [8] 00 00 00 00 00 00 00 00
1508186566.482504,can0 08FF0001 [8] 00 00 00 00 00 00 00 00
1508186566.483969,can0 0CF00203 [8] 00 00 00 00 00 00 00 00
1508186566.493251,can0 08FF0303 [8] 00 00 00 00 00 00 00 00
1508186566.494669,can0 08FF0001 [8] 00 00 00 00 00 00 00 00
1508186566.496099,can0 0CF00203 [8] 00 00 00 00 00 00 00 00
1508186566.505584,can0 08FF0303 [8] 00 00 00 00 00 00 00 00
1508186566.507139,can0 08FF0001 [8] 00 00 00 00 00 00 00 00
1508186566.514747,can0 0CF00203 [8] 00 00 00 00 00 00 00 00
1508186566.516201,can0 08FF0303 [8] 00 00 00 00 00 00 00 00
1508186566.517641,can0 08FF0001 [8] 00 00 00 00 00 00 00 00
1508186566.527006,can0 0CF00203 [8] 00 00 00 00 00 00 00 00
1508186566.52873,can0 08FF0303 [8] 00 00 00 00 00 00 00 00
1508186566.538588,can0 18F00503 [8] 00 00 00 00 00 00 00 00
1508186566.540376,can0 08FF0001 [8] 00 00 00 00 00 00 00 00
1508186566.541662,can0 0CF00203 [8] 00 00 00 00 00 00 00 00
1508186566.551145,can0 08FF0303 [8] 00 00 00 00 00 00 00 00
1508186566.552586,can0 08FF0001 [8] 00 00 00 00 00 00 00 00
1508186566.561895,can0 0CF00203 [8] 00 00 00 00 00 00 00 00
1508186566.563436,can0 08FF0303 [8] 00 00 00 00 00 00 00 00
1508186566.564718,can0 08FF0001 [8] 00 00 00 00 00 00 00 00
1508186566.574256,can0 0CF00203 [8] 00 00 00 00 00 00 00 00
1508186566.57574,can0 08FF0303 [8] 00 00 00 00 00 00 00 00
1508186566.585031,can0 08FF0001 [8] 00 00 00 00 00 00 00 00
1508186566.586454,can0 0CF00203 [8] 00 00 00 00 00 00 00 00
1508186566.587874,can0 08FF0303 [8] 00 00 00 00 00 00 00 00
1508186566.597489,can0 08FF0001 [8] 00 00 00 00 00 00 00 00
1508186566.599255,can0 0CF00203 [8] 00 00 00 00 00 00 00 00
1508186566.609085,can0 08FF0303 [8] 00 00 00 00 00 00 00 00
1508186566.610767,can0 08FF0001 [8] 00 00 00 00 00 00 00 00
1508186566.615489,can0 0CF00203 [8] 00 00 00 00 00 00 00 00
1508186566.616988,can0 08FF0303 [8] 00 00 00 00 00 00 00 00
1508186566.626534,can0 08FF0001 [8] 00 00 00 00 00 00 00 00
1508186566.628189,can0 0CF00203 [8] 00 00 00 00 00 00 00 00
1508186566.638397,can0 08FF0303 [8] 00 00 00 00 00 00 00 00
1508186566.64028,can0 08FF0001 [8] 00 00 00 00 00 00 00 00
1508186566.649792,can0 0CF00203 [8] 00 00 00 00 00 00 00 00
1508186566.65148,can0 08FF0303 [8] 00 00 00 00 00 00 00 00
1508186566.652792,can0 08FF0001 [8] 00 00 00 00 00 00 00 00
1508186566.662326,can0 0CF00203 [8] 00 00 00 00 00 00 00 00
1508186566.663931,can0 08FF0303 [8] 00 00 00 00 00 00 00 00
1508186566.673335,can0 08FF0001 [8] 00 00 00 00 00 00 00 00
1508186566.674973,can0 0CF00203 [8] 00 00 00 00 00 00 00 00
1508186566.676293,can0 08FF0303 [8] 00 00 00 00 00 00 00 00
1508186566.685865,can0 18F00503 [8] 00 00 00 00 00 00 00 00
1508186566.687385,can0 08FF0001 [8] 00 00 00 00 00 00 00 00
1508186566.696749,can0 0CF00203 [8] 00 00 00 00 00 00 00 00
1508186566.698511,can0 08FF0303 [8] 00 00 00 00 00 00 00 00
1508186566.708115,can0 08FF0001 [8] 00 00 00 00 00 00 00 00
1508186566.710284,can0 0CF00203 [8] 00 00 00 00 00 00 00 00
1508186566.720025,can0 08FF0303 [8] 00 00 00 00 00 00 00 00
1508186566.721675,can0 08FF0001 [8] 00 00 00 00 00 00 00 00
1508186566.722988,can0 0CF00203 [8] 00 00 00 00 00 00 00 00
1508186566.732789,can0 08FF0303 [8] 00 00 00 00 00 00 00 00
1508186566.734805,can0 08FF0001 [8] 00 00 00 00 00 00 00 00
1508186566.744333,can0 0CF00203 [8] 00 00 00 00 00 00 00 00
1508186566.745845,can0 08FF0303 [8] 00 00 00 00 00 00 00 00
1508186566.755195,can0 08FF0001 [8] 00 00 00 00 00 00 00 00
1508186566.756814,can0 0CF00203 [8] 00 00 00 00 00 00 00 00
1508186566.758115,can0 08FF0303 [8] 00 00 00 00 00 00 00 00
1508186566.767788,can0 08FF0001 [8] 00 00 00 00 00 00 00 00
1508186566.769737,can0 0CF00203 [8] 00 00 00 00 00 00 00 00
1508186566.783274,can0 08FF0303 [8] 00 00 00 00 00 00 00 00
1508186566.783974,can0 08FF0001 [8] 00 00 00 00 00 00 00 00
1508186566.784476,can0 0CF00203 [8] 00 00 00 00 00 00 00 00
1508186566.78491,can0 08FF0303 [8] 00 00 00 00 00 00 00 00
1508186566.785314,can0 08FF0001 [8] 00 00 00 00 00 00 00 00
1508186566.785709,can0 0CF00203 [8] 00 00 00 00 00 00 00 00
1508186566.792856,can0 08FF0303 [8] 00 00 00 00 00 00 00 00
1508186566.793438,can0 08FF0001 [8] 00 00 00 00 00 00 00 00
1508186566.794003,can0 0CF00203 [8] 00 00 00 00 00 00 00 00
1508186566.794457,can0 08FF0303 [8] 00 00 00 00 00 00 00 00
1508186566.794865,can0 08FF0001 [8] 00 00 00 00 00 00 00 00
1508186566.795258,can0 0CF00203 [8] 00 00 00 00 00 00 00 00
1508186566.799682,can0 08FF0303 [8] 00 00 00 00 00 00 00 00
1508186566.80022,can0 18F00503 [8] 00 00 00 00 00 00 00 00
1508186566.800654,can0 08FF0001 [8] 00 00 00 00 00 00 00 00
1508186566.801064,can0 0CF00203 [8] 00 00 00 00 00 00 00 00
1508186566.801651,can0 08FF0303 [8] 00 00 00 00 00 00 00 00
1508186566.802187,can0 08FF0001 [8] 00 00 00 00 00 00 00 00
1508186566.80263,can0 0CF00203 [8] 00 00 00 00 00 00 00 00
1508186566.803037,can0 08FF0303 [8] 00 00 00 00 00 00 00 00
1508186566.806088,can0 08FF0001 [8] 00 00 00 00 00 00 00 00
1508186566.806601,can0 0CF00203 [8] 00 00 00 00 00 00 00 00
1508186566.807039,can0 08FF0303 [8] 00 00 00 00 00 00 00 00
1508186566.807544,can0 08FF0001 [8] 00 00 00 00 00 00 00 00
1508186566.80797,can0 0CF00203 [8] 00 00 00 00 00 00 00 00
1508186566.809299,can0 08FF0303 [8] 00 00 00 00 00 00 00 00
1508186566.809896,can0 08FF0001 [8] 00 00 00 00 00 00 00 00
1508186566.81033,can0 0CF00203 [8] 00 00 00 00 00 00 00 00
1508186566.811014,can0 08FF0303 [8] 00 00 00 00 00 00 00 00
1508186566.811574,can0 08FF0001 [8] 00 00 00 00 00 00 00 00
1508186566.813076,can0 0CF00203 [8] 00 00 00 00 00 00 00 00
1508186566.813684,can0 08FF0303 [8] 00 00 00 00 00 00 00 00
1508186566.81412,can0 08FF0001 [8] 00 00 00 00 00 00 00 00
1508186566.814525,can0 0CF00203 [8] 00 00 00 00 00 00 00 00
1508186566.814915,can0 08FF0303 [8] 00 00 00 00 00 00 00 00
1508186566.815379,can0 08FF0001 [8] 00 00 00 00 00 00 00 00
1508186566.815791,can0 0CF00203 [8] 00 00 00 00 00 00 00 00
1508186566.816183,can0 08FF0303 [8] 00 00 00 00 00 00 00 00
1508186566.816561,can0 08FF0001 [8] 00 00 00 00 00 00 00 00
1508186566.81694,can0 0CF00203 [8] 00 00 00 00 00 00 00 00
1508186566.817392,can0 08FF0303 [8] 00 00 00 00 00 00 00 00
1508186566.817789,can0 08FF0001 [8] 00 00 00 00 00 00 00 00
1508186566.818171,can0 0CF00203 [8] 00 00 00 00 00 00 00 00
1508186566.818664,can0 08FF0303 [8] 00 00 00 00 00 00 00 00
1508186566.81918,can0 18F00503 [8] 00 00 00 00 00 00 00 00
1508186566.81968,can0 08FF0001 [8] 00 00 00 00 00 00 00 00
1508186566.820098,can0 0CF00203 [8] 00 00 00 00 00 00 00 00
1508186566.820491,can0 08FF0303 [8] 00 00 00 00 00 00 00 00
1508186566.820897,can0 08FF0001 [8] 00 00 00 00 00 00 00 00
1508186566.821369,can0 0CF00203 [8] 00 00 00 00 00 00 00 00
1508186566.821769,can0 08FF0303 [8] 00 00 00 00 00 00 00 00
1508186566.822149,can0 08FF0001 [8] 00 00 00 00 00 00 00 00
1508186566.822521,can0 0CF00203 [8] 00 00 00 00 00 00 00 00
1508186566.822894,can0 08FF0303 [8] 00 00 00 00 00 00 00 00
1508186566.82335,can0 08FF0001 [8] 00 00 00 00 00 00 00 00
1508186566.823744,can0 0CF00203 [8] 00 00 00 00 00 00 00 00
1508186566.419551,can1 0CFE6E0B [8] 00 00 00 00 00 00 00 00
1508186566.432524,can1 18F0010B [8] CF FF F0 FF FF DC FF FF
1508186566.442823,can1 0CFE6E0B [8] 00 00 00 00 00 00 00 00
1508186566.444601,can1 18FEBF0B [8] 00 00 7D 7D FE FE FF FF
1508186566.445951,can1 0CFE6E0B [8] 00 00 00 00 00 00 00 00
1508186566.455599,can1 18F00131 [8] 00 00 00 00 00 00 00 00
1508186566.457088,can1 18F0010B [8] 00 00 00 00 00 00 00 00
1508186566.466554,can1 18FEF117 [8] 00 00 00 00 00 00 00 00
1508186566.468761,can1 18FEF128 [8] 00 00 00 00 00 00 00 00
1508186566.478894,can1 18FEF121 [8] 00 00 00 00 00 00 00 00
1508186566.480645,can1 18FEF131 [8] 00 00 00 00 00 00 00 00
1508186566.490293,can1 18E00017 [8] 00 00 00 00 00 00 00 00
1508186566.491872,can1 18E00019 [8] 00 00 00 00 00 00 00 00
1508186566.501228,can1 18E00021 [8] 00 00 00 00 00 00 00 00
1508186566.503065,can1 18E00028 [8] 00 00 00 00 00 00 00 00
1508186566.504402,can1 18E00031 [8] 00 00 00 00 00 00 00 00
1508186566.512795,can1 18FEF017 [8] 00 00 00 00 00 00 00 00
1508186566.514168,can1 18FEF021 [8] 00 00 00 00 00 00 00 00
1508186566.523773,can1 18FEF028 [8] 00 00 00 00 00 00 00 00
1508186566.525279,can1 18FEF031 [8] 00 00 00 00 00 00 00 00
1508186566.53487,can1 0CFE6E0B [8] 00 00 00 00 00 00 00 00
1508186566.536831,can1 0CFE6E0B [8] 00 00 00 00 00 00 00 00
1508186566.546395,can1 0CFE6E0B [8] 00 00 00 00 00 00 00 00
1508186566.547999,can1 18F0010B [8] CF FF F0 FF FF DC FF FF
1508186566.557875,can1 0CFE6E0B [8] 00 00 00 00 00 00 00 00
1508186566.559935,can1 18FEBF0B [8] 00 00 7D 7D FE FE FF FF
1508186566.569322,can1 0CFE6E0B [8] 00 00 00 00 00 00 00 00
1508186566.571122,can1 18F00131 [8] 00 00 00 00 00 00 00 00
1508186566.57245,can1 18F0010B [8] 00 00 00 00 00 00 00 00
1508186566.581948,can1 18FEF117 [8] 00 00 00 00 00 00 00 00
1508186566.583538,can1 18FEF128 [8] 00 00 00 00 00 00 00 00
1508186566.592858,can1 18FEF121 [8] 00 00 00 00 00 00 00 00
1508186566.59453,can1 18FEF131 [8] 00 00 00 00 00 00 00 00
1508186566.59588,can1 18E00017 [8] 00 00 00 00 00 00 00 00
1508186566.605328,can1 18E00019 [8] 00 00 00 00 00 00 00 00
1508186566.606899,can1 18E00021 [8] 00 00 00 00 00 00 00 00
1508186566.618156,can1 18E00028 [8] 00 00 00 00 00 00 00 00
1508186566.620109,can1 18E00031 [8] 00 00 00 00 00 00 00 00
1508186566.621424,can1 18FEF017 [8] 00 00 00 00 00 00 00 00
1508186566.631239,can1 18FEF021 [8] 00 00 00 00 00 00 00 00
1508186566.633087,can1 18FEF028 [8] 00 00 00 00 00 00 00 00
1508186566.642502,can1 18FEF031 [8] 00 00 00 00 00 00 00 00
1508186566.643978,can1 0CFE6E0B [8] 00 00 00 00 00 00 00 00
1508186566.653226,can1 0CFE6E0B [8] 00 00 00 00 00 00 00 00
1508186566.654695,can1 0CFE6E0B [8] 00 00 00 00 00 00 00 00
1508186566.656131,can1 18F0010B [8] CF FF F0 FF FF DC FF FF
1508186566.665441,can1 0CFE6E0B [8] 00 00 00 00 00 00 00 00
1508186566.666973,can1 18FEBF0B [8] 00 00 7D 7D FE FE FF FF
1508186566.668482,can1 0CFE6E0B [8] 00 00 00 00 00 00 00 00
1508186566.677915,can1 18F00131 [8] 00 00 00 00 00 00 00 00
1508186566.6798,can1 18F0010B [8] 00 00 00 00 00 00 00 00
1508186566.689625,can1 18FEF117 [8] 00 00 00 00 00 00 00 00
1508186566.691148,can1 18FEF128 [8] 00 00 00 00 00 00 00 00
1508186566.700419,can1 18FEF121 [8] 00 00 00 00 00 00 00 00
1508186566.701949,can1 18FEF131 [8] 00 00 00 00 00 00 00 00
1508186566.703394,can1 18E00017 [8] 00 00 00 00 00 00 00 00
1508186566.713044,can1 18E00019 [8] 00 00 00 00 00 00 00 00
1508186566.714676,can1 18E00021 [8] 00 00 00 00 00 00 00 00
1508186566.724014,can1 18E00028 [8] 00 00 00 00 00 00 00 00
1508186566.725543,can1 18E00031 [8] 00 00 00 00 00 00 00 00
1508186566.726831,can1 18FEF017 [8] 00 00 00 00 00 00 00 00
1508186566.736553,can1 18FEF021 [8] 00 00 00 00 00 00 00 00
1508186566.738364,can1 18FEF028 [8] 00 00 00 00 00 00 00 00
1508186566.747851,can1 18FEF031 [8] 00 00 00 00 00 00 00 00
1508186566.749827,can1 0CFE6E0B [8] 00 00 00 00 00 00 00 00
1508186566.759255,can1 0CFE6E0B [8] 00 00 00 00 00 00 00 00
1508186566.760913,can1 0CFE6E0B [8] 00 00 00 00 00 00 00 00
1508186566.76219,can1 18F0010B [8] CF FF F0 FF FF DC FF FF
1508186566.771668,can1 0CFE6E0B [8] 00 00 00 00 00 00 00 00
1508186566.77311,can1 18FEBF0B [8] 00 00 7D 7D FE FE FF FF
1508186566.786045,can1 0CFE6E0B [8] 00 00 00 00 00 00 00 00
1508186566.786651,can1 18F00131 [8] 00 00 00 00 00 00 00 00
1508186566.787106,can1 18F0010B [8] 00 00 00 00 00 00 00 00
1508186566.787522,can1 18FEF117 [8] 00 00 00 00 00 00 00 00
1508186566.788011,can1 18FEF128 [8] 00 00 00 00 00 00 00 00
1508186566.788587,can1 18FEF121 [8] 00 00 00 00 00 00 00 00
1508186566.789072,can1 18FEF131 [8] 00 00 00 00 00 00 00 00
1508186566.789537,can1 18E00017 [8] 00 00 00 00 00 00 00 00
1508186566.796021,can1 18E00019 [8] 00 00 00 00 00 00 00 00
1508186566.796564,can1 18E00021 [8] 00 00 00 00 00 00 00 00
1508186566.796998,can1 18E00028 [8] 00 00 00 00 00 00 00 00
1508186566.797395,can1 18E00031 [8] 00 00 00 00 00 00 00 00
1508186566.797897,can1 18FEF017 [8] 00 00 00 00 00 00 00 00
1508186566.798409,can1 18FEF021 [8] 00 00 00 00 00 00 00 00
1508186566.798896,can1 18FEF028 [8] 00 00 00 00 00 00 00 00
1508186566.799319,can1 18FEF031 [8] 00 00 00 00 00 00 00 00
1508186566.803876,can1 18FEF521 [8] 00 00 00 00 00 00 00 00
1508186566.804362,can1 0CFE6E0B [8] 00 00 00 00 00 00 00 00
1508186566.804782,can1 0CFE6E0B [8] 00 00 00 00 00 00 00 00
1508186566.805185,can1 0CFE6E0B [8] 00 00 00 00 00 00 00 00
1508186566.805667,can1 18F0010B [8] CF FF F0 FF FF DC FF FF
1508186566.808557,can1 0CFE6E0B [8] 00 00 00 00 00 00 00 00
1508186566.812435,can1 18FEBF0B [8] 00 00 7D 7D FE FE FF FF
1508186566.828603,can1 0CFE6E0B [8] 00 00 00 00 00 00 00 00
1508186566.829352,can1 18F00131 [8] 00 00 00 00 00 00 00 00
1508186566.829952,can1 18F0010B [8] 00 00 00 00 00 00 00 00
1508186566.830485,can1 18FEF117 [8] 00 00 00 00 00 00 00 00
1508186566.831027,can1 18FEF128 [8] 00 00 00 00 00 00 00 00
1508186566.831509,can1 18FEF121 [8] 00 00 00 00 00 00 00 00
1508186566.83198,can1 18FEF131 [8] 00 00 00 00 00 00 00 00
1508186566.836845,can1 18E00017 [8] 00 00 00 00 00 00 00 00
1508186566.837431,can1 18E00019 [8] 00 00 00 00 00 00 00 00
1508186566.83787,can1 18E00021 [8] 00 00 00 00 00 00 00 00
1508186566.838343,can1 18E00028 [8] 00 00 00 00 00 00 00 00
1508186566.838885,can1 18E00031 [8] 00 00 00 00 00 00 00 00
1508186566.839319,can1 18FEF017 [8] 00 00 00 00 00 00 00 00
1508186566.839785,can1 18FEF021 [8] 00 00 00 00 00 00 00 00
1508186566.840249,can1 18FEF028 [8] 00 00 00 00 00 00 00 00
1508186566.843983,can1 18FEF031 [8] 00 00 00 00 00 00 00 00
1508186566.848557,can1 0CFE6E0B [8] 00 00 00 00 00 00 00 00
1508186566.868551,can1 0CFE6E0B [8] 00 00 00 00 00 00 00 00
1508186566.888704,can1 0CFE6E0B [8] 00 00 00 00 00 00 00 00
1508186566.902626,can1 18F0010B [8] CF FF F0 FF FF DC FF FF
1508186566.908718,can1 0CFE6E0B [8] 00 00 00 00 00 00 00 00
1508186566.912581,can1 18FEBF0B [8] 00 00 7D 7D FE FE FF FF
1508186566.928614,can1 0CFE6E0B [8] 00 00 00 00 00 00 00 00
1508186566.929285,can1 18F00131 [8] 00 00 00 00 00 00 00 00
1508186566.929849,can1 18F0010B [8] 00 00 00 00 00 00 00 00
1508186566.930429,can1 18FEF117 [8] 00 00 00 00 00 00 00 00
1508186566.930934,can1 18FEF128 [8] 00 00 00 00 00 00 00 00
1508186566.931401,can1 18FEF121 [8] 00 00 00 00 00 00 00 00
1508186566.934239,can1 18FEF131 [8] 00 00 00 00 00 00 00 00
1508186566.934879,can1 18E00017 [8] 00 00 00 00 00 00 00 00
1508186566.935387,can1 18E00019 [8] 00 00 00 00 00 00 00 00
1508186566.935813,can1 18E00021 [8] 00 00 00 00 00 00 00 00
1508186566.93633,can1 18E00028 [8] 00 00 00 00 00 00 00 00
1508186566.936817,can1 18E00031 [8] 00 00 00 00 00 00 00 00
1508186566.937351,can1 18FEF017 [8] 00 00 00 00 00 00 00 00
1508186566.937767,can1 18FEF021 [8] 00 00 00 00 00 00 00 00
1508186566.938209,can1 18FEF028 [8] 00 00 00 00 00 00 00 00
1508186566.940554,can1 18FEF031 [8] 00 00 00 00 00 00 00 00
1508186566.950269,can1 0CFE6E0B [8] 00 00 00 00 00 00 00 00
1508186566.968566,can1 0CFE6E0B [8] 00 00 00 00 00 00 00 00
1508186566.988555,can1 0CFE6E0B [8] 00 00 00 00 00 00 00 00
1508186567.002703,can1 18F0010B [8] CF FF F0 FF FF DC FF FF
1508186566.82475,can0 08FF0303 [8] 00 00 00 00 00 00 00 00
1508186566.825392,can0 08FF0001 [8] 00 00 00 00 00 00 00 00
1508186566.825836,can0 0CF00203 [8] 00 00 00 00 00 00 00 00
1508186566.826345,can0 08FF0303 [8] 00 00 00 00 00 00 00 00
1508186566.826767,can0 08FF0001 [8] 00 00 00 00 00 00 00 00
1508186566.827267,can0 0CF00203 [8] 00 00 00 00 00 00 00 00
1508186566.827678,can0 08FF0303 [8] 00 00 00 00 00 00 00 00
1508186566.828072,can0 08FF0001 [8] 00 00 00 00 00 00 00 00
1508186566.832806,can0 0CF00203 [8] 00 00 00 00 00 00 00 00
1508186566.833395,can0 08FF0303 [8] 00 00 00 00 00 00 00 00
1508186566.833913,can0 08FF0001 [8] 00 00 00 00 00 00 00 00
1508186566.834396,can0 0CF00203 [8] 00 00 00 00 00 00 00 00
1508186566.834926,can0 08FF0303 [8] 00 00 00 00 00 00 00 00
1508186566.835419,can0 08FF0001 [8] 00 00 00 00 00 00 00 00
1508186566.835891,can0 0CF00203 [8] 00 00 00 00 00 00 00 00
1508186566.836305,can0 08FF0303 [8] 00 00 00 00 00 00 00 00
1508186566.840822,can0 08FF0001 [8] 00 00 00 00 00 00 00 00
1508186566.841341,can0 0CF00203 [8] 00 00 00 00 00 00 00 00
1508186566.841775,can0 08FF0303 [8] 00 00 00 00 00 00 00 00
1508186566.842173,can0 18F00503 [8] 00 00 00 00 00 00 00 00
1508186566.842636,can0 08FF0001 [8] 00 00 00 00 00 00 00 00
1508186566.843061,can0 0CF00203 [8] 00 00 00 00 00 00 00 00
1508186566.843452,can0 08FF0303 [8] 00 00 00 00 00 00 00 00
1508186566.849238,can0 08FF0001 [8] 00 00 00 00 00 00 00 00
1508186566.849829,can0 0CF00203 [8] 00 00 00 00 00 00 00 00
1508186566.850324,can0 08FF0303 [8] 00 00 00 00 00 00 00 00
1508186566.858498,can0 08FF0001 [8] 00 00 00 00 00 00 00 00
1508186566.859044,can0 0CF00203 [8] 00 00 00 00 00 00 00 00
1508186566.85964,can0 08FF0303 [8] 00 00 00 00 00 00 00 00
1508186566.869246,can0 08FF0001 [8] 00 00 00 00 00 00 00 00
1508186566.86989,can0 0CF00203 [8] 00 00 00 00 00 00 00 00
1508186566.870363,can0 08FF0303 [8] 00 00 00 00 00 00 00 00
1508186566.878639,can0 08FF0001 [8] 00 00 00 00 00 00 00 00
1508186566.879394,can0 0CF00203 [8] 00 00 00 00 00 00 00 00
1508186566.880042,can0 08FF0303 [8] 00 00 00 00 00 00 00 00
1508186566.889746,can0 08FF0001 [8] 00 00 00 00 00 00 00 00
1508186566.890368,can0 0CF00203 [8] 00 00 00 00 00 00 00 00
1508186566.890831,can0 08FF0303 [8] 00 00 00 00 00 00 00 00
1508186566.898638,can0 08FF0001 [8] 00 00 00 00 00 00 00 00
1508186566.89953,can0 0CF00203 [8] 00 00 00 00 00 00 00 00
1508186566.900038,can0 08FF0303 [8] 00 00 00 00 00 00 00 00
1508186566.909757,can0 08FF0001 [8] 00 00 00 00 00 00 00 00
1508186566.910373,can0 0CF00203 [8] 00 00 00 00 00 00 00 00
1508186566.91091,can0 08FF0303 [8] 00 00 00 00 00 00 00 00
1508186566.918568,can0 08FF0001 [8] 00 00 00 00 00 00 00 00
1508186566.919257,can0 0CF00203 [8] 00 00 00 00 00 00 00 00
1508186566.919776,can0 08FF0303 [8] 00 00 00 00 00 00 00 00
1508186566.931992,can0 08FF0001 [8] 00 00 00 00 00 00 00 00
1508186566.93265,can0 0CF00203 [8] 00 00 00 00 00 00 00 00
1508186566.933184,can0 08FF0303 [8] 00 00 00 00 00 00 00 00
1508186566.933671,can0 18F00503 [8] 00 00 00 00 00 00 00 00
1508186566.938512,can0 08FF0001 [8] 00 00 00 00 00 00 00 00
1508186566.939105,can0 0CF00203 [8] 00 00 00 00 00 00 00 00
1508186566.939609,can0 08FF0303 [8] 00 00 00 00 00 00 00 00
1508186566.948573,can0 08FF0001 [8] 00 00 00 00 00 00 00 00
1508186566.949173,can0 0CF00203 [8] 00 00 00 00 00 00 00 00
1508186566.949677,can0 08FF0303 [8] 00 00 00 00 00 00 00 00
1508186566.958536,can0 08FF0001 [8] 00 00 00 00 00 00 00 00
1508186566.95913,can0 0CF00203 [8] 00 00 00 00 00 00 00 00
1508186566.959691,can0 08FF0303 [8] 00 00 00 00 00 00 00 00
1508186566.969263,can0 08FF0001 [8] 00 00 00 00 00 00 00 00
1508186566.969905,can0 0CF00203 [8] 00 00 00 00 00 00 00 00
1508186566.97035,can0 08FF0303 [8] 00 00 00 00 00 00 00 00
1508186566.978497,can0 08FF0001 [8] 00 00 00 00 00 00 00 00
1508186566.979018,can0 0CF00203 [8] 00 00 00 00 00 00 00 00
1508186566.979638,can0 08FF0303 [8] 00 00 00 00 00 00 00 00
1508186566.9893,can0 08FF0001 [8] 00 00 00 00 00 00 00 00
1508186566.989888,can0 0CF00203 [8] 00 00 00 00 00 00 00 00
1508186566.990334,can0 08FF0303 [8] 00 00 00 00 00 00 00 00
1508186566.998501,can0 08FF0001 [8] 00 00 00 00 00 00 00 00
1508186566.999083,can0 0CF00203 [8] 00 00 00 00 00 00 00 00
1508186566.999647,can0 08FF0303 [8] 00 00 00 00 00 00 00 00
1508186567.009504,can0 08FF0001 [8] 00 00 00 00 00 00 00 00
1508186567.010104,can0 0CF00203 [8] 00 00 00 00 00 00 00 00
1508186567.010628,can0 08FF0303 [8] 00 00 00 00 00 00 00 00
1508186567.018559,can0 08FF0001 [8] 00 00 00 00 00 00 00 00
1508186567.01918,can0 0CF00203 [8] 00 00 00 00 00 00 00 00
1508186567.019692,can0 08FF0303 [8] 00 00 00 00 00 00 00 00
1508186567.031972,can0 08FF0001 [8] 00 00 00 00 00 00 00 00
1508186567.03258,can0 0CF00203 [8] 00 00 00 00 00 00 00 00
1508186567.033087,can0 08FF0303 [8] 00 00 00 00 00 00 00 00
1508186567.033566,can0 18F00503 [8] 00 00 00 00 00 00 00 00
1508186567.038533,can0 08FF0001 [8] 00 00 00 00 00 00 00 00
1508186567.039111,can0 0CF00203 [8] 00 00 00 00 00 00 00 00
1508186567.039611,can0 08FF0303 [8] 00 00 00 00 00 00 00 00
1508186567.048573,can0 08FF0001 [8] 00 00 00 00 00 00 00 00
1508186567.049166,can0 0CF00203 [8] 00 00 00 00 00 00 00 00
1508186567.049739,can0 08FF0303 [8] 00 00 00 00 00 00 00 00
1508186567.058543,can0 08FF0001 [8] 00 00 00 00 00 00 00 00
1508186567.059129,can0 0CF00203 [8] 00 00 00 00 00 00 00 00
1508186567.059704,can0 08FF0303 [8] 00 00 00 00 00 00 00 00
1508186567.069297,can0 08FF0001 [8] 00 00 00 00 00 00 00 00
1508186567.06989,can0 0CF00203 [8] 00 00 00 00 00 00 00 00
1508186567.07032,can0 08FF0303 [8] 00 00 00 00 00 00 00 00
1508186567.078501,can0 08FF0001 [8] 00 00 00 00 00 00 00 00
1508186567.079072,can0 0CF00203 [8] 00 00 00 00 00 00 00 00
1508186567.079661,can0 08FF0303 [8] 00 00 00 00 00 00 00 00
1508186567.091392,can0 08FF0001 [8] 00 00 00 00 00 00 00 00
1508186567.092198,can0 0CF00203 [8] 00 00 00 00 00 00 00 00
1508186567.092973,can0 08FF0303 [8] 00 00 00 00 00 00 00 00
1508186567.098632,can0 08FF0001 [8] 00 00 00 00 00 00 00 00
1508186567.099482,can0 0CF00203 [8] 00 00 00 00 00 00 00 00
1508186567.100153,can0 08FF0303 [8] 00 00 00 00 00 00 00 00
1508186567.109661,can0 08FF0001 [8] 00 00 00 00 00 00 00 00
1508186567.110514,can0 0CF00203 [8] 00 00 00 00 00 00 00 00
1508186567.111191,can0 08FF0303 [8] 00 00 00 00 00 00 00 00
1508186567.118662,can0 08FF0001 [8] 00 00 00 00 00 00 00 00
1508186567.119626,can0 0CF00203 [8] 00 00 00 00 00 00 00 00
1508186567.12083,can0 08FF0303 [8] 00 00 00 00 00 00 00 00
1508186567.131958,can0 08FF0001 [8] 00 00 00 00 00 00 00 00
1508186567.132842,can0 0CF00203 [8] 00 00 00 00 00 00 00 00
1508186567.133756,can0 08FF0303 [8] 00 00 00 00 00 00 00 00
1508186567.134499,can0 18F00503 [8] 00 00 00 00 00 00 00 00
1508186567.139732,can0 08FF0001 [8] 00 00 00 00 00 00 00 00
1508186567.140496,can0 0CF00203 [8] 00 00 00 00 00 00 00 00
1508186567.141156,can0 08FF0303 [8] 00 00 00 00 00 00 00 00
1508186567.148692,can0 08FF0001 [8] 00 00 00 00 00 00 00 00
1508186567.149728,can0 0CF00203 [8] 00 00 00 00 00 00 00 00
1508186567.150428,can0 08FF0303 [8] 00 00 00 00 00 00 00 00
1508186567.158668,can0 08FF0001 [8] 00 00 00 00 00 00 00 00
1508186567.159649,can0 0CF00203 [8] 00 00 00 00 00 00 00 00
1508186567.160342,can0 08FF0303 [8] 00 00 00 00 00 00 00 00
1508186567.169797,can0 08FF0001 [8] 00 00 00 00 00 00 00 00
1508186567.170549,can0 0CF00203 [8] 00 00 00 00 00 00 00 00
1508186567.171317,can0 08FF0303 [8] 00 00 00 00 00 00 00 00
1508186567.178657,can0 08FF0001 [8] 00 00 00 00 00 00 00 00
1508186567.179511,can0 0CF00203 [8] 00 00 00 00 00 00 00 00
1508186567.180198,can0 08FF0303 [8] 00 00 00 00 00 00 00 00
1508186567.189759,can0 08FF0001 [8] 00 00 00 00 00 00 00 00
1508186567.190594,can0 0CF00203 [8] 00 00 00 00 00 00 00 00
1508186567.191272,can0 08FF0303 [8] 00 00 00 00 00 00 00 00
1508186567.198625,can0 08FF0001 [8] 00 00 00 00 00 00 00 00
1508186567.199402,can0 0CF00203 [8] 00 00 00 00 00 00 00 00
1508186567.200207,can0 08FF0303 [8] 00 00 00 00 00 00 00 00
1508186567.20973,can0 08FF0001 [8] 00 00 00 00 00 00 00 00
1508186567.008643,can1 0CFE6E0B [8] 00 00 00 00 00 00 00 00
1508186567.012721,can1 18FEBF0B [8] 00 00 7D 7D FE FE FF FF
1508186567.028569,can1 0CFE6E0B [8] 00 00 00 00 00 00 00 00
1508186567.029219,can1 18F00131 [8] 00 00 00 00 00 00 00 00
1508186567.02978,can1 18F0010B [8] 00 00 00 00 00 00 00 00
