1510780669.461318,can1 0CF00203 [8] FF 00 00 FF FF AD 47 03
1510780669.473986,can1 18FEE000 [8] A2 01 00 00 A2 01 00 00
1510780669.475906,can1 18F0010B [8] CF FF F0 FF FF DC FF FF
1510780669.485475,can1 0CFE6E0B [8] 00 00 00 00 00 00 00 00
1510780669.487748,can1 0CF00400 [8] 38 FE FE FE FE 00 FF FE
1510780669.498333,can1 18F0010B [8] 00 00 00 00 00 00 00 00
1510780669.508594,can1 18F00131 [8] 00 00 00 00 00 00 00 00
1510780669.510712,can1 18FEF117 [8] 00 00 00 00 00 00 00 00
1510780669.520439,can1 18FEF128 [8] 00 00 00 00 00 00 00 00
1510780669.522465,can1 18FEF121 [8] 00 00 00 00 00 00 00 00
1510780669.531457,can1 18FEF131 [8] 00 00 00 00 00 00 00 00
1510780669.545076,can1 18E00017 [8] 00 00 00 00 00 00 00 00
1510780669.545879,can1 18E00019 [8] 00 00 00 00 00 00 00 00
1510780669.546391,can1 18E00021 [8] 00 00 00 00 00 00 00 00
1510780669.546838,can1 18E00028 [8] 00 00 00 00 00 00 00 00
1510780669.55637,can1 18E00031 [8] 00 00 00 00 00 00 00 00
1510780669.557116,can1 18FEBF0B [8] 00 00 7D 7D FE FE FF FF
1510780669.557739,can1 18FEF017 [8] 00 00 00 00 00 00 00 00
1510780669.558296,can1 18FEF021 [8] 00 00 00 00 00 00 00 00
1510780669.566747,can1 18FEF028 [8] 00 00 00 00 00 00 00 00
1510780669.567596,can1 18FEF031 [8] 00 00 00 00 00 00 00 00
1510780669.568188,can1 1CEBFF00 [8] 03 20 20 20 2A FF FF FF
1510780669.568771,can1 0CF00400 [8] 38 FE FE FE FE 00 FF FE
1510780669.569291,can1 0CF00203 [8] FF 00 00 FF FF AD 47 03
1510780669.569778,can1 0CF00300 [8] D1 00 FE FF FF FF 00 FF
1510780669.570203,can1 18FEDF00 [8] FE FE FE FF FE FF BF FF
1510780669.578811,can1 18FE4A03 [8] FF FF F3 FF F0 F7 FF FF
1510780669.579434,can1 18F00503 [8] FF 57 9E FF 20 2D 2D 2D
1510780669.579955,can1 18FEF100 [8] C3 00 00 D0 00 00 00 30
1510780669.580538,can1 0CFE6E0B [8] 00 00 00 00 00 00 00 00
1510780669.580999,can1 0CF00400 [8] 38 FE FE FE FE 00 FF FE
1510780669.581418,can1 0CF00203 [8] FF 00 00 FF FF AD 47 03
1510780669.581812,can1 18F00100 [8] FF FF FF FF FA FF FF FF
1510780669.59017,can1 0CF00400 [8] 38 FE FE FE FE 00 FF FE
1510780669.590784,can1 0CF00203 [8] FF 00 00 FF FF AD 47 03
1510780669.591263,can1 18F0000F [8] 00 7D FF FF 0F 7D FF FF
1510780669.591712,can1 0CFE6E0B [8] 00 00 00 00 00 00 00 00
1510780669.592232,can1 0CF00400 [8] 38 FE FE FE FE 00 FF FE
1510780669.592675,can1 0CF00203 [8] FF 00 00 FF FF AD 47 03
1510780669.593093,can1 18FF3000 [8] 00 00 FF FF FF FF FF FF
1510780669.593498,can1 0CF00400 [8] 38 FE FE FE FE 00 FF FE
1510780669.601848,can1 0CF00203 [8] FF 00 00 FF FF AD 47 03
1510780669.602432,can1 0CF00300 [8] D1 00 FE FF FF FF 00 FF
1510780669.602895,can1 14FFA000 [8] FC FF FF FF FF FF FF FF
1510780669.603318,can1 18FEF200 [8] 00 00 00 00 00 00 FF FF
1510780669.603803,can1 18DA00F1 [8] 03 22 1D FF 00 00 00 00
1510780669.604242,can1 0CFE6E0B [8] 00 00 00 00 00 00 00 00
1510780669.604666,can1 0CF00400 [8] 38 FE FE FE FE 00 FF FE
1510780669.60507,can1 0CF00203 [8] FF 00 00 FF FF AD 47 03
1510780669.605462,can1 18FEDF00 [8] FE FE FE FF FE FF BF FF
1510780669.61394,can1 18DAF100 [8] 10 E3 62 1D FF 00 00 01
1510780669.614459,can1 0CF00400 [8] 38 FE FE FE FE 00 FF FE
1510780669.614903,can1 0CF00203 [8] FF 00 00 FF FF AD 47 03
1510780669.61531,can1 18DA00F1 [8] 30 08 00 00 00 00 00 00
1510780669.615836,can1 18DAF100 [8] 21 F3 00 00 01 F4 00 00
1510780669.616299,can1 18DAF100 [8] 22 FF 38 00 00 00 13 00
1510780669.616723,can1 18DAF100 [8] 23 00 00 00 00 00 FF FF
1510780669.617281,can1 18DAF100 [8] 24 01 C1 64 00 00 FF FF
1510780669.625818,can1 18DAF100 [8] 25 FF 04 A5 04 A5 00 64
1510780669.626301,can1 18DAF100 [8] 26 0F 02 94 FF 38 02 94
1510780669.626734,can1 18DAF100 [8] 27 09 83 02 94 FF 38 FF
1510780669.627356,can1 18DAF100 [8] 28 38 00 00 02 58 02 58
1510780669.627911,can1 18DA00F1 [8] 30 08 00 00 00 00 00 00
1510780669.628432,can1 18DAF100 [8] 29 0F A0 00 00 00 00 FF
1510780669.62895,can1 18DAF100 [8] 2A FF FF FF FF FF FF 00
1510780669.633608,can1 18DAF100 [8] 2B FF 00 00 68 00 0F A0
1510780669.634175,can1 18DAF100 [8] 2C 0F A0 0F A0 1F FA 00
1510780669.634689,can1 0CFE6E0B [8] 00 00 00 00 00 00 00 00
1510780669.635276,can1 18DAF100 [8] 2D 00 00 00 00 A0 08 03
1510780669.63578,can1 0CF00400 [8] 38 FE FE FE FE 00 FF FE
1510780669.636264,can1 0CF00203 [8] FF 00 00 FF FF AD 47 03
1510780669.636679,can1 18FEF000 [8] FF FF FF 00 00 FC 00 FF
1510780669.645243,can1 18DAF100 [8] 2E 03 03 00 14 03 01 0A
1510780669.645769,can1 18DAF100 [8] 2F 00 00 00 00 00 00 00
1510780669.646208,can1 18DAF100 [8] 20 00 00 00 00 00 00 00
1510780669.646692,can1 18DA00F1 [8] 30 08 00 00 00 00 00 00
1510780669.647287,can1 18DAF100 [8] 21 00 00 00 01 00 05 00
1510780669.64784,can1 18DAF100 [8] 22 00 00 0A 00 01 00 00
1510780669.648362,can1 18DAF100 [8] 23 00 00 00 03 00 00 00
1510780669.654864,can1 18DAF100 [8] 24 01 F4 B5 08 20 B6 03
1510780669.655582,can1 18DAF100 [8] 25 7F C6 04 D8 E1 06 95
1510780669.656078,can1 18DAF100 [8] 26 D5 08 63 09 B0 FE FE
1510780669.656599,can1 18DAF100 [8] 27 FE 00 00 FF 00 01 00
1510780669.65715,can1 0CF00400 [8] 38 FE FE FE FE 00 FF FE
1510780669.6577,can1 0CF00203 [8] FF 00 00 FF FF AD 47 03
1510780669.658218,can1 18FEE000 [8] A2 01 00 00 A2 01 00 00
1510780669.66128,can1 18DAF100 [8] 28 00 06 00 06 06 06 06
1510780669.661745,can1 18DA00F1 [8] 30 08 00 00 00 00 00 00
1510780669.662169,can1 18DAF100 [8] 29 00 01 FF 61 A8 0A F4
1510780669.662681,can1 18F0010B [8] CF FF F0 FF FF DC FF FF
1510780669.663091,can1 18DAF100 [8] 2A 00 00 00 03 00 02 00
1510780669.663491,can1 18DAF100 [8] 2B 01 00 09 00 02 00 00
1510780669.663887,can1 18DAF100 [8] 2C 00 00 00 00 00 01 00
1510780669.664343,can1 18DAF100 [8] 2D 00 52 00 00 00 1D 00
1510780669.664765,can1 18DAF100 [8] 2E 00 00 01 00 00 A1 0A
1510780669.665164,can1 18DAF100 [8] 2F 00 00 04 00 00 00 00
1510780669.66556,can1 18DAF100 [8] 20 01 07 00 14 00 00 00
1510780669.665955,can1 0CFE6E0B [8] 00 00 00 00 00 00 00 00
1510780669.666415,can1 0CF00400 [8] 38 FE FE FE FE 00 FF FE
1510780669.66683,can1 18F0010B [8] 00 00 00 00 00 00 00 00
1510780669.669394,can1 0CF00203 [8] FF 00 00 FF FF AD 47 03
1510780669.669858,can1 18F00131 [8] 00 00 00 00 00 00 00 00
1510780669.670376,can1 0CF00300 [8] D1 00 FE FF FF FF 00 FF
1510780669.67081,can1 18FEF117 [8] 00 00 00 00 00 00 00 00
1510780669.671213,can1 18FEF100 [8] C3 00 00 D0 00 00 00 30
1510780669.671662,can1 18FEF121 [8] 00 00 00 00 00 00 00 00
1510780669.672136,can1 18FDE000 [8] FF FF FF FF FF FF FF FF
1510780669.672574,can1 18FEBF0B [8] 00 00 7D 7D FE FE FF FF
1510780669.672984,can1 18FEF128 [8] 00 00 00 00 00 00 00 00
1510780669.673376,can1 18FEF131 [8] 00 00 00 00 00 00 00 00
1510780669.673776,can1 18E00017 [8] 00 00 00 00 00 00 00 00
1510780669.674246,can1 18E00019 [8] 00 00 00 00 00 00 00 00
1510780669.674663,can1 18E00021 [8] 00 00 00 00 00 00 00 00
1510780669.675056,can1 18E00028 [8] 00 00 00 00 00 00 00 00
1510780669.675448,can1 18E00031 [8] 00 00 00 00 00 00 00 00
1510780669.675831,can1 18FEF017 [8] 00 00 00 00 00 00 00 00
1510780669.676295,can1 18FEF021 [8] 00 00 00 00 00 00 00 00
1510780669.676697,can1 18FEF028 [8] 00 00 00 00 00 00 00 00
1510780669.679315,can1 18FEF031 [8] 00 00 00 00 00 00 00 00
1510780669.679957,can1 1CFEAB03 [8] FF FF 7E FF FF FF FF FF
1510780669.68044,can1 0CF00400 [8] 38 FE FE FE FE 00 FF FE
1510780669.680868,can1 0CF00203 [8] FF 00 00 FF FF AD 47 03
1510780669.681272,can1 18FEDF00 [8] FE FE FE FF FE FF BF FF
1510780669.68167,can1 18FE4A03 [8] FF FF F3 FF F0 F7 FF FF
1510780669.682164,can1 18F00503 [8] FF 57 9E FF 20 2D 2D 2D
1510780669.682579,can1 18FEEF00 [8] FF FF FF FF FF FF FF FA
1510780669.682989,can1 0CFE6E0B [8] 00 00 00 00 00 00 00 00
1510780669.683392,can1 0CF00400 [8] 38 FE FE FE FE 00 FF FE
1510780669.683848,can1 0CF00203 [8] FF 00 00 FF FF AD 47 03
1510780669.684275,can1 18F00100 [8] FF FF FF FF FA FF FF FF
1510780669.684676,can1 18E0FF00 [8] FF FF FF FF FF F3 FF FF
1510780669.68507,can1 18FCDC00 [8] E0 FE FE FF FF FF FF FF
1510780669.685459,can1 18DA00F1 [8] 03 22 1E FF 00 00 00 00
1510780669.685912,can1 0CF00400 [8] 38 FE FE FE FE 00 FF FE
1510780669.686328,can1 0CF00203 [8] FF 00 00 FF FF AD 47 03
1510780669.689817,can1 18F0000F [8] 00 7D FF FF 0F 7D FF FF
1510780669.690404,can1 18DAF100 [8] 10 1A 62 1E FF C5 00 3F
1510780669.690869,can1 0CFE6E0B [8] 00 00 00 00 00 00 00 00
1510780669.691294,can1 0CF00400 [8] 38 FE FE FE FE 00 FF FE
1510780669.69179,can1 18DA00F1 [8] 30 08 00 00 00 00 00 00
1510780669.692227,can1 0CF00203 [8] FF 00 00 FF FF AD 47 03
1510780669.692631,can1 18FF3000 [8] 00 00 FF FF FF FF FF FF
1510780669.693031,can1 18DAF100 [8] 21 30 F0 4F 7F C4 11 B8
1510780669.693423,can1 18DAF100 [8] 22 00 00 FF 00 C0 0F C0
1510780669.693916,can1 18DAF100 [8] 23 FF 1F 00 FC FC FD C0
1510780669.694322,can1 0CF00400 [8] 38 FE FE FE FE 00 FF FE
1510780669.694726,can1 0CF00203 [8] FF 00 00 FF FF AD 47 03
1510780669.695121,can1 0CF00300 [8] D1 00 FE FF FF FF 00 FF
1510780669.695564,can1 14FFA000 [8] FC FF FF FF FF FF FF FF
1510780669.695982,can1 18FEF200 [8] 00 00 00 00 00 00 FF FF
1510780669.696387,can1 18FEF500 [8] FF FF FF FF FF FF FF FF
1510780669.696785,can1 0CFE6E0B [8] 00 00 00 00 00 00 00 00
1510780669.699444,can1 0CF00400 [8] 38 FE FE FE FE 00 FF FE
1510780669.699965,can1 0CF00203 [8] FF 00 00 FF FF AD 47 03
1510780669.700408,can1 18FEDF00 [8] FE FE FE FF FE FF BF FF
1510780669.700821,can1 18FF6411 [8] F8 FF FF FF FF FF FF FF
1510780669.701227,can1 18FECA11 [8] 03 FF 00 00 00 00 FF FF
1510780669.701721,can1 18DA00F1 [8] 02 10 03 00 00 00 00 00
1510780669.702137,can1 18DAF100 [8] 06 50 03 00 14 00 C8 C0
1510780669.702536,can1 0CF00400 [8] 38 FE FE FE FE 00 FF FE
1510780669.702924,can1 0CF00203 [8] FF 00 00 FF FF AD 47 03
1510780669.703378,can1 18FEEE00 [8] FF FF FF FF FF FF FF FF
1510780669.703809,can1 0CFE6E0B [8] 00 00 00 00 00 00 00 00
1510780669.70422,can1 0CF00400 [8] 38 FE FE FE FE 00 FF FE
1510780669.704619,can1 0CF00203 [8] FF 00 00 FF FF AD 47 03
1510780669.705014,can1 18FEF000 [8] FF FF FF 00 00 FC 00 FF
1510780669.70548,can1 18FEA400 [8] FF FF FF FF 66 B1 A0 5B
1510780669.705892,can1 18FECA03 [8] 03 FF 00 00 00 00 FF FF
1510780669.706296,can1 0CF00400 [8] 38 FE FE FE FE 00 FF FE
1510780669.706691,can1 0CF00203 [8] FF 00 00 FF FF AD 47 03
1510780669.709335,can1 14FD3E00 [8] FF FF FF FF FF FF FF FF
1510780669.709942,can1 18FEE000 [8] A2 01 00 00 A2 01 00 00
1510780669.710411,can1 18F0010B [8] CF FF F0 FF FF DC FF FF
1510780669.710841,can1 0CFE6E0B [8] 00 00 00 00 00 00 00 00
1510780669.711341,can1 0CF00400 [8] 38 FE FE FE FE 00 FF FE
1510780669.711774,can1 18F0010B [8] 00 00 00 00 00 00 00 00
1510780669.712187,can1 0CF00203 [8] FF 00 00 FF FF AD 47 03
1510780669.712586,can1 18F00131 [8] 00 00 00 00 00 00 00 00
1510780669.712989,can1 0CF00300 [8] D1 00 FE FF FF FF 00 FF
1510780669.713492,can1 18FEF117 [8] 00 00 00 00 00 00 00 00
1510780669.713907,can1 18FEF100 [8] C3 00 00 D0 00 00 00 30
1510780669.714304,can1 18FEF121 [8] 00 00 00 00 00 00 00 00
1510780669.7147,can1 18FEBD00 [8] FF FF FF FF FF FF FF FF
1510780669.715157,can1 18FEBF0B [8] 00 00 7D 7D FE FE FF FF
1510780669.715577,can1 18FEF128 [8] 00 00 00 00 00 00 00 00
1510780669.715986,can1 18FEF131 [8] 00 00 00 00 00 00 00 00
1510780669.716381,can1 18E00017 [8] 00 00 00 00 00 00 00 00
1510780669.716769,can1 18E00019 [8] 00 00 00 00 00 00 00 00
1510780669.719378,can1 18E00021 [8] 00 00 00 00 00 00 00 00
1510780669.719879,can1 18E00028 [8] 00 00 00 00 00 00 00 00
1510780669.720317,can1 18E00031 [8] 00 00 00 00 00 00 00 00
1510780669.720723,can1 18FEF017 [8] 00 00 00 00 00 00 00 00
1510780669.721227,can1 0CF00400 [8] 38 FE FE FE FE 00 FF FE
1510780669.721647,can1 18FEF021 [8] 00 00 00 00 00 00 00 00
1510780669.722054,can1 0CF00203 [8] FF 00 00 FF FF AD 47 03
1510780669.72252,can1 18FEF028 [8] 00 00 00 00 00 00 00 00
1510780669.722995,can1 18FEDF00 [8] FE FE FE FF FE FF BF FF
1510780669.723425,can1 18FEF031 [8] 00 00 00 00 00 00 00 00
1510780669.723835,can1 18FE4A03 [8] FF FF F3 FF F0 F7 FF FF
1510780669.724233,can1 18F00503 [8] FF 57 9E FF 20 2D 2D 2D
1510780669.724625,can1 18FF7400 [8] 82 03 FF FF FF FF FF FF
1510780669.725105,can1 0CFE6E0B [8] 00 00 00 00 00 00 00 00
1510780669.725509,can1 0CF00400 [8] 38 FE FE FE FE 00 FF FE
1510780669.725913,can1 0CF00203 [8] FF 00 00 FF FF AD 47 03
1510780669.726303,can1 18F00100 [8] FF FF FF FF FA FF FF FF
1510780669.726757,can1 18FD7C00 [8] FF FF D0 34 FD FF FF FF
1510780669.729938,can1 0CF00400 [8] 38 FE FE FE FE 00 FF FE
1510780669.730489,can1 0CF00203 [8] FF 00 00 FF FF AD 47 03
1510780669.731239,can1 18F0000F [8] 00 7D FF FF 0F 7D FF FF
1510780669.7318,can1 18FEF600 [8] FF 00 FF FF FF FF FF FF
1510780669.732311,can1 18FEE400 [8] 00 3F FD FF 00 7F FF FF
1510780669.732858,can1 0CFE6E0B [8] 00 00 00 00 00 00 00 00
1510780669.733368,can1 0CF00400 [8] 38 FE FE FE FE 00 FF FE
1510780669.733854,can1 0CF00203 [8] FF 00 00 FF FF AD 47 03
1510780669.734271,can1 18FF3000 [8] 00 00 FF FF FF FF FF FF
1510780669.734812,can1 0CF00400 [8] 38 FE FE FE FE 00 FF FE
1510780669.73531,can1 0CF00203 [8] FF 00 00 FF FF AD 47 03
1510780669.735792,can1 0CF00300 [8] D1 00 FE FF FF FF 00 FF
1510780669.736264,can1 14FFA000 [8] FC FF FF FF FF FF FF FF
1510780669.736799,can1 18FEF200 [8] 00 00 00 00 00 00 FF FF
1510780669.739404,can1 0CFE6E0B [8] 00 00 00 00 00 00 00 00
1510780669.739955,can1 0CF00400 [8] 38 FE FE FE FE 00 FF FE
1510780669.740531,can1 0CF00203 [8] FF 00 00 FF FF AD 47 03
1510780669.741055,can1 18FEDF00 [8] FE FE FE FF FE FF BF FF
1510780669.741547,can1 18FE5600 [8] FF FF FF FF FF FF FF FF
1510780669.742019,can1 0CF00400 [8] 38 FE FE FE FE 00 FF FE
1510780669.742566,can1 0CF00203 [8] FF 00 00 FF FF AD 47 03
1510780669.743058,can1 18FEC100 [8] CC 28 00 00 CC 28 00 00
1510780669.743484,can1 0CFE6E0B [8] 00 00 00 00 00 00 00 00
1510780669.743957,can1 0CF00400 [8] 38 FE FE FE FE 00 FF FE
1510780669.744497,can1 0CF00203 [8] FF 00 00 FF FF AD 47 03
1510780669.744994,can1 18FEF000 [8] FF FF FF 00 00 FC 00 FF
1510780669.745473,can1 18FEF700 [8] FF FF FF FF EE 00 EE 00
1510780669.745945,can1 18DA00F1 [8] 03 22 1D FF 00 00 00 00
1510780669.746492,can1 0CF00400 [8] 38 FE FE FE FE 00 FF FE
1510780669.748949,can1 0CF00203 [8] FF 00 00 FF FF AD 47 03
1510780669.749547,can1 18FEE000 [8] A2 01 00 00 A2 01 00 00
1510780669.750069,can1 18FEF803 [8] FF FF FF FF FF FF FF FF
1510780669.750656,can1 18F0010B [8] CF FF F0 FF FF DC FF FF
1510780669.751153,can1 18DAF100 [8] 10 E3 62 1D FF 00 00 01
1510780669.75158,can1 0CFE6E0B [8] 00 00 00 00 00 00 00 00
1510780669.75211,can1 0CF00400 [8] 38 FE FE FE FE 00 FF FE
1510780669.754153,can1 18DA00F1 [8] 30 08 00 00 00 00 00 00
1510780669.754853,can1 0CF00203 [8] FF 00 00 FF FF AD 47 03
1510780669.7554,can1 18F0010B [8] 00 00 00 00 00 00 00 00
1510780669.756189,can1 0CF00300 [8] D1 00 FE FF FF FF 00 FF
1510780669.756758,can1 18F00131 [8] 00 00 00 00 00 00 00 00
1510780669.759566,can1 18FEF100 [8] C3 00 00 D0 00 00 00 30
1510780669.76021,can1 18FEF117 [8] 00 00 00 00 00 00 00 00
1510780669.760751,can1 18DAF100 [8] 21 F3 00 00 01 F4 00 00
1510780669.761242,can1 18FEBF0B [8] 00 00 7D 7D FE FE FF FF
1510780669.761728,can1 18DAF100 [8] 22 FF 38 00 00 00 12 00
1510780669.762287,can1 18FEF121 [8] 00 00 00 00 00 00 00 00
1510780669.762729,can1 18DAF100 [8] 23 00 00 00 00 00 FF FF
1510780669.763209,can1 18FEF128 [8] 00 00 00 00 00 00 00 00
1510780669.763616,can1 18DAF100 [8] 24 01 C1 64 00 00 FF FF
1510780669.764149,can1 18E00017 [8] 00 00 00 00 00 00 00 00
1510780669.764578,can1 18DAF100 [8] 25 FF 04 A4 04 A4 00 64
1510780669.765055,can1 18E00019 [8] 00 00 00 00 00 00 00 00
1510780669.765521,can1 0CF00400 [8] 38 FE FE FE FE 00 FF FE
1510780669.766043,can1 18E00021 [8] 00 00 00 00 00 00 00 00
1510780669.766533,can1 0CF00203 [8] FF 00 00 FF FF AD 47 03
1510780669.769047,can1 18E00028 [8] 00 00 00 00 00 00 00 00
1510780669.769629,can1 18FEDF00 [8] FE FE FE FF FE FF BF FF
1510780669.77025,can1 18E00031 [8] 00 00 00 00 00 00 00 00
1510780669.770753,can1 18FE4A03 [8] FF FF F3 FF F0 F7 FF FF
1510780669.771232,can1 18FEF017 [8] 00 00 00 00 00 00 00 00
1510780669.771718,can1 18F00503 [8] FF 57 9E FF 20 2D 2D 2D
1510780669.772154,can1 18FEF021 [8] 00 00 00 00 00 00 00 00
1510780669.772566,can1 18DAF100 [8] 26 0F 02 94 FF 38 02 94
1510780669.407296,can0 08FF0001 [8] 00 00 00 00 00 00 00 00
1510780669.421135,can0 0CF00203 [8] 00 00 00 00 00 00 00 00
1510780669.434058,can0 08FF0303 [8] 00 00 00 00 00 00 00 00
1510780669.451789,can0 08FF0001 [8] 00 00 00 00 00 00 00 00
1510780669.456248,can0 0CF00203 [8] 00 00 00 00 00 00 00 00
1510780669.466214,can0 08FF0303 [8] 00 00 00 00 00 00 00 00
1510780669.468618,can0 08FF0001 [8] 00 00 00 00 00 00 00 00
1510780669.479287,can0 0CF00203 [8] 00 00 00 00 00 00 00 00
1510780669.488972,can0 08FF0303 [8] 00 00 00 00 00 00 00 00
1510780669.490637,can0 08FF0001 [8] 00 00 00 00 00 00 00 00
1510780669.492001,can0 0CF00203 [8] 00 00 00 00 00 00 00 00
1510780669.501849,can0 08FF0303 [8] 00 00 00 00 00 00 00 00
1510780669.503714,can0 08FF0001 [8] 00 00 00 00 00 00 00 00
1510780669.513313,can0 0CF00203 [8] 00 00 00 00 00 00 00 00
1510780669.515249,can0 08FF0303 [8] 00 00 00 00 00 00 00 00
1510780669.525164,can0 08FF0001 [8] 00 00 00 00 00 00 00 00
1510780669.527098,can0 0CF00203 [8] 00 00 00 00 00 00 00 00
1510780669.534947,can0 08FF0303 [8] 00 00 00 00 00 00 00 00
1510780669.537026,can0 18F00503 [8] 00 00 00 00 00 00 00 00
1510780669.547864,can0 08FF0001 [8] 00 00 00 00 00 00 00 00
1510780669.548486,can0 0CF00203 [8] 00 00 00 00 00 00 00 00
1510780669.549089,can0 08FF0303 [8] 00 00 00 00 00 00 00 00
1510780669.549623,can0 08FF0001 [8] 00 00 00 00 00 00 00 00
1510780669.550118,can0 0CF00203 [8] 00 00 00 00 00 00 00 00
1510780669.550535,can0 08FF0303 [8] 00 00 00 00 00 00 00 00
1510780669.562843,can0 08FF0001 [8] 00 00 00 00 00 00 00 00
1510780669.563621,can0 0CF00203 [8] 00 00 00 00 00 00 00 00
1510780669.564131,can0 08FF0303 [8] 00 00 00 00 00 00 00 00
1510780669.564651,can0 08FF0001 [8] 00 00 00 00 00 00 00 00
1510780669.565121,can0 0CF00203 [8] 00 00 00 00 00 00 00 00
1510780669.565545,can0 08FF0303 [8] 00 00 00 00 00 00 00 00
1510780669.565948,can0 08FF0001 [8] 00 00 00 00 00 00 00 00
1510780669.566346,can0 0CF00203 [8] 00 00 00 00 00 00 00 00
1510780669.574942,can0 08FF0303 [8] 00 00 00 00 00 00 00 00
1510780669.575579,can0 08FF0001 [8] 00 00 00 00 00 00 00 00
1510780669.576042,can0 0CF00203 [8] 00 00 00 00 00 00 00 00
1510780669.576583,can0 08FF0303 [8] 00 00 00 00 00 00 00 00
1510780669.577118,can0 08FF0001 [8] 00 00 00 00 00 00 00 00
1510780669.577667,can0 0CF00203 [8] 00 00 00 00 00 00 00 00
1510780669.578224,can0 08FF0303 [8] 00 00 00 00 00 00 00 00
1510780669.587085,can0 08FF0001 [8] 00 00 00 00 00 00 00 00
1510780669.587731,can0 0CF00203 [8] 00 00 00 00 00 00 00 00
1510780669.588373,can0 08FF0303 [8] 00 00 00 00 00 00 00 00
1510780669.588904,can0 08FF0001 [8] 00 00 00 00 00 00 00 00
1510780669.58939,can0 0CF00203 [8] 00 00 00 00 00 00 00 00
1510780669.589815,can0 08FF0303 [8] 00 00 00 00 00 00 00 00
1510780669.59868,can0 08FF0001 [8] 00 00 00 00 00 00 00 00
1510780669.59926,can0 0CF00203 [8] 00 00 00 00 00 00 00 00
1510780669.599789,can0 08FF0303 [8] 00 00 00 00 00 00 00 00
1510780669.60026,can0 18F00503 [8] 00 00 00 00 00 00 00 00
1510780669.600685,can0 08FF0001 [8] 00 00 00 00 00 00 00 00
1510780669.601088,can0 0CF00203 [8] 00 00 00 00 00 00 00 00
1510780669.601481,can0 08FF0303 [8] 00 00 00 00 00 00 00 00
1510780669.610067,can0 08FF0001 [8] 00 00 00 00 00 00 00 00
1510780669.610706,can0 0CF00203 [8] 00 00 00 00 00 00 00 00
1510780669.611213,can0 08FF0303 [8] 00 00 00 00 00 00 00 00
1510780669.611741,can0 08FF0001 [8] 00 00 00 00 00 00 00 00
1510780669.612185,can0 0CF00203 [8] 00 00 00 00 00 00 00 00
1510780669.612593,can0 08FF0303 [8] 00 00 00 00 00 00 00 00
1510780669.612991,can0 08FF0001 [8] 00 00 00 00 00 00 00 00
1510780669.613438,can0 0CF00203 [8] 00 00 00 00 00 00 00 00
1510780669.622072,can0 08FF0303 [8] 00 00 00 00 00 00 00 00
1510780669.622695,can0 08FF0001 [8] 00 00 00 00 00 00 00 00
1510780669.623221,can0 0CF00203 [8] 00 00 00 00 00 00 00 00
1510780669.623689,can0 08FF0303 [8] 00 00 00 00 00 00 00 00
1510780669.624116,can0 08FF0001 [8] 00 00 00 00 00 00 00 00
1510780669.62452,can0 0CF00203 [8] 00 00 00 00 00 00 00 00
1510780669.624911,can0 08FF0303 [8] 00 00 00 00 00 00 00 00
1510780669.631223,can0 08FF0001 [8] 00 00 00 00 00 00 00 00
1510780669.631908,can0 0CF00203 [8] 00 00 00 00 00 00 00 00
1510780669.632452,can0 08FF0303 [8] 00 00 00 00 00 00 00 00
1510780669.641024,can0 08FF0001 [8] 00 00 00 00 00 00 00 00
1510780669.641927,can0 0CF00203 [8] 00 00 00 00 00 00 00 00
1510780669.642537,can0 08FF0303 [8] 00 00 00 00 00 00 00 00
1510780669.643174,can0 08FF0001 [8] 00 00 00 00 00 00 00 00
1510780669.643617,can0 0CF00203 [8] 00 00 00 00 00 00 00 00
1510780669.644029,can0 08FF0303 [8] 00 00 00 00 00 00 00 00
1510780669.644425,can0 08FF0001 [8] 00 00 00 00 00 00 00 00
1510780669.650981,can0 0CF00203 [8] 00 00 00 00 00 00 00 00
1510780669.651638,can0 08FF0303 [8] 00 00 00 00 00 00 00 00
1510780669.652112,can0 18F00503 [8] 00 00 00 00 00 00 00 00
1510780669.652634,can0 08FF0001 [8] 00 00 00 00 00 00 00 00
1510780669.653093,can0 0CF00203 [8] 00 00 00 00 00 00 00 00
1510780669.653505,can0 08FF0303 [8] 00 00 00 00 00 00 00 00
1510780669.653901,can0 08FF0001 [8] 00 00 00 00 00 00 00 00
1510780669.654291,can0 0CF00203 [8] 00 00 00 00 00 00 00 00
1510780669.658876,can0 08FF0303 [8] 00 00 00 00 00 00 00 00
1510780669.659447,can0 08FF0001 [8] 00 00 00 00 00 00 00 00
1510780669.659953,can0 0CF00203 [8] 00 00 00 00 00 00 00 00
1510780669.660464,can0 08FF0303 [8] 00 00 00 00 00 00 00 00
1510780669.667211,can0 08FF0001 [8] 00 00 00 00 00 00 00 00
1510780669.667839,can0 0CF00203 [8] 00 00 00 00 00 00 00 00
1510780669.668468,can0 08FF0303 [8] 00 00 00 00 00 00 00 00
1510780669.677198,can0 08FF0001 [8] 00 00 00 00 00 00 00 00
1510780669.677971,can0 0CF00203 [8] 00 00 00 00 00 00 00 00
1510780669.678595,can0 08FF0303 [8] 00 00 00 00 00 00 00 00
1510780669.687293,can0 08FF0001 [8] 00 00 00 00 00 00 00 00
1510780669.688205,can0 0CF00203 [8] 00 00 00 00 00 00 00 00
1510780669.688767,can0 08FF0303 [8] 00 00 00 00 00 00 00 00
1510780669.697268,can0 08FF0001 [8] 00 00 00 00 00 00 00 00
1510780669.69802,can0 0CF00203 [8] 00 00 00 00 00 00 00 00
1510780669.698602,can0 08FF0303 [8] 00 00 00 00 00 00 00 00
1510780669.70727,can0 08FF0001 [8] 00 00 00 00 00 00 00 00
1510780669.707917,can0 0CF00203 [8] 00 00 00 00 00 00 00 00
1510780669.708481,can0 08FF0303 [8] 00 00 00 00 00 00 00 00
1510780669.717292,can0 08FF0001 [8] 00 00 00 00 00 00 00 00
1510780669.717949,can0 0CF00203 [8] 00 00 00 00 00 00 00 00
1510780669.718522,can0 08FF0303 [8] 00 00 00 00 00 00 00 00
1510780669.727162,can0 08FF0001 [8] 00 00 00 00 00 00 00 00
1510780669.727807,can0 0CF00203 [8] 00 00 00 00 00 00 00 00
1510780669.728368,can0 08FF0303 [8] 00 00 00 00 00 00 00 00
1510780669.728982,can0 18F00503 [8] 00 00 00 00 00 00 00 00
1510780669.737232,can0 08FF0001 [8] 00 00 00 00 00 00 00 00
1510780669.737895,can0 0CF00203 [8] 00 00 00 00 00 00 00 00
1510780669.738525,can0 08FF0303 [8] 00 00 00 00 00 00 00 00
1510780669.747214,can0 08FF0001 [8] 00 00 00 00 00 00 00 00
1510780669.74784,can0 0CF00203 [8] 00 00 00 00 00 00 00 00
1510780669.748452,can0 08FF0303 [8] 00 00 00 00 00 00 00 00
1510780669.757252,can0 08FF0001 [8] 00 00 00 00 00 00 00 00
1510780669.758019,can0 0CF00203 [8] 00 00 00 00 00 00 00 00
1510780669.758629,can0 08FF0303 [8] 00 00 00 00 00 00 00 00
1510780669.767226,can0 08FF0001 [8] 00 00 00 00 00 00 00 00
1510780669.76795,can0 0CF00203 [8] 00 00 00 00 00 00 00 00
1510780669.768528,can0 08FF0303 [8] 00 00 00 00 00 00 00 00
1510780669.777284,can0 08FF0001 [8] 00 00 00 00 00 00 00 00
1510780669.778038,can0 0CF00203 [8] 00 00 00 00 00 00 00 00
1510780669.778646,can0 08FF0303 [8] 00 00 00 00 00 00 00 00
1510780669.787269,can0 08FF0001 [8] 00 00 00 00 00 00 00 00
1510780669.787905,can0 0CF00203 [8] 00 00 00 00 00 00 00 00
1510780669.788466,can0 08FF0303 [8] 00 00 00 00 00 00 00 00
1510780669.797238,can0 08FF0001 [8] 00 00 00 00 00 00 00 00
1510780669.797874,can0 0CF00203 [8] 00 00 00 00 00 00 00 00
1510780669.798444,can0 08FF0303 [8] 00 00 00 00 00 00 00 00
1510780669.807255,can0 08FF0001 [8] 00 00 00 00 00 00 00 00
1510780669.807915,can0 0CF00203 [8] 00 00 00 00 00 00 00 00
1510780669.773449,can1 18FEF028 [8] 00 00 00 00 00 00 00 00
1510780669.774084,can1 18DAF100 [8] 27 09 83 02 94 FF 38 FF
1510780669.774537,can1 18FEF031 [8] 00 00 00 00 00 00 00 00
1510780669.774957,can1 18DAF100 [8] 28 38 00 00 02 58 02 58
1510780669.77536,can1 18FEF131 [8] 00 00 00 00 00 00 00 00
1510780669.775846,can1 0CF00400 [8] 38 FE FE FE FE 00 FF FE
1510780669.776264,can1 0CFE6E0B [8] 00 00 00 00 00 00 00 00
1510780669.776672,can1 0CF00203 [8] FF 00 00 FF FF AD 47 03
1510780669.779319,can1 18DA00F1 [8] 30 08 00 00 00 00 00 00
1510780669.77999,can1 18F00100 [8] FF FF FF FF FA FF FF FF
1510780669.780455,can1 18FEF521 [8] 00 00 00 00 00 00 00 00
1510780669.780874,can1 18DAF100 [8] 29 0F A0 00 00 00 00 FF
1510780669.781283,can1 18DAF100 [8] 2A FF FF FF FF FF FF 00
1510780669.781769,can1 18DAF100 [8] 2B FF 00 00 68 00 0F A0
1510780669.782183,can1 18DAF100 [8] 2C 0F A0 0F A0 1F FA 00
1510780669.782582,can1 18DAF100 [8] 2D 00 00 00 00 A0 08 03
1510780669.782973,can1 18DAF100 [8] 2E 03 03 00 14 03 01 0A
1510780669.78342,can1 18DAF100 [8] 2F 00 00 00 00 00 00 00
1510780669.783845,can1 18DAF100 [8] 20 00 00 00 00 00 00 00
1510780669.784247,can1 18DA00F1 [8] 30 08 00 00 00 00 00 00
1510780669.784643,can1 18DAF100 [8] 21 00 00 00 01 00 05 00
1510780669.785031,can1 18DAF100 [8] 22 00 00 0A 00 01 00 00
1510780669.785501,can1 0CF00400 [8] 38 FE FE FE FE 00 FF FE
1510780669.785922,can1 0CF00203 [8] FF 00 00 FF FF AD 47 03
1510780669.78632,can1 18F0000F [8] 00 7D FF FF 0F 7D FF FF
1510780669.786713,can1 18DAF100 [8] 23 00 00 00 03 00 00 00
1510780669.789235,can1 18DAF100 [8] 24 01 F4 B5 08 20 B6 03
1510780669.789771,can1 18DAF100 [8] 25 7F C6 04 D8 E1 06 95
1510780669.790208,can1 18DAF100 [8] 26 D5 08 63 09 B0 FE FE
1510780669.790622,can1 18DAF100 [8] 27 FE 00 00 FF 00 01 00
1510780669.79102,can1 18DAF100 [8] 28 00 06 00 06 06 06 06
1510780669.791516,can1 18DA00F1 [8] 30 08 00 00 00 00 00 00
1510780669.791936,can1 18DAF100 [8] 29 00 01 FF 61 A8 0A F4
1510780669.792342,can1 18DAF100 [8] 2A 00 00 00 03 00 02 00
1510780669.792732,can1 18DAF100 [8] 2B 01 00 09 00 02 00 00
1510780669.793185,can1 18DAF100 [8] 2C 00 00 00 00 00 01 00
1510780669.793614,can1 0CFE6E0B [8] 00 00 00 00 00 00 00 00
1510780669.794019,can1 18DAF100 [8] 2D 00 52 00 00 00 1D 00
1510780669.794415,can1 0CF00400 [8] 38 FE FE FE FE 00 FF FE
1510780669.794805,can1 0CF00203 [8] FF 00 00 FF FF AD 47 03
1510780669.795266,can1 18FF3000 [8] 00 00 FF FF FF FF FF FF
1510780669.795689,can1 18DAF100 [8] 2E 00 00 01 00 00 A1 0A
1510780669.796083,can1 18DAF100 [8] 2F 00 00 04 00 00 00 00
1510780669.796478,can1 18DAF100 [8] 20 01 07 00 14 00 00 00
1510780669.798915,can1 0CF00400 [8] 38 FE FE FE FE 00 FF FE
1510780669.799518,can1 0CF00203 [8] FF 00 00 FF FF AD 47 03
1510780669.799975,can1 0CF00300 [8] D1 00 FE FF FF FF 00 FF
1510780669.800394,can1 14FFA000 [8] FC FF FF FF FF FF FF FF
1510780669.800799,can1 18FEF200 [8] 00 00 00 00 00 00 FF FF
1510780669.8013,can1 0CFE6E0B [8] 00 00 00 00 00 00 00 00
1510780669.801719,can1 0CF00400 [8] 38 FE FE FE FE 00 FF FE
1510780669.802127,can1 0CF00203 [8] FF 00 00 FF FF AD 47 03
1510780669.802512,can1 18FEDF00 [8] FE FE FE FF FE FF BF FF
1510780669.802963,can1 18DA00F1 [8] 03 22 1E FF 00 00 00 00
1510780669.803385,can1 0CF00400 [8] 38 FE FE FE FE 00 FF FE
1510780669.803795,can1 0CF00203 [8] FF 00 00 FF FF AD 47 03
1510780669.8099,can1 0CFE6E0B [8] 00 00 00 00 00 00 00 00
1510780669.810473,can1 0CF00400 [8] 38 FE FE FE FE 00 FF FE
1510780669.811028,can1 0CF00203 [8] FF 00 00 FF FF AD 47 03
1510780669.811494,can1 18FEF000 [8] FF FF FF 00 00 FC 00 FF
1510780669.819364,can1 18DAF100 [8] 10 1A 62 1E FF C5 00 3F
1510780669.819992,can1 0CF00400 [8] 38 FE FE FE FE 00 FF FE
1510780669.820613,can1 0CF00203 [8] FF 00 00 FF FF AD 47 03
1510780669.821155,can1 18DA00F1 [8] 30 08 00 00 00 00 00 00
1510780669.821583,can1 18FEE000 [8] A2 01 00 00 A2 01 00 00
1510780669.821981,can1 18DAF100 [8] 21 30 F0 4F 7F C4 11 B8
1510780669.822571,can1 18DAF100 [8] 22 00 00 FF 00 C0 0F C0
1510780669.823074,can1 18DAF100 [8] 23 FF 1F 00 FC FC FD C0
1510780669.823509,can1 18F0010B [8] CF FF F0 FF FF DC FF FF
1510780669.829751,can1 0CFE6E0B [8] 00 00 00 00 00 00 00 00
1510780669.830482,can1 0CF00400 [8] 38 FE FE FE FE 00 FF FE
1510780669.831148,can1 18F0010B [8] 00 00 00 00 00 00 00 00
1510780669.831735,can1 0CF00203 [8] FF 00 00 FF FF AD 47 03
1510780669.83231,can1 18F00131 [8] 00 00 00 00 00 00 00 00
1510780669.832834,can1 0CF00300 [8] D1 00 FE FF FF FF 00 FF
1510780669.833326,can1 18FEF117 [8] 00 00 00 00 00 00 00 00
1510780669.833758,can1 18FEF100 [8] C3 00 00 D0 00 00 00 30
1510780669.834308,can1 18FEF121 [8] 00 00 00 00 00 00 00 00
1510780669.83481,can1 18FEF128 [8] 00 00 00 00 00 00 00 00
1510780669.835289,can1 18FEBF0B [8] 00 00 7D 7D FE FE FF FF
1510780669.835759,can1 18E00017 [8] 00 00 00 00 00 00 00 00
1510780669.836289,can1 18FEF131 [8] 00 00 00 00 00 00 00 00
1510780669.83673,can1 18E00019 [8] 00 00 00 00 00 00 00 00
1510780669.839383,can1 18E00021 [8] 00 00 00 00 00 00 00 00
1510780669.839934,can1 18E00028 [8] 00 00 00 00 00 00 00 00
1510780669.840532,can1 18E00031 [8] 00 00 00 00 00 00 00 00
1510780669.841027,can1 18FEF017 [8] 00 00 00 00 00 00 00 00
1510780669.841506,can1 0CF00400 [8] 38 FE FE FE FE 00 FF FE
1510780669.841977,can1 18FEF021 [8] 00 00 00 00 00 00 00 00
1510780669.842416,can1 0CF00203 [8] FF 00 00 FF FF AD 47 03
1510780669.842834,can1 18FEF028 [8] 00 00 00 00 00 00 00 00
1510780669.843231,can1 18FEDF00 [8] FE FE FE FF FE FF BF FF
1510780669.843618,can1 18FEF031 [8] 00 00 00 00 00 00 00 00
1510780669.84425,can1 18FE4A03 [8] FF FF F3 FF F0 F7 FF FF
1510780669.844717,can1 18F00503 [8] FF 57 9E FF 20 2D 2D 2D
1510780669.845152,can1 18DA00F1 [8] 02 10 03 00 00 00 00 00
1510780669.849133,can1 18DAF100 [8] 06 50 03 00 14 00 C8 C0
1510780669.849821,can1 0CFE6E0B [8] 00 00 00 00 00 00 00 00
1510780669.850318,can1 0CF00400 [8] 38 FE FE FE FE 00 FF FE
1510780669.852119,can1 0CF00203 [8] FF 00 00 FF FF AD 47 03
1510780669.853443,can1 18F00100 [8] FF FF FF FF FA FF FF FF
1510780669.859437,can1 0CF00400 [8] 38 FE FE FE FE 00 FF FE
1510780669.860089,can1 0CF00203 [8] FF 00 00 FF FF AD 47 03
1510780669.860547,can1 18F0000F [8] 00 7D FF FF 0F 7D FF FF
1510780669.869177,can1 0CFE6E0B [8] 00 00 00 00 00 00 00 00
1510780669.869792,can1 0CF00400 [8] 38 FE FE FE FE 00 FF FE
1510780669.870246,can1 0CF00203 [8] FF 00 00 FF FF AD 47 03
1510780669.87067,can1 18FF3000 [8] 00 00 FF FF FF FF FF FF
1510780669.879222,can1 0CF00400 [8] 38 FE FE FE FE 00 FF FE
1510780669.879827,can1 0CF00203 [8] FF 00 00 FF FF AD 47 03
1510780669.880289,can1 0CF00300 [8] D1 00 FE FF FF FF 00 FF
1510780669.880716,can1 14FFA000 [8] FC FF FF FF FF FF FF FF
1510780669.881193,can1 18FEF200 [8] 00 00 00 00 00 00 FF FF
1510780669.889112,can1 0CFE6E0B [8] 00 00 00 00 00 00 00 00
1510780669.889662,can1 0CF00400 [8] 38 FE FE FE FE 00 FF FE
1510780669.890113,can1 0CF00203 [8] FF 00 00 FF FF AD 47 03
1510780669.890522,can1 18FEDF00 [8] FE FE FE FF FE FF BF FF
1510780669.899081,can1 0CF00400 [8] 38 FE FE FE FE 00 FF FE
1510780669.899607,can1 0CF00203 [8] FF 00 00 FF FF AD 47 03
1510780669.909831,can1 0CFE6E0B [8] 00 00 00 00 00 00 00 00
1510780669.910496,can1 0CF00400 [8] 38 FE FE FE FE 00 FF FE
1510780669.910998,can1 0CF00203 [8] FF 00 00 FF FF AD 47 03
1510780669.911435,can1 18FEF000 [8] FF FF FF 00 00 FC 00 FF
1510780669.913631,can1 18EA00F9 [3] 00 9E 00
1510780669.919258,can1 0CF00400 [8] 38 FE FE FE FE 00 FF FE
1510780669.919797,can1 18E8FF00 [8] 01 FF FF FF F9 00 9E 00
1510780669.920332,can1 0CF00203 [8] FF 00 00 FF FF AD 47 03
1510780669.920779,can1 18FEE000 [8] A2 01 00 00 A2 01 00 00
1510780669.922862,can1 18F0010B [8] CF FF F0 FF FF DC FF FF
1510780669.929691,can1 0CFE6E0B [8] 00 00 00 00 00 00 00 00
1510780669.930426,can1 0CF00400 [8] 38 FE FE FE FE 00 FF FE
1510780669.930902,can1 18F0010B [8] 00 00 00 00 00 00 00 00
1510780669.93162,can1 0CF00203 [8] FF 00 00 FF FF AD 47 03
1510780669.932226,can1 18F00131 [8] 00 00 00 00 00 00 00 00
1510780669.932679,can1 0CF00300 [8] D1 00 FE FF FF FF 00 FF
1510780669.933777,can1 18FEF117 [8] 00 00 00 00 00 00 00 00
1510780669.934411,can1 18FEF100 [8] C3 00 00 D0 00 00 00 30
1510780669.934944,can1 18FEF121 [8] 00 00 00 00 00 00 00 00
1510780669.935449,can1 18FEF128 [8] 00 00 00 00 00 00 00 00
1510780669.936016,can1 18FEBF0B [8] 00 00 7D 7D FE FE FF FF
1510780669.936514,can1 18E00017 [8] 00 00 00 00 00 00 00 00
1510780669.945684,can1 18FEF131 [8] 00 00 00 00 00 00 00 00
1510780669.946379,can1 18E00019 [8] 00 00 00 00 00 00 00 00
1510780669.946881,can1 18E00021 [8] 00 00 00 00 00 00 00 00
1510780669.949794,can1 18E00028 [8] 00 00 00 00 00 00 00 00
1510780669.950285,can1 18E00031 [8] 00 00 00 00 00 00 00 00
1510780669.950715,can1 18FEF017 [8] 00 00 00 00 00 00 00 00
1510780669.951131,can1 18FEF021 [8] 00 00 00 00 00 00 00 00
1510780669.951633,can1 0CF00400 [8] 38 FE FE FE FE 00 FF FE
1510780669.952055,can1 18FEF028 [8] 00 00 00 00 00 00 00 00
1510780669.952469,can1 0CF00203 [8] FF 00 00 FF FF AD 47 03
1510780669.952863,can1 18FEF031 [8] 00 00 00 00 00 00 00 00
1510780669.955998,can1 18FEDF00 [8] FE FE FE FF FE FF BF FF
1510780669.956633,can1 18FE4A03 [8] FF FF F3 FF F0 F7 FF FF
1510780669.963414,can1 18F00503 [8] FF 57 9E FF 20 2D 2D 2D
1510780669.964045,can1 0CFE6E0B [8] 00 00 00 00 00 00 00 00
1510780669.964515,can1 0CF00400 [8] 38 FE FE FE FE 00 FF FE
1510780669.965023,can1 0CF00203 [8] FF 00 00 FF FF AD 47 03
1510780669.965493,can1 18F00100 [8] FF FF FF FF FA FF FF FF
1510780669.965916,can1 0CF00400 [8] 38 FE FE FE FE 00 FF FE
1510780669.966319,can1 0CF00203 [8] FF 00 00 FF FF AD 47 03
1510780669.966727,can1 18F0000F [8] 00 7D FF FF 0F 7D FF FF
1510780669.973279,can1 18FD0700 [8] 47 F4 C0 FF FF FF FF FF
1510780669.973872,can1 18DA00F1 [8] 03 22 1D FF 00 00 00 00
1510780669.974336,can1 0CFE6E0B [8] 00 00 00 00 00 00 00 00
1510780669.974838,can1 0CF00400 [8] 38 FE FE FE FE 00 FF FE
1510780669.97529,can1 0CF00203 [8] FF 00 00 FF FF AD 47 03
1510780669.975708,can1 18FF3000 [8] 00 00 FF FF FF FF FF FF
1510780669.97933,can1 18DAF100 [8] 10 E3 62 1D FF 00 00 01
1510780669.979954,can1 0CF00400 [8] 38 FE FE FE FE 00 FF FE
1510780669.980479,can1 0CF00203 [8] FF 00 00 FF FF AD 47 03
1510780669.98107,can1 18DA00F1 [8] 30 08 00 00 00 00 00 00
1510780669.981574,can1 0CF00300 [8] D1 00 FE FF FF FF 00 FF
1510780669.98201,can1 14FFA000 [8] FC FF FF FF FF FF FF FF
1510780669.982493,can1 18FEF200 [8] 00 00 00 00 00 00 FF FF
1510780669.989441,can1 18DAF100 [8] 21 F2 00 00 01 F3 00 00
1510780669.990065,can1 18DAF100 [8] 22 FF 38 00 00 00 12 00
1510780669.990669,can1 18DAF100 [8] 23 00 00 00 00 00 FF FF
1510780669.991186,can1 18DAF100 [8] 24 01 C1 64 00 00 FF FF
1510780669.991682,can1 18DAF100 [8] 25 FF 04 A4 04 A4 00 64
1510780669.992166,can1 18DAF100 [8] 26 0F 02 94 FF 38 02 94
1510780669.996811,can1 18DAF100 [8] 27 09 83 02 94 FF 38 FF
1510780669.999718,can1 18DAF100 [8] 28 38 00 00 02 58 02 58
1510780670.000356,can1 18DA00F1 [8] 30 08 00 00 00 00 00 00
1510780670.000894,can1 18DAF100 [8] 29 0F A0 00 00 00 00 FF
1510780670.001322,can1 0CFE6E0B [8] 00 00 00 00 00 00 00 00
1510780670.001789,can1 0CF00400 [8] 38 FE FE FE FE 00 FF FE
1510780670.006362,can1 0CF00203 [8] FF 00 00 FF FF AD 47 03
1510780670.009294,can1 18FEDF00 [8] FE FE FE FF FE FF BF FF
1510780670.009851,can1 18DAF100 [8] 2A FF FF FF FF FF FF 00
1510780670.010415,can1 18DAF100 [8] 2B FF 00 00 68 00 0F A0
1510780670.010848,can1 18DAF100 [8] 2C 0F A0 0F A0 1F FA 00
1510780670.011259,can1 18DAF100 [8] 2D 00 00 00 00 A0 08 03
1510780670.011651,can1 18DAF100 [8] 2E 03 03 00 14 03 01 0A
1510780670.012141,can1 18DAF100 [8] 2F 00 00 00 00 00 00 00
1510780670.012568,can1 18DAF100 [8] 20 00 00 00 00 00 00 00
1510780670.012972,can1 18DA00F1 [8] 30 08 00 00 00 00 00 00
1510780670.013366,can1 18DAF100 [8] 21 00 00 00 01 00 05 00
1510780670.013757,can1 18DAF100 [8] 22 00 00 0A 00 01 00 00
1510780670.01423,can1 18DAF100 [8] 23 00 00 00 03 00 00 00
1510780670.01463,can1 18DAF100 [8] 24 01 F4 B5 08 20 B6 03
1510780670.015023,can1 0CF00400 [8] 38 FE FE FE FE 00 FF FE
1510780670.015413,can1 0CF00203 [8] FF 00 00 FF FF AD 47 03
1510780670.015863,can1 18DAF100 [8] 25 7F C6 04 D8 E1 06 95
1510780670.016282,can1 18DAF100 [8] 26 D5 08 63 09 B0 FE FE
1510780670.01668,can1 18DAF100 [8] 27 FE 00 00 FF 00 01 00
1510780670.019161,can1 18DAF100 [8] 28 00 06 00 06 06 06 06
1510780670.019742,can1 18DA00F1 [8] 30 08 00 00 00 00 00 00
1510780670.020231,can1 18DAF100 [8] 29 00 01 FF 61 A8 0A F4
1510780670.020672,can1 18DAF100 [8] 2A 00 00 00 03 00 02 00
1510780670.021087,can1 18DAF100 [8] 2B 01 00 09 00 02 00 00
1510780670.02149,can1 18DAF100 [8] 2C 00 00 00 00 00 01 00
1510780670.021981,can1 18DAF100 [8] 2D 00 52 00 00 00 1D 00
1510780670.022396,can1 18DAF100 [8] 2E 00 00 01 00 00 A1 0A
1510780670.022871,can1 18DAF100 [8] 2F 00 00 04 00 00 00 00
1510780670.023291,can1 18DAF100 [8] 20 01 07 00 14 00 00 00
1510780670.023763,can1 0CFE6E0B [8] 00 00 00 00 00 00 00 00
1510780670.024189,can1 0CF00400 [8] 38 FE FE FE FE 00 FF FE
1510780670.024593,can1 0CF00203 [8] FF 00 00 FF FF AD 47 03
1510780670.024991,can1 18FEF000 [8] FF FF FF 00 00 FC 00 FF
1510780670.025378,can1 0CF00400 [8] 38 FE FE FE FE 00 FF FE
1510780670.02585,can1 0CF00203 [8] FF 00 00 FF FF AD 47 03
1510780670.026257,can1 18FEE000 [8] A2 01 00 00 A2 01 00 00
1510780670.026653,can1 18F0010B [8] CF FF F0 FF FF DC FF FF
1510780670.030462,can1 0CFE6E0B [8] 00 00 00 00 00 00 00 00
1510780670.031112,can1 0CF00400 [8] 38 FE FE FE FE 00 FF FE
1510780670.031889,can1 18F0010B [8] 00 00 00 00 00 00 00 00
1510780670.03246,can1 0CF00203 [8] FF 00 00 FF FF AD 47 03
1510780670.032986,can1 18DA00F1 [8] 03 22 1E FF 00 00 00 00
1510780670.033544,can1 0CF00300 [8] D1 00 FE FF FF FF 00 FF
1510780670.034053,can1 18F00131 [8] 00 00 00 00 00 00 00 00
1510780670.034535,can1 18FEF100 [8] C3 00 00 D0 00 00 00 30
1510780670.034954,can1 18FEF117 [8] 00 00 00 00 00 00 00 00
1510780670.035501,can1 18FEF128 [8] 00 00 00 00 00 00 00 00
1510780670.035999,can1 18FEF121 [8] 00 00 00 00 00 00 00 00
1510780670.036474,can1 18FEBF0B [8] 00 00 7D 7D FE FE FF FF
1510780670.038962,can1 18E00017 [8] 00 00 00 00 00 00 00 00
1510780670.039639,can1 18FEF131 [8] 00 00 00 00 00 00 00 00
1510780670.040184,can1 18E00019 [8] 00 00 00 00 00 00 00 00
1510780670.040681,can1 18E00021 [8] 00 00 00 00 00 00 00 00
1510780670.041217,can1 18E00028 [8] 00 00 00 00 00 00 00 00
1510780670.041728,can1 18E00031 [8] 00 00 00 00 00 00 00 00
1510780670.04222,can1 18FEF017 [8] 00 00 00 00 00 00 00 00
1510780670.04269,can1 0CF00400 [8] 38 FE FE FE FE 00 FF FE
1510780670.04316,can1 18FEF021 [8] 00 00 00 00 00 00 00 00
1510780670.043593,can1 0CF00203 [8] FF 00 00 FF FF AD 47 03
1510780670.044001,can1 18FEF028 [8] 00 00 00 00 00 00 00 00
1510780670.044398,can1 18FEDF00 [8] FE FE FE FF FE FF BF FF
1510780670.044791,can1 18FEF031 [8] 00 00 00 00 00 00 00 00
1510780670.045247,can1 18FE4A03 [8] FF FF F3 FF F0 F7 FF FF
1510780670.045658,can1 18F00503 [8] FF 57 9E FF 20 2D 2D 2D
1510780670.046056,can1 18FEEF00 [8] FF FF FF FF FF FF FF FA
1510780670.049157,can1 0CFE6E0B [8] 00 00 00 00 00 00 00 00
1510780670.049765,can1 18DAF100 [8] 10 1A 62 1E FF C5 00 3F
1510780670.050294,can1 0CF00400 [8] 38 FE FE FE FE 00 FF FE
1510780670.054149,can1 0CF00203 [8] FF 00 00 FF FF AD 47 03
1510780670.054778,can1 18DA00F1 [8] 30 08 00 00 00 00 00 00
1510780670.055479,can1 18F00100 [8] FF FF FF FF FA FF FF FF
1510780670.055939,can1 18DAF100 [8] 21 30 F0 4F 7F C4 11 B8
1510780670.056575,can1 18DAF100 [8] 22 00 00 FF 00 C0 0F C0
1510780670.059409,can1 18DAF100 [8] 23 FF 1F 00 FC FC FD C0
1510780670.059944,can1 0CF00400 [8] 38 FE FE FE FE 00 FF FE
1510780670.060392,can1 0CF00203 [8] FF 00 00 FF FF AD 47 03
1510780670.060896,can1 18F0000F [8] 00 7D FF FF 0F 7D FF FF
1510780670.069178,can1 0CFE6E0B [8] 00 00 00 00 00 00 00 00
1510780670.069711,can1 0CF00400 [8] 38 FE FE FE FE 00 FF FE
1510780670.070157,can1 0CF00203 [8] FF 00 00 FF FF AD 47 03
1510780670.070655,can1 18FF3000 [8] 00 00 FF FF FF FF FF FF
1510780670.079288,can1 0CF00400 [8] 38 FE FE FE FE 00 FF FE
1510780670.079877,can1 1CECFF00 [8] 20 1A 00 04 FF CA FE 00
1510780669.809218,can0 08FF0303 [8] 00 00 00 00 00 00 00 00
1510780669.817175,can0 08FF0001 [8] 00 00 00 00 00 00 00 00
1510780669.817866,can0 0CF00203 [8] 00 00 00 00 00 00 00 00
1510780669.818648,can0 08FF0303 [8] 00 00 00 00 00 00 00 00
1510780669.827269,can0 08FF0001 [8] 00 00 00 00 00 00 00 00
1510780669.827938,can0 0CF00203 [8] 00 00 00 00 00 00 00 00
1510780669.828581,can0 08FF0303 [8] 00 00 00 00 00 00 00 00
1510780669.829143,can0 18F00503 [8] 00 00 00 00 00 00 00 00
1510780669.837181,can0 08FF0001 [8] 00 00 00 00 00 00 00 00
1510780669.837834,can0 0CF00203 [8] 00 00 00 00 00 00 00 00
1510780669.838491,can0 08FF0303 [8] 00 00 00 00 00 00 00 00
1510780669.847218,can0 08FF0001 [8] 00 00 00 00 00 00 00 00
1510780669.847934,can0 0CF00203 [8] 00 00 00 00 00 00 00 00
1510780669.848531,can0 08FF0303 [8] 00 00 00 00 00 00 00 00
1510780669.857293,can0 08FF0001 [8] 00 00 00 00 00 00 00 00
1510780669.858257,can0 0CF00203 [8] 00 00 00 00 00 00 00 00
1510780669.858835,can0 08FF0303 [8] 00 00 00 00 00 00 00 00
1510780669.867264,can0 08FF0001 [8] 00 00 00 00 00 00 00 00
1510780669.86799,can0 0CF00203 [8] 00 00 00 00 00 00 00 00
1510780669.868568,can0 08FF0303 [8] 00 00 00 00 00 00 00 00
1510780669.877334,can0 08FF0001 [8] 00 00 00 00 00 00 00 00
1510780669.878001,can0 0CF00203 [8] 00 00 00 00 00 00 00 00
1510780669.878577,can0 08FF0303 [8] 00 00 00 00 00 00 00 00
1510780669.887234,can0 08FF0001 [8] 00 00 00 00 00 00 00 00
1510780669.887877,can0 0CF00203 [8] 00 00 00 00 00 00 00 00
1510780669.888435,can0 08FF0303 [8] 00 00 00 00 00 00 00 00
1510780669.897281,can0 08FF0001 [8] 00 00 00 00 00 00 00 00
1510780669.897947,can0 0CF00203 [8] 00 00 00 00 00 00 00 00
1510780669.898471,can0 08FF0303 [8] 00 00 00 00 00 00 00 00
1510780669.907785,can0 08FF0001 [8] 00 00 00 00 00 00 00 00
1510780669.908725,can0 0CF00203 [8] 00 00 00 00 00 00 00 00
1510780669.909259,can0 08FF0303 [8] 00 00 00 00 00 00 00 00
1510780669.917224,can0 08FF0001 [8] 00 00 00 00 00 00 00 00
1510780669.917992,can0 0CF00203 [8] 00 00 00 00 00 00 00 00
1510780669.918648,can0 08FF0303 [8] 00 00 00 00 00 00 00 00
1510780669.92723,can0 08FF0001 [8] 00 00 00 00 00 00 00 00
1510780669.927955,can0 0CF00203 [8] 00 00 00 00 00 00 00 00
1510780669.928539,can0 08FF0303 [8] 00 00 00 00 00 00 00 00
1510780669.929099,can0 18F00503 [8] 00 00 00 00 00 00 00 00
1510780669.937208,can0 08FF0001 [8] 00 00 00 00 00 00 00 00
1510780669.938009,can0 0CF00203 [8] 00 00 00 00 00 00 00 00
1510780669.938607,can0 08FF0303 [8] 00 00 00 00 00 00 00 00
1510780669.947305,can0 08FF0001 [8] 00 00 00 00 00 00 00 00
1510780669.948205,can0 0CF00203 [8] 00 00 00 00 00 00 00 00
1510780669.948765,can0 08FF0303 [8] 00 00 00 00 00 00 00 00
1510780669.957326,can0 08FF0001 [8] 00 00 00 00 00 00 00 00
1510780669.958131,can0 0CF00203 [8] 00 00 00 00 00 00 00 00
1510780669.958694,can0 08FF0303 [8] 00 00 00 00 00 00 00 00
1510780669.967317,can0 08FF0001 [8] 00 00 00 00 00 00 00 00
1510780669.968014,can0 0CF00203 [8] 00 00 00 00 00 00 00 00
1510780669.96859,can0 08FF0303 [8] 00 00 00 00 00 00 00 00
1510780669.977227,can0 08FF0001 [8] 00 00 00 00 00 00 00 00
1510780669.978028,can0 0CF00203 [8] 00 00 00 00 00 00 00 00
1510780669.97868,can0 08FF0303 [8] 00 00 00 00 00 00 00 00
1510780669.987256,can0 08FF0001 [8] 00 00 00 00 00 00 00 00
1510780669.987979,can0 0CF00203 [8] 00 00 00 00 00 00 00 00
1510780669.988716,can0 08FF0303 [8] 00 00 00 00 00 00 00 00
1510780669.99725,can0 08FF0001 [8] 00 00 00 00 00 00 00 00
1510780669.997987,can0 0CF00203 [8] 00 00 00 00 00 00 00 00
1510780669.998726,can0 08FF0303 [8] 00 00 00 00 00 00 00 00
1510780670.007298,can0 08FF0001 [8] 00 00 00 00 00 00 00 00
1510780670.008201,can0 0CF00203 [8] 00 00 00 00 00 00 00 00
1510780670.008771,can0 08FF0303 [8] 00 00 00 00 00 00 00 00
1510780670.017216,can0 08FF0001 [8] 00 00 00 00 00 00 00 00
1510780670.017928,can0 0CF00203 [8] 00 00 00 00 00 00 00 00
1510780670.01851,can0 08FF0303 [8] 00 00 00 00 00 00 00 00
1510780670.027225,can0 08FF0001 [8] 00 00 00 00 00 00 00 00
1510780670.027906,can0 0CF00203 [8] 00 00 00 00 00 00 00 00
1510780670.028469,can0 08FF0303 [8] 00 00 00 00 00 00 00 00
1510780670.029606,can0 18F00503 [8] 00 00 00 00 00 00 00 00
1510780670.037202,can0 08FF0001 [8] 00 00 00 00 00 00 00 00
1510780670.03791,can0 0CF00203 [8] 00 00 00 00 00 00 00 00
1510780670.038486,can0 08FF0303 [8] 00 00 00 00 00 00 00 00
1510780670.047265,can0 08FF0001 [8] 00 00 00 00 00 00 00 00
1510780670.047918,can0 0CF00203 [8] 00 00 00 00 00 00 00 00
1510780670.048494,can0 08FF0303 [8] 00 00 00 00 00 00 00 00
1510780670.057269,can0 08FF0001 [8] 00 00 00 00 00 00 00 00
1510780670.058,can0 0CF00203 [8] 00 00 00 00 00 00 00 00
1510780670.058586,can0 08FF0303 [8] 00 00 00 00 00 00 00 00
1510780670.067275,can0 08FF0001 [8] 00 00 00 00 00 00 00 00
1510780670.067938,can0 0CF00203 [8] 00 00 00 00 00 00 00 00
1510780670.068563,can0 08FF0303 [8] 00 00 00 00 00 00 00 00
1510780670.077239,can0 08FF0001 [8] 00 00 00 00 00 00 00 00
1510780670.078009,can0 0CF00203 [8] 00 00 00 00 00 00 00 00
1510780670.078675,can0 08FF0303 [8] 00 00 00 00 00 00 00 00
1510780670.087207,can0 08FF0001 [8] 00 00 00 00 00 00 00 00
1510780670.087907,can0 0CF00203 [8] 00 00 00 00 00 00 00 00
1510780670.088637,can0 08FF0303 [8] 00 00 00 00 00 00 00 00
1510780670.097312,can0 08FF0001 [8] 00 00 00 00 00 00 00 00
1510780670.098088,can0 0CF00203 [8] 00 00 00 00 00 00 00 00
1510780670.098644,can0 08FF0303 [8] 00 00 00 00 00 00 00 00
1510780670.107266,can0 08FF0001 [8] 00 00 00 00 00 00 00 00
1510780670.107978,can0 0CF00203 [8] 00 00 00 00 00 00 00 00
1510780670.108543,can0 08FF0303 [8] 00 00 00 00 00 00 00 00
1510780670.117348,can0 08FF0001 [8] 00 00 00 00 00 00 00 00
1510780670.118032,can0 0CF00203 [8] 00 00 00 00 00 00 00 00
1510780670.118608,can0 08FF0303 [8] 00 00 00 00 00 00 00 00
1510780670.127278,can0 08FF0001 [8] 00 00 00 00 00 00 00 00
1510780670.127909,can0 0CF00203 [8] 00 00 00 00 00 00 00 00
1510780670.12848,can0 08FF0303 [8] 00 00 00 00 00 00 00 00
1510780670.129082,can0 18F00503 [8] 00 00 00 00 00 00 00 00
1510780670.137189,can0 08FF0001 [8] 00 00 00 00 00 00 00 00
1510780670.137852,can0 0CF00203 [8] 00 00 00 00 00 00 00 00
1510780670.138419,can0 08FF0303 [8] 00 00 00 00 00 00 00 00
1510780670.147337,can0 08FF0001 [8] 00 00 00 00 00 00 00 00
1510780670.148279,can0 0CF00203 [8] 00 00 00 00 00 00 00 00
1510780670.14902,can0 08FF0303 [8] 00 00 00 00 00 00 00 00
1510780670.157276,can0 08FF0001 [8] 00 00 00 00 00 00 00 00
1510780670.158189,can0 0CF00203 [8] 00 00 00 00 00 00 00 00
1510780670.160085,can0 08FF0303 [8] 00 00 00 00 00 00 00 00
1510780670.167331,can0 08FF0001 [8] 00 00 00 00 00 00 00 00
1510780670.168286,can0 0CF00203 [8] 00 00 00 00 00 00 00 00
1510780670.16895,can0 08FF0303 [8] 00 00 00 00 00 00 00 00
1510780670.177289,can0 08FF0001 [8] 00 00 00 00 00 00 00 00
1510780670.178272,can0 0CF00203 [8] 00 00 00 00 00 00 00 00
1510780670.178923,can0 08FF0303 [8] 00 00 00 00 00 00 00 00
1510780670.187296,can0 08FF0001 [8] 00 00 00 00 00 00 00 00
1510780670.188215,can0 0CF00203 [8] 00 00 00 00 00 00 00 00
1510780670.188855,can0 08FF0303 [8] 00 00 00 00 00 00 00 00
1510780670.197337,can0 08FF0001 [8] 00 00 00 00 00 00 00 00
1510780670.198239,can0 0CF00203 [8] 00 00 00 00 00 00 00 00
1510780670.198865,can0 08FF0303 [8] 00 00 00 00 00 00 00 00
1510780670.207353,can0 08FF0001 [8] 00 00 00 00 00 00 00 00
1510780670.208211,can0 0CF00203 [8] 00 00 00 00 00 00 00 00
1510780670.208851,can0 08FF0303 [8] 00 00 00 00 00 00 00 00
1510780670.217434,can0 08FF0001 [8] 00 00 00 00 00 00 00 00
1510780670.218346,can0 0CF00203 [8] 00 00 00 00 00 00 00 00
1510780670.219072,can0 08FF0303 [8] 00 00 00 00 00 00 00 00
1510780670.227229,can0 08FF0001 [8] 00 00 00 00 00 00 00 00
1510780670.22808,can0 0CF00203 [8] 00 00 00 00 00 00 00 00
1510780670.228877,can0 08FF0303 [8] 00 00 00 00 00 00 00 00
1510780670.229495,can0 18F00503 [8] 00 00 00 00 00 00 00 00
1510780670.23724,can0 08FF0001 [8] 00 00 00 00 00 00 00 00
1510780670.238062,can0 0CF00203 [8] 00 00 00 00 00 00 00 00
1510780670.238822,can0 08FF0303 [8] 00 00 00 00 00 00 00 00
1510780670.08094,can1 0CF00203 [8] FF 00 00 FF FF AD 47 03
1510780670.081499,can1 0CF00300 [8] D1 00 FE FF FF FF 00 FF
1510780670.082036,can1 14FFA000 [8] FC FF FF FF FF FF FF FF
1510780670.082603,can1 18FEF200 [8] 00 00 00 00 00 00 FF FF
1510780670.08305,can1 18DA00F1 [8] 02 10 03 00 00 00 00 00
1510780670.089242,can1 18DAF100 [8] 06 50 03 00 14 00 C8 C0
1510780670.089853,can1 0CFE6E0B [8] 00 00 00 00 00 00 00 00
1510780670.090414,can1 0CF00400 [8] 38 FE FE FE FE 00 FF FE
1510780670.090855,can1 0CF00203 [8] FF 00 00 FF FF AD 47 03
1510780670.091276,can1 18FEDF00 [8] FE FE FE FF FE FF BF FF
1510780670.09168,can1 18FF6411 [8] F8 FF FF FF FF FF FF FF
1510780670.099194,can1 0CF00400 [8] 38 FE FE FE FE 00 FF FE
1510780670.099808,can1 0CF00203 [8] FF 00 00 FF FF AD 47 03
1510780670.109147,can1 0CFE6E0B [8] 00 00 00 00 00 00 00 00
1510780670.109747,can1 0CF00400 [8] 38 FE FE FE FE 00 FF FE
1510780670.110213,can1 0CF00203 [8] FF 00 00 FF FF AD 47 03
1510780670.110633,can1 18FEF000 [8] FF FF FF 00 00 FC 00 FF
1510780670.119206,can1 0CF00400 [8] 38 FE FE FE FE 00 FF FE
1510780670.119827,can1 0CF00203 [8] FF 00 00 FF FF AD 47 03
1510780670.120276,can1 14FD3E00 [8] FF FF FF FF FF FF FF FF
1510780670.120689,can1 18FEE000 [8] A2 01 00 00 A2 01 00 00
1510780670.12314,can1 18F0010B [8] CF FF F0 FF FF DC FF FF
1510780670.1297,can1 0CFE6E0B [8] 00 00 00 00 00 00 00 00
1510780670.130301,can1 0CF00400 [8] 38 FE FE FE FE 00 FF FE
1510780670.13083,can1 18F0010B [8] 00 00 00 00 00 00 00 00
1510780670.131403,can1 18F00131 [8] 00 00 00 00 00 00 00 00
1510780670.132098,can1 18FEF117 [8] 00 00 00 00 00 00 00 00
1510780670.132643,can1 18FEF128 [8] 00 00 00 00 00 00 00 00
1510780670.133213,can1 18FEF121 [8] 00 00 00 00 00 00 00 00
1510780670.13372,can1 18FEF131 [8] 00 00 00 00 00 00 00 00
1510780670.134207,can1 18E00017 [8] 00 00 00 00 00 00 00 00
1510780670.134678,can1 18E00019 [8] 00 00 00 00 00 00 00 00
1510780670.13522,can1 18E00021 [8] 00 00 00 00 00 00 00 00
1510780670.135711,can1 18E00028 [8] 00 00 00 00 00 00 00 00
1510780670.136139,can1 18E00031 [8] 00 00 00 00 00 00 00 00
1510780670.13663,can1 18FEBF0B [8] 00 00 7D 7D FE FE FF FF
1510780670.13924,can1 18FEF017 [8] 00 00 00 00 00 00 00 00
1510780670.139821,can1 18FEF021 [8] 00 00 00 00 00 00 00 00
1510780670.140279,can1 18FEF028 [8] 00 00 00 00 00 00 00 00
1510780670.140822,can1 18FEF031 [8] 00 00 00 00 00 00 00 00
1510780670.141334,can1 1CEBFF00 [8] 01 47 FF 5B 00 08 01 73
1510780670.141817,can1 0CF00400 [8] 38 FE FE FE FE 00 FF FE
1510780670.14223,can1 0CF00203 [8] FF 00 00 FF FF AD 47 03
1510780670.142627,can1 0CF00300 [8] D1 00 FE FF FF FF 00 FF
1510780670.143111,can1 18FEDF00 [8] FE FE FE FF FE FF BF FF
1510780670.143524,can1 18FE4A03 [8] FF FF F3 FF F0 F7 FF FF
1510780670.143927,can1 18F00503 [8] FF 57 9E FF 20 2D 2D 2D
1510780670.144318,can1 18FEF100 [8] C3 00 00 D0 00 00 00 30
1510780670.149693,can1 0CFE6E0B [8] 00 00 00 00 00 00 00 00
1510780670.150326,can1 0CF00400 [8] 38 FE FE FE FE 00 FF FE
1510780670.150976,can1 0CF00203 [8] FF 00 00 FF FF AD 47 03
1510780670.151505,can1 18F00100 [8] FF FF FF FF FA FF FF FF
1510780670.161142,can1 0CF00400 [8] 38 FE FE FE FE 00 FF FE
1510780670.161849,can1 0CF00203 [8] FF 00 00 FF FF AD 47 03
1510780670.162569,can1 18F0000F [8] 00 7D FF FF 0F 7D FF FF
1510780670.163143,can1 18FEF600 [8] FF 00 FF FF FF FF FF FF
1510780670.1696,can1 0CFE6E0B [8] 00 00 00 00 00 00 00 00
1510780670.170302,can1 0CF00400 [8] 38 FE FE FE FE 00 FF FE
1510780670.170856,can1 0CF00203 [8] FF 00 00 FF FF AD 47 03
1510780670.171367,can1 18FF3000 [8] 00 00 FF FF FF FF FF FF
1510780670.179649,can1 0CF00400 [8] 38 FE FE FE FE 00 FF FE
1510780670.180483,can1 1CEBFF00 [8] 02 0C 09 01 71 02 0D 01
1510780670.181038,can1 0CF00203 [8] FF 00 00 FF FF AD 47 03
1510780670.181557,can1 0CF00300 [8] D1 00 FE FF FF FF 00 FF
1510780670.182148,can1 14FFA000 [8] FC FF FF FF FF FF FF FF
1510780670.182656,can1 18FEF200 [8] 00 00 00 00 00 00 FF FF
1510780670.183947,can1 18EAFFF9 [3] EB FE 00
1510780670.189493,can1 0CFE6E0B [8] 00 00 00 00 00 00 00 00
1510780670.190192,can1 0CF00400 [8] 38 FE FE FE FE 00 FF FE
1510780670.190726,can1 0CF00203 [8] FF 00 00 FF FF AD 47 03
1510780670.191228,can1 18FEDF00 [8] FE FE FE FF FE FF BF FF
1510780670.199553,can1 0CF00400 [8] 38 FE FE FE FE 00 FF FE
1510780670.200165,can1 1CECFF03 [8] 20 10 00 03 FF EB FE 00
1510780670.200701,can1 0CF00203 [8] FF 00 00 FF FF AD 47 03
1510780670.209556,can1 0CFE6E0B [8] 00 00 00 00 00 00 00 00
1510780670.210269,can1 0CF00400 [8] 38 FE FE FE FE 00 FF FE
1510780670.212194,can1 0CF00203 [8] FF 00 00 FF FF AD 47 03
1510780670.212874,can1 18FEF000 [8] FF FF FF 00 00 FC 00 FF
1510780670.213556,can1 18DA00F1 [8] 03 22 1D FF 00 00 00 00
1510780670.219738,can1 0CF00400 [8] 38 FE FE FE FE 00 FF FE
1510780670.220379,can1 0CF00203 [8] FF 00 00 FF FF AD 47 03
1510780670.220999,can1 18FEE000 [8] A2 01 00 00 A2 01 00 00
1510780670.223324,can1 18F0010B [8] CF FF F0 FF FF DC FF FF
1510780670.230179,can1 18DAF100 [8] 10 E3 62 1D FF 00 00 01
1510780670.231012,can1 0CFE6E0B [8] 00 00 00 00 00 00 00 00
1510780670.231643,can1 0CF00400 [8] 38 FE FE FE FE 00 FF FE
1510780670.232434,can1 18DA00F1 [8] 30 08 00 00 00 00 00 00
1510780670.233127,can1 18F0010B [8] 00 00 00 00 00 00 00 00
1510780670.233735,can1 18F00131 [8] 00 00 00 00 00 00 00 00
1510780670.234327,can1 18FEF117 [8] 00 00 00 00 00 00 00 00
1510780670.235039,can1 18FEF128 [8] 00 00 00 00 00 00 00 00
1510780670.23563,can1 18FEF121 [8] 00 00 00 00 00 00 00 00
1510780670.236198,can1 18FEF131 [8] 00 00 00 00 00 00 00 00
1510780670.23685,can1 18E00017 [8] 00 00 00 00 00 00 00 00
1510780670.240701,can1 18E00019 [8] 00 00 00 00 00 00 00 00
1510780670.241464,can1 18E00021 [8] 00 00 00 00 00 00 00 00
1510780670.242086,can1 18E00028 [8] 00 00 00 00 00 00 00 00
1510780670.242779,can1 18E00031 [8] 00 00 00 00 00 00 00 00
1510780670.243384,can1 18FEBF0B [8] 00 00 7D 7D FE FE FF FF
1510780670.243962,can1 18FEF017 [8] 00 00 00 00 00 00 00 00
1510780670.244588,can1 18FEF021 [8] 00 00 00 00 00 00 00 00
1510780670.245172,can1 18FEF028 [8] 00 00 00 00 00 00 00 00
1510780670.245742,can1 18FEF031 [8] 00 00 00 00 00 00 00 00
1510780670.246363,can1 1CEBFF00 [8] 03 54 0B 09 01 71 02 0E
1510780670.24942,can1 0CF00400 [8] 38 FE FE FE FE 00 FF FE
1510780670.250279,can1 0CF00203 [8] FF 00 00 FF FF AD 47 03
1510780670.252325,can1 0CF00300 [8] D1 00 FE FF FF FF 00 FF
1510780670.254376,can1 18FEDF00 [8] FE FE FE FF FE FF BF FF
1510780670.25525,can1 18FE4A03 [8] FF FF F3 FF F0 F7 FF FF
1510780670.255837,can1 18F00503 [8] FF 57 9E FF 20 2D 2D 2D
1510780670.256869,can1 18FEF100 [8] C3 00 00 D0 00 00 00 30
1510780670.260362,can1 18DAF100 [8] 21 F3 00 00 01 F3 00 00
1510780670.261021,can1 18DAF100 [8] 22 FF 38 00 00 00 12 00
1510780670.261624,can1 18DAF100 [8] 23 00 00 00 00 00 FF FF
1510780670.262296,can1 18DAF100 [8] 24 01 C1 64 00 00 FF FF
1510780670.262894,can1 18DAF100 [8] 25 FF 04 A4 04 A4 00 64
1510780670.263475,can1 18DAF100 [8] 26 0F 02 94 FF 38 02 94
1510780670.264052,can1 18DAF100 [8] 27 09 83 02 94 FF 38 FF
1510780670.264633,can1 0CFE6E0B [8] 00 00 00 00 00 00 00 00
1510780670.265218,can1 18DAF100 [8] 28 38 00 00 02 58 02 58
1510780670.265847,can1 0CF00400 [8] 38 FE FE FE FE 00 FF FE
1510780670.266443,can1 0CF00203 [8] FF 00 00 FF FF AD 47 03
1510780670.269705,can1 18DA00F1 [8] 30 08 00 00 00 00 00 00
1510780670.27047,can1 18F00100 [8] FF FF FF FF FA FF FF FF
1510780670.271086,can1 18DAF100 [8] 29 0F A0 00 00 00 00 FF
1510780670.271733,can1 18DAF100 [8] 2A FF FF FF FF FF FF 00
1510780670.272277,can1 18DAF100 [8] 2B FF 00 00 68 00 0F A0
1510780670.272791,can1 18DAF100 [8] 2C 0F A0 0F A0 1F FA 00
1510780670.273393,can1 18DAF100 [8] 2D 00 00 00 00 A0 08 03
1510780670.273982,can1 18DAF100 [8] 2E 03 03 00 14 03 01 0A
1510780670.274488,can1 18DAF100 [8] 2F 00 00 00 00 00 00 00
1510780670.274971,can1 18DAF100 [8] 20 00 00 00 00 00 00 00
1510780670.27545,can1 18DA00F1 [8] 30 08 00 00 00 00 00 00
1510780670.276024,can1 18DAF100 [8] 21 00 00 00 01 00 05 00
1510780670.276511,can1 18DAF100 [8] 22 00 00 0A 00 01 00 00
1510780670.280444,can1 0CF00400 [8] 38 FE FE FE FE 00 FF FE
1510780670.281185,can1 1CEBFF03 [8] 01 44 54 44 53 43 2A 47
1510780670.281858,can1 0CF00203 [8] FF 00 00 FF FF AD 47 03
1510780670.282402,can1 18F0000F [8] 00 7D FF FF 0F 7D FF FF
1510780670.28291,can1 18DAF100 [8] 23 00 00 00 03 00 00 00
1510780670.283471,can1 18DAF100 [8] 24 01 F4 B5 08 20 B6 03
1510780670.28399,can1 18DAF100 [8] 25 7F C6 04 D8 E1 06 95
1510780670.284489,can1 18DAF100 [8] 26 D5 08 63 09 B0 FE FE
1510780670.284973,can1 18DAF100 [8] 27 FE 00 00 FF 00 01 00
1510780670.285536,can1 18DAF100 [8] 28 00 06 00 06 06 06 06
1510780670.286045,can1 18DA00F1 [8] 30 08 00 00 00 00 00 00
1510780670.286528,can1 18DAF100 [8] 29 00 01 FF 61 A8 0A F4
1510780670.289489,can1 18DAF100 [8] 2A 00 00 00 03 00 02 00
1510780670.290126,can1 18DAF100 [8] 2B 01 00 09 00 02 00 00
1510780670.290666,can1 18DAF100 [8] 2C 00 00 00 00 00 01 00
1510780670.291245,can1 0CFE6E0B [8] 00 00 00 00 00 00 00 00
1510780670.291777,can1 18DAF100 [8] 2D 00 52 00 00 00 1D 00
1510780670.292287,can1 0CF00400 [8] 38 FE FE FE FE 00 FF FE
1510780670.29278,can1 0CF00203 [8] FF 00 00 FF FF AD 47 03
1510780670.29333,can1 18FF3000 [8] 00 00 FF FF FF FF FF FF
1510780670.293832,can1 18DAF100 [8] 2E 00 00 01 00 00 A1 0A
1510780670.294316,can1 18DAF100 [8] 2F 00 00 04 00 00 00 00
1510780670.294795,can1 18DAF100 [8] 20 01 07 00 14 00 00 00
1510780670.295343,can1 18ECFF0B [8] 20 1B 00 04 FF EB FE 00
1510780670.295844,can1 0CF00400 [8] 38 FE FE FE FE 00 FF FE
1510780670.296324,can1 1CEBFF00 [8] 04 01 6F 00 03 01 FF FF
1510780670.296916,can1 1CECFF00 [8] 20 21 00 05 FF EB FE 00
1510780670.299844,can1 0CF00203 [8] FF 00 00 FF FF AD 47 03
1510780670.300387,can1 0CF00300 [8] D1 00 FE FF FF FF 00 FF
1510780670.300963,can1 14FFA000 [8] FC FF FF FF FF FF FF FF
1510780670.301496,can1 18FEF200 [8] 00 00 00 00 00 00 FF FF
1510780670.301994,can1 0CFE6E0B [8] 00 00 00 00 00 00 00 00
1510780670.302476,can1 0CF00400 [8] 38 FE FE FE FE 00 FF FE
1510780670.303021,can1 0CF00203 [8] FF 00 00 FF FF AD 47 03
1510780670.303526,can1 18FEDF00 [8] FE FE FE FF FE FF BF FF
1510780670.304016,can1 18DA00F1 [8] 03 22 1E FF 00 00 00 00
1510780670.304504,can1 0CF00400 [8] 38 FE FE FE FE 00 FF FE
1510780670.305043,can1 0CF00203 [8] FF 00 00 FF FF AD 47 03
1510780670.309623,can1 0CFE6E0B [8] 00 00 00 00 00 00 00 00
1510780670.31025,can1 0CF00400 [8] 38 FE FE FE FE 00 FF FE
1510780670.310857,can1 1CEBFF03 [8] 02 32 38 31 2D 31 32 2A
1510780670.311407,can1 0CF00203 [8] FF 00 00 FF FF AD 47 03
1510780670.311913,can1 18FEF000 [8] FF FF FF 00 00 FC 00 FF
1510780670.319536,can1 18DAF100 [8] 10 1A 62 1E FF C5 00 3F
1510780670.320238,can1 0CF00400 [8] 38 FE FE FE FE 00 FF FE
1510780670.321007,can1 0CF00203 [8] FF 00 00 FF FF AD 47 03
1510780670.321539,can1 18DA00F1 [8] 30 08 00 00 00 00 00 00
1510780670.322044,can1 18FEE000 [8] A2 01 00 00 A2 01 00 00
1510780670.32261,can1 18DAF100 [8] 21 30 F0 4F 7F C4 11 B8
1510780670.32312,can1 18DAF100 [8] 22 00 00 FF 00 C0 0F C0
1510780670.323709,can1 18DAF100 [8] 23 FF 1F 00 FC FC FD C0
1510780670.3242,can1 18F0010B [8] CF FF F0 FF FF DC FF FF
1510780670.330283,can1 0CFE6E0B [8] 00 00 00 00 00 00 00 00
1510780670.332725,can1 0CF00400 [8] 38 FE FE FE FE 00 FF FE
1510780670.333544,can1 18F0010B [8] 00 00 00 00 00 00 00 00
1510780670.334245,can1 18F00131 [8] 00 00 00 00 00 00 00 00
1510780670.334875,can1 18FEF117 [8] 00 00 00 00 00 00 00 00
1510780670.335466,can1 18FEF128 [8] 00 00 00 00 00 00 00 00
1510780670.336124,can1 18FEF121 [8] 00 00 00 00 00 00 00 00
1510780670.336737,can1 18FEF131 [8] 00 00 00 00 00 00 00 00
1510780670.340315,can1 18E00017 [8] 00 00 00 00 00 00 00 00
1510780670.341047,can1 18E00019 [8] 00 00 00 00 00 00 00 00
1510780670.341653,can1 18E00021 [8] 00 00 00 00 00 00 00 00
1510780670.342261,can1 18E00028 [8] 00 00 00 00 00 00 00 00
1510780670.342862,can1 18E00031 [8] 00 00 00 00 00 00 00 00
1510780670.343373,can1 18FEBF0B [8] 00 00 7D 7D FE FE FF FF
1510780670.343923,can1 18FEF017 [8] 00 00 00 00 00 00 00 00
1510780670.344457,can1 18FEF021 [8] 00 00 00 00 00 00 00 00
1510780670.344952,can1 18FEF028 [8] 00 00 00 00 00 00 00 00
1510780670.345431,can1 18FEF031 [8] 00 00 00 00 00 00 00 00
1510780670.345969,can1 1CEBFF00 [8] 01 44 54 44 53 43 2A 34
1510780670.346479,can1 0CF00400 [8] 38 FE FE FE FE 00 FF FE
1510780670.349412,can1 0CF00203 [8] FF 00 00 FF FF AD 47 03
1510780670.350113,can1 0CF00300 [8] D1 00 FE FF FF FF 00 FF
1510780670.350662,can1 18FEDF00 [8] FE FE FE FF FE FF BF FF
1510780670.351172,can1 18FE4A03 [8] FF FF F3 FF F0 F7 FF FF
1510780670.351723,can1 18F00503 [8] FF 57 9E FF 20 2D 2D 2D
1510780670.352248,can1 18FEF100 [8] C3 00 00 D0 00 00 00 30
1510780670.35275,can1 18DA00F1 [8] 02 10 03 00 00 00 00 00
1510780670.35324,can1 0CFE6E0B [8] 00 00 00 00 00 00 00 00
1510780670.35378,can1 18DAF100 [8] 06 50 03 00 14 00 C8 C0
1510780670.354283,can1 0CF00400 [8] 38 FE FE FE FE 00 FF FE
1510780670.354773,can1 0CF00203 [8] FF 00 00 FF FF AD 47 03
1510780670.355253,can1 18F00100 [8] FF FF FF FF FA FF FF FF
1510780670.359811,can1 0CF00400 [8] 38 FE FE FE FE 00 FF FE
1510780670.360454,can1 1CEBFF03 [8] 03 2A 2A FF FF FF FF FF
1510780670.360989,can1 0CF00203 [8] FF 00 00 FF FF AD 47 03
1510780670.361554,can1 18F0000F [8] 00 7D FF FF 0F 7D FF FF
1510780670.364902,can1 18DA00F1 [8] 03 19 02 0D 00 00 00 00
1510780670.369589,can1 18DAF100 [8] 10 1F 59 02 0D 5B 00 08
1510780670.370301,can1 0CFE6E0B [8] 00 00 00 00 00 00 00 00
1510780670.370909,can1 0CF00400 [8] 38 FE FE FE FE 00 FF FE
1510780670.371643,can1 18DA00F1 [8] 30 08 00 00 00 00 00 00
1510780670.37224,can1 0CF00203 [8] FF 00 00 FF FF AD 47 03
1510780670.372756,can1 18FF3000 [8] 00 00 FF FF FF FF FF FF
1510780670.373386,can1 18DAF100 [8] 21 01 73 0C 09 01 71 02
1510780670.373914,can1 18DAF100 [8] 22 0D 01 54 0B 09 01 71
1510780670.374419,can1 18DAF100 [8] 23 02 0E 01 6F 00 03 01
1510780670.374906,can1 18DAF100 [8] 24 3F 0A 08 08 00 03 01
1510780670.375467,can1 18EBFF0B [8] 01 42 4E 44 57 53 2A 45
1510780670.379612,can1 0CF00400 [8] 38 FE FE FE FE 00 FF FE
1510780670.380376,can1 1CEBFF00 [8] 02 37 31 4E 31 33 2A 53
1510780670.380929,can1 0CF00203 [8] FF 00 00 FF FF AD 47 03
1510780670.381547,can1 0CF00300 [8] D1 00 FE FF FF FF 00 FF
1510780670.382049,can1 14FFA000 [8] FC FF FF FF FF FF FF FF
1510780670.382533,can1 18FEF200 [8] 00 00 00 00 00 00 FF FF
1510780670.389482,can1 0CFE6E0B [8] 00 00 00 00 00 00 00 00
1510780670.3901,can1 0CF00400 [8] 38 FE FE FE FE 00 FF FE
1510780670.390634,can1 0CF00203 [8] FF 00 00 FF FF AD 47 03
1510780670.39125,can1 18FEDF00 [8] FE FE FE FF FE FF BF FF
1510780670.391999,can1 18DA00F1 [8] 03 22 1D FF 00 00 00 00
1510780670.399457,can1 0CF00400 [8] 38 FE FE FE FE 00 FF FE
1510780670.400069,can1 0CF00203 [8] FF 00 00 FF FF AD 47 03
1510780670.409456,can1 18DAF100 [8] 10 E3 62 1D FF 00 00 01
1510780670.41017,can1 0CFE6E0B [8] 00 00 00 00 00 00 00 00
1510780670.41087,can1 0CF00400 [8] 38 FE FE FE FE 00 FF FE
1510780670.41153,can1 0CF00203 [8] FF 00 00 FF FF AD 47 03
1510780670.412057,can1 18DA00F1 [8] 30 08 00 00 00 00 00 00
1510780670.412777,can1 18FEF000 [8] FF FF FF 00 00 FC 00 FF
1510780670.413363,can1 18DAF100 [8] 21 F3 00 00 01 F4 00 00
1510780670.413934,can1 18DAF100 [8] 22 FF 38 00 00 00 12 00
1510780670.414569,can1 18DAF100 [8] 23 00 00 00 00 00 FF FF
1510780670.415092,can1 18DAF100 [8] 24 01 C1 64 00 00 FF FF
1510780670.41558,can1 18DAF100 [8] 25 FF 04 A4 04 A4 00 64
1510780670.416183,can1 18DAF100 [8] 26 0F 02 94 FF 38 02 94
1510780670.416774,can1 18DAF100 [8] 27 09 83 02 94 FF 38 FF
1510780670.419786,can1 18DAF100 [8] 28 38 00 00 02 58 02 58
1510780670.420524,can1 18DA00F1 [8] 30 08 00 00 00 00 00 00
1510780670.421146,can1 18DAF100 [8] 29 0F A0 00 00 00 00 FF
1510780670.421728,can1 18DAF100 [8] 2A FF FF FF FF FF FF 00
1510780670.422382,can1 0CF00400 [8] 38 FE FE FE FE 00 FF FE
1510780670.422973,can1 0CF00203 [8] FF 00 00 FF FF AD 47 03
1510780670.423535,can1 18FEE000 [8] A2 01 00 00 A2 01 00 00
1510780670.424147,can1 18DAF100 [8] 2B FF 00 00 68 00 0F A0
1510780670.424735,can1 18DAF100 [8] 2C 0F A0 0F A0 1F FA 00
1510780670.425827,can1 18DAF100 [8] 2D 00 00 00 00 A0 08 03
1510780670.42672,can1 18DAF100 [8] 2E 03 03 00 14 03 01 0A
1510780670.430618,can1 18DAF100 [8] 2F 00 00 00 00 00 00 00
1510780670.431318,can1 18DAF100 [8] 20 00 00 00 00 00 00 00
1510780670.431995,can1 18F0010B [8] CF FF F0 FF FF DC FF FF
1510780670.432784,can1 18DA00F1 [8] 30 08 00 00 00 00 00 00
1510780670.433496,can1 18DAF100 [8] 21 00 00 00 01 00 05 00
1510780670.434179,can1 18DAF100 [8] 22 00 00 0A 00 01 00 00
1510780670.434776,can1 18DAF100 [8] 23 00 00 00 03 00 00 00
1510780670.43537,can1 18DAF100 [8] 24 01 F4 B5 08 20 B6 03
1510780670.436005,can1 0CFE6E0B [8] 00 00 00 00 00 00 00 00
1510780670.436595,can1 18DAF100 [8] 25 7F C6 04 D8 E1 06 95
1510780670.443411,can1 18F0010B [8] 00 00 00 00 00 00 00 00
1510780670.444276,can1 0CF00400 [8] 38 FE FE FE FE 00 FF FE
1510780670.444837,can1 18F00131 [8] 00 00 00 00 00 00 00 00
1510780670.445515,can1 18FEF117 [8] 00 00 00 00 00 00 00 00
1510780670.446134,can1 18FEF128 [8] 00 00 00 00 00 00 00 00
1510780670.44674,can1 18FEF121 [8] 00 00 00 00 00 00 00 00
1510780670.459762,can1 18FEF131 [8] 00 00 00 00 00 00 00 00
1510780670.460395,can1 18E00017 [8] 00 00 00 00 00 00 00 00
1510780670.460929,can1 18E00019 [8] 00 00 00 00 00 00 00 00
1510780670.461541,can1 18E00021 [8] 00 00 00 00 00 00 00 00
1510780670.462058,can1 18E00028 [8] 00 00 00 00 00 00 00 00
1510780670.46255,can1 18E00031 [8] 00 00 00 00 00 00 00 00
1510780670.469676,can1 18FEBF0B [8] 00 00 7D 7D FE FE FF FF
1510780670.470349,can1 18FEF017 [8] 00 00 00 00 00 00 00 00
1510780670.47102,can1 18FEF021 [8] 00 00 00 00 00 00 00 00
1510780670.471578,can1 18FEF028 [8] 00 00 00 00 00 00 00 00
1510780670.472082,can1 18FEF031 [8] 00 00 00 00 00 00 00 00
1510780670.472569,can1 1CEBFF00 [8] 03 30 32 36 33 31 30 38
1510780670.479941,can1 0CF00400 [8] 38 FE FE FE FE 00 FF FE
1510780670.48074,can1 0CF00203 [8] FF 00 00 FF FF AD 47 03
1510780670.481389,can1 0CF00300 [8] D1 00 FE FF FF FF 00 FF
1510780670.481916,can1 18FEDF00 [8] FE FE FE FF FE FF BF FF
1510780670.482419,can1 18FE4A03 [8] FF FF F3 FF F0 F7 FF FF
1510780670.489715,can1 18F00503 [8] FF 57 9E FF 20 2D 2D 2D
1510780670.490445,can1 18FEF100 [8] C3 00 00 D0 00 00 00 30
1510780670.491023,can1 18DAF100 [8] 26 D5 08 63 09 B0 FE FE
1510780670.491541,can1 18DAF100 [8] 27 FE 00 00 FF 00 01 00
1510780670.492039,can1 18DAF100 [8] 28 00 06 00 06 06 06 06
1510780670.49261,can1 18DA00F1 [8] 30 08 00 00 00 00 00 00
1510780670.493115,can1 18DAF100 [8] 29 00 01 FF 61 A8 0A F4
1510780670.493603,can1 18DAF100 [8] 2A 00 00 00 03 00 02 00
1510780670.494083,can1 18DAF100 [8] 2B 01 00 09 00 02 00 00
1510780670.504672,can1 0CFE6E0B [8] 00 00 00 00 00 00 00 00
1510780670.505342,can1 18DAF100 [8] 2C 00 00 00 00 00 01 00
1510780670.505889,can1 0CF00400 [8] 38 FE FE FE FE 00 FF FE
1510780670.50654,can1 0CF00203 [8] FF 00 00 FF FF AD 47 03
1510780670.50958,can1 18F00100 [8] FF FF FF FF FA FF FF FF
1510780670.510291,can1 18DAF100 [8] 2D 00 52 00 00 00 1D 00
1510780670.510844,can1 18DAF100 [8] 2E 00 00 01 00 00 A1 0A
1510780670.511358,can1 18DAF100 [8] 2F 00 00 04 00 00 00 00
1510780670.511919,can1 18DAF100 [8] 20 01 07 00 14 00 00 00
1510780670.512452,can1 0CF00400 [8] 38 FE FE FE FE 00 FF FE
1510780670.512952,can1 0CF00203 [8] FF 00 00 FF FF AD 47 03
1510780670.513437,can1 18F0000F [8] 00 7D FF FF 0F 7D FF FF
1510780670.523894,can1 0CFE6E0B [8] 00 00 00 00 00 00 00 00
1510780670.524658,can1 0CF00400 [8] 38 FE FE FE FE 00 FF FE
1510780670.525244,can1 0CF00203 [8] FF 00 00 FF FF AD 47 03
1510780670.525874,can1 18FF3000 [8] 00 00 FF FF FF FF FF FF
1510780670.526417,can1 18EBFF0B [8] 02 43 36 30 2D 73 74 61
1510780670.530851,can1 0CF00400 [8] 38 FE FE FE FE 00 FF FE
1510780670.531816,can1 1CEBFF00 [8] 04 2A 00 00 00 00 00 00
1510780670.532496,can1 0CF00203 [8] FF 00 00 FF FF AD 47 03
1510780670.535254,can1 0CF00300 [8] D1 00 FE FF FF FF 00 FF
1510780670.536059,can1 18DA00F1 [8] 03 22 1E FF 00 00 00 00
1510780670.536689,can1 14FFA000 [8] FC FF FF FF FF FF FF FF
1510780670.540198,can1 18FEF200 [8] 00 00 00 00 00 00 FF FF
1510780670.540888,can1 0CFE6E0B [8] 00 00 00 00 00 00 00 00
1510780670.541651,can1 0CF00400 [8] 08 FE FE FE FE 00 FF FE
1510780670.542262,can1 0CF00203 [8] FF 00 00 FF FF AD 47 03
1510780670.542841,can1 18FEDF00 [8] FE FE FE FF FE FF BF FF
1510780670.543489,can1 18DAF100 [8] 10 1A 62 1E FF C5 00 3F
1510780670.544086,can1 0CF00400 [8] 08 FE FE FE FE 00 FF FE
1510780670.544665,can1 0CF00203 [8] FF 00 00 FF FF AD 47 03
1510780670.545238,can1 18DA00F1 [8] 30 08 00 00 00 00 00 00
1510780670.545756,can1 18DAF100 [8] 21 30 F0 4F 7F C4 11 B8
1510780670.546249,can1 18DAF100 [8] 22 00 00 FF 00 C0 0F C0
1510780670.546735,can1 18DAF100 [8] 23 FF 1F 00 FC FC FD C0
1510780670.549799,can1 0CFE6E0B [8] 00 00 00 00 00 00 00 00
1510780670.550687,can1 0CF00400 [8] 08 FE FE FE FE 00 FF FE
1510780670.551393,can1 0CF00203 [8] FF 00 00 FF FF AD 47 03
1510780670.55194,can1 18FEF000 [8] FF FF FF 00 00 FC 00 FF
1510780670.55245,can1 0CF00400 [8] 08 FE FE FE FE 00 FF FE
1510780670.553025,can1 0CF00203 [8] FF 00 00 FF FF AD 47 03
1510780670.55355,can1 18FEE000 [8] A2 01 00 00 A2 01 00 00
1510780670.555346,can1 18F0010B [8] CF FF F0 FF FF DC FF FF
1510780670.556056,can1 0CFE6E0B [8] 00 00 00 00 00 00 00 00
1510780670.556612,can1 0CF00400 [8] 08 FE FE FE FE 00 FF FE
1510780670.560093,can1 18F0010B [8] 00 00 00 00 00 00 00 00
1510780670.560776,can1 18F00131 [8] 00 00 00 00 00 00 00 00
1510780670.561339,can1 18DA00F1 [8] 02 10 03 00 00 00 00 00
1510780670.561849,can1 18FEF117 [8] 00 00 00 00 00 00 00 00
1510780670.562342,can1 18FEF128 [8] 00 00 00 00 00 00 00 00
1510780670.562902,can1 18FEF121 [8] 00 00 00 00 00 00 00 00
1510780670.563409,can1 18FEF131 [8] 00 00 00 00 00 00 00 00
1510780670.563893,can1 18E00017 [8] 00 00 00 00 00 00 00 00
1510780670.564383,can1 18E00019 [8] 00 00 00 00 00 00 00 00
1510780670.564939,can1 18E00021 [8] 00 00 00 00 00 00 00 00
1510780670.565445,can1 18E00028 [8] 00 00 00 00 00 00 00 00
1510780670.565938,can1 18E00031 [8] 00 00 00 00 00 00 00 00
1510780670.566415,can1 18FEBF0B [8] 00 00 7D 7D FE FE FF FF
1510780670.569389,can1 18FEF017 [8] 00 00 00 00 00 00 00 00
1510780670.57001,can1 18FEF021 [8] 00 00 00 00 00 00 00 00
1510780670.570623,can1 18FEF028 [8] 00 00 00 00 00 00 00 00
1510780670.571171,can1 18FEF031 [8] 00 00 00 00 00 00 00 00
1510780670.571678,can1 1CEBFF00 [8] 05 00 00 00 00 2A FF FF
1510780670.572177,can1 0CF00400 [8] 08 FE FE FE FE 00 FF FE
1510780670.572756,can1 0CF00203 [8] FF 00 00 FF FF AD 47 03
1510780670.573268,can1 0CF00300 [8] D1 00 FE FF FF FF 00 FF
1510780670.573874,can1 18FEDF00 [8] FE FE FE FF FE FF BF FF
1510780670.574451,can1 18FE4A03 [8] FF FF F3 FF F0 F7 FF FF
1510780670.574974,can1 18F00503 [8] FF 57 9E FF 20 2D 2D 2D
1510780670.575472,can1 18FEF100 [8] C3 00 00 D0 00 00 00 30
1510780670.575953,can1 18FEEF00 [8] FF FF FF FF FF FF FF FA
1510780670.576504,can1 18FDE000 [8] FF FF FF FF FF FF FF FF
1510780670.579422,can1 1CFEAB03 [8] FF FF 7E FF FF FF FF FF
1510780670.580126,can1 18DAF100 [8] 06 50 03 00 14 00 C8 C0
1510780670.58085,can1 0CFE6E0B [8] 00 00 00 00 00 00 00 00
1510780670.581385,can1 0CF00400 [8] 38 FE FE FE FE 00 FF FE
1510780670.581896,can1 0CF00203 [8] FF 00 00 FF FF AD 47 03
1510780670.582482,can1 18F00100 [8] FF FF FF FF FA FF FF FF
1510780670.582991,can1 18E0FF00 [8] FF FF FF FF FF F3 FF FF
1510780670.583477,can1 18FCDC00 [8] E0 FE FE FF FF FF FF FF
1510780670.583968,can1 0CF00400 [8] 38 FE FE FE FE 00 FF FE
1510780670.584558,can1 0CF00203 [8] FF 00 00 FF FF AD 47 03
1510780670.58506,can1 18F0000F [8] 00 7D FF FF 0F 7D FF FF
1510780670.585559,can1 0CFE6E0B [8] 00 00 00 00 00 00 00 00
1510780670.586098,can1 0CF00400 [8] 38 FE FE FE FE 00 FF FE
1510780670.586619,can1 0CF00203 [8] FF 00 00 FF FF AD 47 03
1510780670.589582,can1 18FF3000 [8] 00 00 FF FF FF FF FF FF
1510780670.590341,can1 18EBFF0B [8] 03 2A 31 32 36 30 36 31
1510780670.590897,can1 0CF00400 [8] 38 FE FE FE FE 00 FF FE
1510780670.591413,can1 0CF00203 [8] FF 00 00 FF FF AD 47 03
1510780670.591961,can1 0CF00300 [8] D1 00 FE FF FF FF 00 FF
1510780670.24731,can0 08FF0001 [8] 00 00 00 00 00 00 00 00
1510780670.248094,can0 0CF00203 [8] 00 00 00 00 00 00 00 00
1510780670.24887,can0 08FF0303 [8] 00 00 00 00 00 00 00 00
1510780670.257274,can0 08FF0001 [8] 00 00 00 00 00 00 00 00
1510780670.25832,can0 0CF00203 [8] 00 00 00 00 00 00 00 00
1510780670.259015,can0 08FF0303 [8] 00 00 00 00 00 00 00 00
1510780670.267268,can0 08FF0001 [8] 00 00 00 00 00 00 00 00
1510780670.268245,can0 0CF00203 [8] 00 00 00 00 00 00 00 00
1510780670.268882,can0 08FF0303 [8] 00 00 00 00 00 00 00 00
1510780670.277378,can0 08FF0001 [8] 00 00 00 00 00 00 00 00
1510780670.278395,can0 0CF00203 [8] 00 00 00 00 00 00 00 00
1510780670.279175,can0 08FF0303 [8] 00 00 00 00 00 00 00 00
1510780670.28737,can0 08FF0001 [8] 00 00 00 00 00 00 00 00
1510780670.288245,can0 0CF00203 [8] 00 00 00 00 00 00 00 00
1510780670.28886,can0 08FF0303 [8] 00 00 00 00 00 00 00 00
1510780670.297347,can0 08FF0001 [8] 00 00 00 00 00 00 00 00
1510780670.298156,can0 0CF00203 [8] 00 00 00 00 00 00 00 00
