1542598690.577775,can1 11111111 [8] 00 2F CA 08 00 1C B6 D3
1542598690.592559,can1 0CF00400 [8] 38 FE FE FE FE 00 FF FE
1542598690.594879,can1 11111111 [8] 00 2F CA 0A 00 1C B6 D5
1542598690.601701,can1 0CF00203 [8] FF 00 00 FF FF AD 47 03
1542598690.607864,can1 11111111 [8] 00 2F CA 0B 00 1C B6 D5
1542598690.610123,can1 0CF00400 [8] 38 FE FE FE FE 00 FF FE
1542598690.615649,can1 11111111 [8] 00 2F CA 0C 00 1C B6 D6
1542598690.61809,can1 11111111 [8] 00 2F CA 09 00 1C B6 D4
1542598690.619929,can1 11111111 [8] 00 2F CA 0D 00 1C B6 D6
1542598690.62176,can1 11111111 [8] 00 2F CA 0E 00 1C B6 D7
1542598690.623637,can1 11111111 [8] 00 2F CA 0F 00 1C B6 D8
1542598690.625398,can1 11111111 [8] 00 2F CA 10 00 1C B6 D8
1542598690.627101,can1 11111111 [8] 00 2F CA 11 00 1C B6 D9
1542598690.628792,can1 11111111 [8] 00 2F CA 12 00 1C B6 D9
1542598690.63051,can1 11111111 [8] 00 2F CA 13 00 1C B6 DA
1542598690.632119,can1 11111111 [8] 00 2F CA 14 00 1C B6 DB
1542598690.63381,can1 11111111 [8] 00 2F CA 15 00 1C B6 DB
1542598690.635831,can1 11111111 [8] 00 2F CA 16 00 1C B6 DC
1542598690.637604,can1 11111111 [8] 00 2F CA 17 00 1C B6 DC
1542598690.639453,can1 11111111 [8] 00 2F CA 18 00 1C B6 DD
1542598690.64117,can1 11111111 [8] 00 2F CA 19 00 1C B6 DE
1542598690.64289,can1 11111111 [8] 00 2F CA 1A 00 1C B6 DE
1542598690.644581,can1 11111111 [8] 00 2F CA 1B 00 1C B6 DF
1542598690.646272,can1 11111111 [8] 00 2F CA 1C 00 1C B6 DF
1542598690.64798,can1 11111111 [8] 00 2F CA 1D 00 1C B6 E0
1542598690.650168,can1 11111111 [8] 00 2F CA 1E 00 1C B6 E1
1542598690.651964,can1 11111111 [8] 00 2F CA 1F 00 1C B6 E1
1542598690.653631,can1 11111111 [8] 00 2F CA 20 00 1C B6 E2
1542598690.655452,can1 11111111 [8] 00 2F CA 21 00 1C B6 E2
1542598690.657175,can1 11111111 [8] 00 2F CA 22 00 1C B6 E3
1542598690.658886,can1 11111111 [8] 00 2F CA 23 00 1C B6 E4
1542598690.660587,can1 11111111 [8] 00 2F CA 24 00 1C B6 E4
1542598690.665064,can1 11111111 [8] 00 2F CA 25 00 1C B6 E5
1542598690.667666,can1 11111111 [8] 00 2F CA 26 00 1C B6 E5
1542598690.669656,can1 11111111 [8] 00 2F CA 27 00 1C B6 E6
1542598690.671413,can1 11111111 [8] 00 2F CA 28 00 1C B6 E7
1542598690.673077,can1 11111111 [8] 00 2F CA 29 00 1C B6 E7
1542598690.674897,can1 11111111 [8] 00 2F CA 2A 00 1C B6 E8
1542598690.67662,can1 11111111 [8] 00 2F CA 2B 00 1C B6 E8
1542598690.678358,can1 11111111 [8] 00 2F CA 2C 00 1C B6 E9
1542598690.680188,can1 11111111 [8] 00 2F CA 2D 00 1C B6 EA
1542598690.681885,can1 11111111 [8] 00 2F CA 2E 00 1C B6 EA
1542598690.683607,can1 11111111 [8] 00 2F CA 2F 00 1C B6 EB
1542598690.6853,can1 11111111 [8] 00 2F CA 30 00 1C B6 EB
1542598690.687009,can1 11111111 [8] 00 2F CA 31 00 1C B6 EC
1542598690.688614,can1 11111111 [8] 00 2F CA 32 00 1C B6 ED
1542598690.690316,can1 18FEDF00 [8] FE FE FE FF FE FF BF FF
1542598690.692025,can1 11111111 [8] 00 2F CA 33 00 1C B6 ED
1542598690.693849,can1 0CF00400 [8] 38 FE FE FE FE 00 FF FE
1542598690.695549,can1 11111111 [8] 00 2F CA 35 00 1C B6 EE
1542598690.69725,can1 0CF00203 [8] FF 00 00 FF FF AD 47 03
1542598690.698955,can1 11111111 [8] 00 2F CA 36 00 1C B6 EF
1542598690.700675,can1 0CF00300 [8] D1 00 FE FF FF FF 00 FF
1542598690.702295,can1 11111111 [8] 00 2F CA 37 00 1C B6 F0
1542598690.70399,can1 11111111 [8] 00 2F CA 34 00 1C B6 EE
1542598690.705727,can1 11111111 [8] 00 2F CA 38 00 1C B6 F0
1542598690.707418,can1 11111111 [8] 00 2F CA 39 00 1C B6 F1
1542598690.709131,can1 11111111 [8] 00 2F CA 3A 00 1C B6 F1
1542598690.710937,can1 11111111 [8] 00 2F CA 3B 00 1C B6 F2
1542598690.712644,can1 11111111 [8] 00 2F CA 3C 00 1C B6 F3
1542598690.71437,can1 11111111 [8] 00 2F CA 3D 00 1C B6 F3
1542598690.715992,can1 11111111 [8] 00 2F CA 3E 00 1C B6 F4
1542598690.717694,can1 11111111 [8] 00 2F CA 3F 00 1C B6 F4
1542598690.719389,can1 11111111 [8] 00 2F CA 40 00 1C B6 F5
1542598690.721078,can1 11111111 [8] 00 2F CA 41 00 1C B6 F6
1542598690.72754,can1 11111111 [8] 00 2F CA 42 00 1C B6 F6
1542598690.729767,can1 11111111 [8] 00 2F CA 43 00 1C B6 F7
1542598690.74073,can1 11111111 [8] 00 2F CA 44 00 1C B6 F7
1542598690.741367,can1 11111111 [8] 00 2F CA 45 00 1C B6 F8
1542598690.742008,can1 11111111 [8] 00 2F CA 46 00 1C B6 F9
1542598690.742543,can1 11111111 [8] 00 2F CA 47 00 1C B6 F9
1542598690.743044,can1 11111111 [8] 00 2F CA 48 00 1C B6 FA
1542598690.747677,can1 11111111 [8] 00 2F CA 49 00 1C B6 FA
1542598690.748522,can1 11111111 [8] 00 2F CA 4A 00 1C B6 FB
1542598690.749472,can1 11111111 [8] 00 2F CA 4B 00 1C B6 FC
1542598690.750048,can1 11111111 [8] 00 2F CA 4C 00 1C B6 FC
1542598690.750566,can1 11111111 [8] 00 2F CA 4D 00 1C B6 FD
1542598690.751056,can1 11111111 [8] 00 2F CA 4E 00 1C B6 FD
1542598690.75161,can1 11111111 [8] 00 2F CA 4F 00 1C B6 FE
1542598690.752111,can1 11111111 [8] 00 2F CA 50 00 1C B6 FF
1542598690.752598,can1 11111111 [8] 00 2F CA 51 00 1C B6 FF
1542598690.753016,can1 11111111 [8] 00 2F CA 52 00 1C B7 00
1542598690.758457,can1 11111111 [8] 00 2F CA 53 00 1C B7 00
1542598690.759431,can1 11111111 [8] 00 2F CA 54 00 1C B7 01
1542598690.760058,can1 11111111 [8] 00 2F CA 55 00 1C B7 02
1542598690.760613,can1 11111111 [8] 00 2F CA 56 00 1C B7 02
1542598690.764239,can1 11111111 [8] 00 2F CA 57 00 1C B7 03
1542598690.765147,can1 11111111 [8] 00 2F CA 58 00 1C B7 03
1542598690.765824,can1 11111111 [8] 00 2F CA 59 00 1C B7 04
1542598690.766355,can1 11111111 [8] 00 2F CA 5A 00 1C B7 05
1542598690.766805,can1 11111111 [8] 00 2F CA 5B 00 1C B7 05
1542598690.771995,can1 11111111 [8] 00 2F CA 5C 00 1C B7 06
1542598690.772646,can1 11111111 [8] 00 2F CA 5D 00 1C B7 06
1542598690.773286,can1 14FFA000 [8] FC FF FF FF FF FF FF FF
1542598690.77382,can1 11111111 [8] 00 2F CA 5E 00 1C B7 07
1542598690.774314,can1 0CF00400 [8] 38 FE FE FE FE 00 FF FE
1542598690.778945,can1 11111111 [8] 00 2F CA 60 00 1C B7 08
1542598690.779768,can1 0CF00203 [8] FF 00 00 FF FF AD 47 03
1542598690.780364,can1 11111111 [8] 00 2F CA 61 00 1C B7 09
1542598690.78098,can1 11111111 [8] 00 2F CA 5F 00 1C B7 08
1542598690.781505,can1 11111111 [8] 00 2F CA 62 00 1C B7 09
1542598690.782017,can1 11111111 [8] 00 2F CA 63 00 1C B7 0A
1542598690.782494,can1 11111111 [8] 00 2F CA 64 00 1C B7 0B
1542598690.787361,can1 11111111 [8] 00 2F CA 65 00 1C B7 0B
1542598690.787994,can1 11111111 [8] 00 2F CA 66 00 1C B7 0C
1542598690.788605,can1 11111111 [8] 00 2F CA 67 00 1C B7 0C
1542598690.78914,can1 11111111 [8] 00 2F CA 68 00 1C B7 0D
1542598690.789649,can1 11111111 [8] 00 2F CA 69 00 1C B7 0E
1542598690.790141,can1 11111111 [8] 00 2F CA 6A 00 1C B7 0E
1542598690.79477,can1 11111111 [8] 00 2F CA 6B 00 1C B7 0F
1542598690.795566,can1 11111111 [8] 00 2F CA 6C 00 1C B7 0F
1542598690.79612,can1 11111111 [8] 00 2F CA 6D 00 1C B7 10
1542598690.796737,can1 11111111 [8] 00 2F CA 6E 00 1C B7 11
1542598690.797261,can1 11111111 [8] 00 2F CA 6F 00 1C B7 11
1542598690.797751,can1 11111111 [8] 00 2F CA 70 00 1C B7 12
1542598690.802195,can1 11111111 [8] 00 2F CA 71 00 1C B7 13
1542598690.803063,can1 11111111 [8] 00 2F CA 72 00 1C B7 13
1542598690.803673,can1 11111111 [8] 00 2F CA 73 00 1C B7 14
1542598690.804349,can1 11111111 [8] 00 2F CA 74 00 1C B7 14
1542598690.804826,can1 11111111 [8] 00 2F CA 75 00 1C B7 15
1542598690.805329,can1 11111111 [8] 00 2F CA 76 00 1C B7 16
1542598690.805823,can1 11111111 [8] 00 2F CA 77 00 1C B7 16
1542598690.810566,can1 11111111 [8] 00 2F CA 78 00 1C B7 17
1542598690.811244,can1 11111111 [8] 00 2F CA 79 00 1C B7 17
1542598690.811801,can1 11111111 [8] 00 2F CA 7A 00 1C B7 18
1542598690.812414,can1 11111111 [8] 00 2F CA 7B 00 1C B7 19
1542598690.812947,can1 11111111 [8] 00 2F CA 7C 00 1C B7 19
1542598690.813447,can1 11111111 [8] 00 2F CA 7D 00 1C B7 1A
1542598690.817607,can1 18F0010B [8] CF FF F0 FF FF DC FF FF
1542598690.818488,can1 11111111 [8] 00 2F CA 7E 00 1C B7 1A
1542598690.819089,can1 11111111 [8] 00 2F CA 7F 00 1C B7 1B
1542598690.819613,can1 11111111 [8] 00 2F CA 80 00 1C B7 1C
1542598690.820209,can1 11111111 [8] 00 2F CA 81 00 1C B7 1C
1542598690.820711,can1 11111111 [8] 00 2F CA 82 00 1C B7 1D
1542598690.82121,can1 11111111 [8] 00 2F CA 83 00 1C B7 1D
1542598690.822588,can1 11111111 [8] 00 2F CA 84 00 1C B7 1E
1542598690.823266,can1 11111111 [8] 00 2F CA 85 00 1C B7 1F
1542598690.823899,can1 11111111 [8] 00 2F CA 86 00 1C B7 1F
1542598690.82443,can1 11111111 [8] 00 2F CA 87 00 1C B7 20
1542598690.824934,can1 11111111 [8] 00 2F CA 88 00 1C B7 20
1542598690.825419,can1 18F0010B [8] CF FF F0 FF FF DC FF FF
1542598690.825965,can1 11111111 [8] 00 2F CA 89 00 1C B7 21
1542598690.826452,can1 11111111 [8] 00 2F CA 8A 00 1C B7 22
1542598690.826875,can1 11111111 [8] 00 2F CA 8B 00 1C B7 22
1542598690.827361,can1 11111111 [8] 00 2F CA 8C 00 1C B7 23
1542598690.827897,can1 11111111 [8] 00 2F CA 8D 00 1C B7 23
1542598690.8284,can1 11111111 [8] 00 2F CA 8E 00 1C B7 24
1542598690.828877,can1 11111111 [8] 00 2F CA 8F 00 1C B7 25
1542598690.82935,can1 11111111 [8] 00 2F CA 90 00 1C B7 25
1542598690.829887,can1 11111111 [8] 00 2F CA 91 00 1C B7 26
1542598690.830371,can1 11111111 [8] 00 2F CA 92 00 1C B7 26
1542598690.830836,can1 18F0010B [8] CF FF F0 FF FF DC FF FF
1542598690.831266,can1 11111111 [8] 00 2F CA 93 00 1C B7 27
1542598690.831799,can1 11111111 [8] 00 2F CA 94 00 1C B7 28
1542598690.832291,can1 11111111 [8] 00 2F CA 95 00 1C B7 28
1542598690.832766,can1 11111111 [8] 00 2F CA 96 00 1C B7 29
1542598690.833232,can1 11111111 [8] 00 2F CA 97 00 1C B7 29
1542598690.833778,can1 11111111 [8] 00 2F CA 98 00 1C B7 2A
1542598690.834261,can1 11111111 [8] 00 2F CA 99 00 1C B7 2B
1542598690.834683,can1 11111111 [8] 00 2F CA 9A 00 1C B7 2B
1542598690.835152,can1 11111111 [8] 00 2F CA 9B 00 1C B7 2C
1542598690.835684,can1 11111111 [8] 00 2F CA 9C 00 1C B7 2C
1542598690.836172,can1 18FEBF0B [8] 00 00 7D FE FE FE FF FF
1542598690.83665,can1 11111111 [8] 00 2F CA 9D 00 1C B7 2D
1542598690.837117,can1 11111111 [8] 00 2F CA 9E 00 1C B7 2E
1542598690.837643,can1 11111111 [8] 00 2F CA 9F 00 1C B7 2E
1542598690.838127,can1 11111111 [8] 00 2F CA A0 00 1C B7 2F
1542598690.838548,can1 11111111 [8] 00 2F CA A1 00 1C B7 2F
1542598690.839017,can1 11111111 [8] 00 2F CA A2 00 1C B7 30
1542598690.839536,can1 11111111 [8] 00 2F CA A3 00 1C B7 31
1542598690.840019,can1 11111111 [8] 00 2F CA A4 00 1C B7 31
1542598690.840501,can1 11111111 [8] 00 2F CA A5 00 1C B7 32
1542598690.84097,can1 11111111 [8] 00 2F CA A6 00 1C B7 32
1542598690.841498,can1 11111111 [8] 00 2F CA A7 00 1C B7 33
1542598690.841929,can1 18FEDF00 [8] FE FE FE FF FE FF BF FF
1542598690.842399,can1 11111111 [8] 00 2F CA A8 00 1C B7 34
1542598690.842888,can1 0CF00400 [8] 38 FE FE FE FE 00 FF FE
1542598690.843418,can1 11111111 [8] 00 2F CA AA 00 1C B7 35
1542598690.843919,can1 0CF00203 [8] FF 00 00 FF FF AD 47 03
1542598690.84439,can1 11111111 [8] 00 2F CA AB 00 1C B7 35
1542598690.844865,can1 0CF00300 [8] D1 00 FE FF FF FF 00 FF
1542598690.845398,can1 11111111 [8] 00 2F CA AC 00 1C B7 36
1542598690.845887,can1 11111111 [8] 00 2F CA A9 00 1C B7 34
1542598690.846317,can1 11111111 [8] 00 2F CA AD 00 1C B7 37
1542598690.846791,can1 11111111 [8] 00 2F CA AE 00 1C B7 37
1542598690.847314,can1 11111111 [8] 00 2F CA AF 00 1C B7 38
1542598690.847803,can1 11111111 [8] 00 2F CA B0 00 1C B7 38
1542598690.848274,can1 11111111 [8] 00 2F CA B1 00 1C B7 39
1542598690.848745,can1 11111111 [8] 00 2F CA B2 00 1C B7 3A
1542598690.849481,can1 11111111 [8] 00 2F CA B3 00 1C B7 3A
1542598690.850003,can1 11111111 [8] 00 2F CA B4 00 1C B7 3B
1542598690.850495,can1 11111111 [8] 00 2F CA B5 00 1C B7 3B
1542598690.851025,can1 11111111 [8] 00 2F CA B6 00 1C B7 3C
1542598690.851527,can1 11111111 [8] 00 2F CA B7 00 1C B7 3D
1542598690.852017,can1 11111111 [8] 00 2F CA B8 00 1C B7 3D
1542598690.85244,can1 11111111 [8] 00 2F CA B9 00 1C B7 3E
1542598690.852969,can1 11111111 [8] 00 2F CA BA 00 1C B7 3E
1542598690.853459,can1 11111111 [8] 00 2F CA BB 00 1C B7 3F
1542598690.853942,can1 11111111 [8] 00 2F CA BC 00 1C B7 40
1542598690.854427,can1 11111111 [8] 00 2F CA BD 00 1C B7 40
1542598690.854941,can1 11111111 [8] 00 2F CA BE 00 1C B7 41
1542598690.855422,can1 11111111 [8] 00 2F CA BF 00 1C B7 41
1542598690.855889,can1 11111111 [8] 00 2F CA C0 00 1C B7 42
1542598690.856306,can1 11111111 [8] 00 2F CA C1 00 1C B7 43
1542598690.856817,can1 11111111 [8] 00 2F CA C2 00 1C B7 43
1542598690.858672,can1 11111111 [8] 00 2F CA C3 00 1C B7 44
1542598690.859517,can1 11111111 [8] 00 2F CA C4 00 1C B7 44
1542598690.86008,can1 11111111 [8] 00 2F CA C5 00 1C B7 45
1542598690.860591,can1 11111111 [8] 00 2F CA C6 00 1C B7 46
1542598690.861251,can1 11111111 [8] 00 2F CA C7 00 1C B7 46
1542598690.861774,can1 11111111 [8] 00 2F CA C8 00 1C B7 47
1542598690.862258,can1 11111111 [8] 00 2F CA C9 00 1C B7 47
1542598690.862803,can1 11111111 [8] 00 2F CA CA 00 1C B7 48
1542598690.863308,can1 11111111 [8] 00 2F CA CB 00 1C B7 49
1542598690.863792,can1 11111111 [8] 00 2F CA CC 00 1C B7 49
1542598690.864407,can1 11111111 [8] 00 2F CA CD 00 1C B7 4A
1542598690.86499,can1 11111111 [8] 00 2F CA CE 00 1C B7 4A
1542598690.865505,can1 11111111 [8] 00 2F CA CF 00 1C B7 4B
1542598690.865994,can1 11111111 [8] 00 2F CA D0 00 1C B7 4C
1542598690.86647,can1 11111111 [8] 00 2F CA D1 00 1C B7 4C
1542598690.867016,can1 11111111 [8] 00 2F CA D2 00 1C B7 4D
1542598690.867439,can1 18FE4A03 [8] FF FF F3 FF F0 F7 FF FF
1542598690.867921,can1 11111111 [8] 00 2F CA D3 00 1C B7 4D
1542598690.868394,can1 0CF00400 [8] 38 FE FE FE FE 00 FF FE
1542598690.868945,can1 11111111 [8] 00 2F CA D5 00 1C B7 4F
1542598690.869428,can1 0CF00203 [8] FF 00 00 FF FF AD 47 03
1542598690.869899,can1 11111111 [8] 00 2F CA D6 00 1C B7 4F
1542598690.87036,can1 0CF00300 [8] D1 00 FE FF FF FF 00 FF
1542598690.870842,can1 11111111 [8] 00 2F CA D7 00 1C B7 50
1542598690.871331,can1 11111111 [8] 00 2F CA D4 00 1C B7 4E
1542598690.871809,can1 11111111 [8] 00 2F CA D8 00 1C B7 50
1542598690.87228,can1 11111111 [8] 00 2F CA D9 00 1C B7 51
1542598690.872812,can1 11111111 [8] 00 2F CA DA 00 1C B7 52
1542598690.873304,can1 11111111 [8] 00 2F CA DB 00 1C B7 52
1542598690.873779,can1 11111111 [8] 00 2F CA DC 00 1C B7 53
1542598690.874251,can1 11111111 [8] 00 2F CA DD 00 1C B7 53
1542598690.874792,can1 11111111 [8] 00 2F CA DE 00 1C B7 54
1542598690.875223,can1 11111111 [8] 00 2F CA DF 00 1C B7 55
1542598690.875702,can1 11111111 [8] 00 2F CA E0 00 1C B7 55
1542598690.876169,can1 11111111 [8] 00 2F CA E1 00 1C B7 56
1542598690.876697,can1 11111111 [8] 00 2F CA E2 00 1C B7 56
1542598690.877179,can1 11111111 [8] 00 2F CA E3 00 1C B7 57
1542598690.877656,can1 11111111 [8] 00 2F CA E4 00 1C B7 58
1542598690.878125,can1 11111111 [8] 00 2F CA E5 00 1C B7 58
1542598690.878659,can1 11111111 [8] 00 2F CA E6 00 1C B7 59
1542598690.879088,can1 11111111 [8] 00 2F CA E7 00 1C B7 59
1542598690.879564,can1 11111111 [8] 00 2F CA E8 00 1C B7 5A
1542598690.880028,can1 11111111 [8] 00 2F CA E9 00 1C B7 5B
1542598690.880542,can1 11111111 [8] 00 2F CA EA 00 1C B7 5B
1542598690.881031,can1 11111111 [8] 00 2F CA EB 00 1C B7 5C
1542598690.881504,can1 11111111 [8] 00 2F CA EC 00 1C B7 5C
1542598690.88198,can1 11111111 [8] 00 2F CA ED 00 1C B7 5D
1542598690.882504,can1 11111111 [8] 00 2F CA EE 00 1C B7 5E
1542598690.882927,can1 11111111 [8] 00 2F CA EF 00 1C B7 5E
1542598690.883409,can1 11111111 [8] 00 2F CA F0 00 1C B7 5F
1542598690.883881,can1 11111111 [8] 00 2F CA F1 00 1C B7 5F
1542598690.884408,can1 11111111 [8] 00 2F CA F2 00 1C B7 60
1542598690.884899,can1 11111111 [8] 00 2F CA F3 00 1C B7 61
1542598690.885376,can1 11111111 [8] 00 2F CA F4 00 1C B7 61
1542598690.885847,can1 11111111 [8] 00 2F CA F5 00 1C B7 62
1542598690.886373,can1 11111111 [8] 00 2F CA F6 00 1C B7 62
1542598690.886804,can1 11111111 [8] 00 2F CA F7 00 1C B7 63
1542598690.887285,can1 11111111 [8] 00 2F CA F8 00 1C B7 64
1542598690.88775,can1 11111111 [8] 00 2F CA F9 00 1C B7 64
1542598690.888276,can1 11111111 [8] 00 2F CA FA 00 1C B7 65
1542598690.888761,can1 11111111 [8] 00 2F CA FB 00 1C B7 65
1542598690.895344,can1 11111111 [8] 00 2F CA FC 00 1C B7 66
1542598690.896653,can1 11111111 [8] 00 2F CA FD 00 1C B7 67
1542598690.897377,can1 14FFA000 [8] FC FF FF FF FF FF FF FF
1542598690.897985,can1 11111111 [8] 00 2F CA FE 00 1C B7 67
1542598690.899022,can1 0CF00400 [8] 38 FE FE FE FE 00 FF FE
1542598690.899647,can1 11111111 [8] 00 2F CB 00 00 1C B7 68
1542598690.900278,can1 0CF00203 [8] FF 00 00 FF FF AD 47 03
1542598690.900795,can1 11111111 [8] 00 2F CB 01 00 1C B7 69
1542598690.901283,can1 11111111 [8] 00 2F CA FF 00 1C B7 68
1542598690.9018,can1 11111111 [8] 00 2F CB 02 00 1C B7 6A
1542598690.902345,can1 11111111 [8] 00 2F CB 03 00 1C B7 6A
1542598690.902796,can1 11111111 [8] 00 2F CB 04 00 1C B7 6B
1542598690.903302,can1 11111111 [8] 00 2F CB 05 00 1C B7 6B
1542598690.904438,can1 11111111 [8] 00 2F CB 06 00 1C B7 6C
1542598690.905158,can1 11111111 [8] 00 2F CB 07 00 1C B7 6D
1542598690.905752,can1 11111111 [8] 00 2F CB 08 00 1C B7 6D
1542598690.906292,can1 11111111 [8] 00 2F CB 09 00 1C B7 6E
1542598690.906789,can1 11111111 [8] 00 2F CB 0A 00 1C B7 6E
1542598690.907216,can1 11111111 [8] 00 2F CB 0B 00 1C B7 6F
1542598690.907753,can1 11111111 [8] 00 2F CB 0C 00 1C B7 70
1542598690.908242,can1 11111111 [8] 00 2F CB 0D 00 1C B7 70
1542598690.908741,can1 11111111 [8] 00 2F CB 0E 00 1C B7 71
1542598690.909261,can1 11111111 [8] 00 2F CB 0F 00 1C B7 71
1542598690.910395,can1 11111111 [8] 00 2F CB 10 00 1C B7 72
1542598690.911027,can1 11111111 [8] 00 2F CB 11 00 1C B7 73
1542598690.911628,can1 11111111 [8] 00 2F CB 12 00 1C B7 73
1542598690.912161,can1 11111111 [8] 00 2F CB 13 00 1C B7 74
1542598690.912659,can1 11111111 [8] 00 2F CB 14 00 1C B7 74
1542598690.913144,can1 11111111 [8] 00 2F CB 15 00 1C B7 75
1542598690.913673,can1 11111111 [8] 00 2F CB 16 00 1C B7 76
1542598690.914182,can1 11111111 [8] 00 2F CB 17 00 1C B7 76
1542598690.914668,can1 11111111 [8] 00 2F CB 18 00 1C B7 77
1542598690.91514,can1 11111111 [8] 00 2F CB 19 00 1C B7 77
1542598690.915666,can1 11111111 [8] 00 2F CB 1A 00 1C B7 78
1542598690.916194,can1 11111111 [8] 00 2F CB 1B 00 1C B7 79
1542598690.91669,can1 11111111 [8] 00 2F CB 1C 00 1C B7 79
1542598690.917128,can1 11111111 [8] 00 2F CB 1D 00 1C B7 7A
1542598690.918349,can1 11111111 [8] 00 2F CB 1E 00 1C B7 7A
1542598690.918934,can1 18FEDF00 [8] FE FE FE FF FE FF BF FF
1542598690.919511,can1 11111111 [8] 00 2F CB 1F 00 1C B7 7B
1542598690.920034,can1 0CF00400 [8] 38 FE FE FE FE 00 FF FE
1542598690.92053,can1 11111111 [8] 00 2F CB 21 00 1C B7 7C
1542598690.92096,can1 0CF00203 [8] FF 00 00 FF FF AD 47 03
1542598690.921498,can1 11111111 [8] 00 2F CB 22 00 1C B7 7D
1542598690.921992,can1 11111111 [8] 00 2F CB 20 00 1C B7 7C
1542598690.922474,can1 11111111 [8] 00 2F CB 23 00 1C B7 7D
1542598690.922945,can1 11111111 [8] 00 2F CB 24 00 1C B7 7E
1542598690.923471,can1 11111111 [8] 00 2F CB 25 00 1C B7 7F
1542598690.923959,can1 11111111 [8] 00 2F CB 26 00 1C B7 7F
1542598690.924431,can1 11111111 [8] 00 2F CB 27 00 1C B7 80
1542598690.9249,can1 11111111 [8] 00 2F CB 28 00 1C B7 80
1542598690.925432,can1 11111111 [8] 00 2F CB 29 00 1C B7 81
1542598690.925873,can1 11111111 [8] 00 2F CB 2A 00 1C B7 82
1542598690.926353,can1 11111111 [8] 00 2F CB 2B 00 1C B7 82
1542598690.92683,can1 11111111 [8] 00 2F CB 2C 00 1C B7 83
1542598690.927355,can1 11111111 [8] 00 2F CB 2D 00 1C B7 83
1542598690.927838,can1 11111111 [8] 00 2F CB 2E 00 1C B7 84
1542598690.928306,can1 11111111 [8] 00 2F CB 2F 00 1C B7 85
1542598690.928775,can1 11111111 [8] 00 2F CB 30 00 1C B7 85
1542598690.929304,can1 11111111 [8] 00 2F CB 31 00 1C B7 86
1542598690.929738,can1 11111111 [8] 00 2F CB 32 00 1C B7 86
1542598690.930239,can1 11111111 [8] 00 2F CB 33 00 1C B7 87
1542598690.930707,can1 11111111 [8] 00 2F CB 34 00 1C B7 88
1542598690.931239,can1 11111111 [8] 00 2F CB 35 00 1C B7 88
1542598690.931728,can1 11111111 [8] 00 2F CB 36 00 1C B7 89
1542598690.9322,can1 11111111 [8] 00 2F CB 37 00 1C B7 89
1542598690.932667,can1 11111111 [8] 00 2F CB 38 00 1C B7 8A
1542598690.93319,can1 11111111 [8] 00 2F CB 39 00 1C B7 8B
1542598690.93367,can1 11111111 [8] 00 2F CB 3A 00 1C B7 8B
1542598690.934094,can1 11111111 [8] 00 2F CB 3B 00 1C B7 8C
1542598690.934561,can1 11111111 [8] 00 2F CB 3C 00 1C B7 8C
1542598690.935078,can1 11111111 [8] 00 2F CB 3D 00 1C B7 8D
1542598690.935561,can1 11111111 [8] 00 2F CB 3E 00 1C B7 8E
1542598690.93603,can1 18F0010B [8] CF FF F0 FF FF DC FF FF
1542598690.936489,can1 11111111 [8] 00 2F CB 3F 00 1C B7 8E
1542598690.937003,can1 11111111 [8] 00 2F CB 40 00 1C B7 8F
1542598690.937491,can1 11111111 [8] 00 2F CB 41 00 1C B7 8F
1542598690.937928,can1 11111111 [8] 00 2F CB 42 00 1C B7 90
1542598690.938411,can1 11111111 [8] 00 2F CB 43 00 1C B7 91
1542598690.938927,can1 11111111 [8] 00 2F CB 44 00 1C B7 91
1542598690.939421,can1 11111111 [8] 00 2F CB 45 00 1C B7 92
1542598690.939892,can1 11111111 [8] 00 2F CB 46 00 1C B7 92
1542598690.940354,can1 11111111 [8] 00 2F CB 47 00 1C B7 93
1542598690.940875,can1 11111111 [8] 00 2F CB 48 00 1C B7 94
1542598690.941369,can1 11111111 [8] 00 2F CB 49 00 1C B7 94
1542598690.941794,can1 18F0010B [8] CF FF F0 FF FF DC FF FF
1542598690.942269,can1 11111111 [8] 00 2F CB 4A 00 1C B7 95
1542598690.942795,can1 11111111 [8] 00 2F CB 4B 00 1C B7 95
1542598690.943292,can1 11111111 [8] 00 2F CB 4C 00 1C B7 96
1542598690.943778,can1 11111111 [8] 00 2F CB 4D 00 1C B7 97
1542598690.944248,can1 11111111 [8] 00 2F CB 4E 00 1C B7 97
1542598690.944764,can1 11111111 [8] 00 2F CB 4F 00 1C B7 98
1542598690.945255,can1 11111111 [8] 00 2F CB 50 00 1C B7 98
1542598690.945736,can1 11111111 [8] 00 2F CB 51 00 1C B7 99
1542598690.946163,can1 11111111 [8] 00 2F CB 52 00 1C B7 9A
1542598690.94668,can1 11111111 [8] 00 2F CB 53 00 1C B7 9A
1542598690.947175,can1 18F00503 [8] FF 57 9E FF 20 2D 2D 2D
1542598690.94765,can1 11111111 [8] 00 2F CB 54 00 1C B7 9B
1542598690.948122,can1 0CF00400 [8] 38 FE FE FE FE 00 FF FE
1542598690.948633,can1 11111111 [8] 00 2F CB 56 00 1C B7 9C
1542598690.949274,can1 0CF00203 [8] FF 00 00 FF FF AD 47 03
1542598690.94983,can1 11111111 [8] 00 2F CB 57 00 1C B7 9D
1542598690.950336,can1 0CF00300 [8] D1 00 FE FF FF FF 00 FF
1542598690.950883,can1 11111111 [8] 00 2F CB 58 00 1C B7 9D
1542598690.951376,can1 0CF00400 [8] 38 FE FE FE FE 00 FF FE
1542598690.951845,can1 11111111 [8] 00 2F CB 59 00 1C B7 9E
1542598690.952273,can1 0CF00203 [8] FF 00 00 FF FF AD 47 03
1542598690.952809,can1 11111111 [8] 00 2F CB 5A 00 1C B7 9E
1542598690.953296,can1 11111111 [8] 00 2F CB 55 00 1C B7 9B
1542598690.953769,can1 11111111 [8] 00 2F CB 5B 00 1C B7 9F
1542598690.95424,can1 11111111 [8] 00 2F CB 5C 00 1C B7 A0
1542598690.954774,can1 11111111 [8] 00 2F CB 5D 00 1C B7 A0
1542598690.955264,can1 11111111 [8] 00 2F CB 5E 00 1C B7 A1
1542598690.955738,can1 11111111 [8] 00 2F CB 5F 00 1C B7 A1
1542598690.956216,can1 11111111 [8] 00 2F CB 60 00 1C B7 A2
1542598690.95676,can1 11111111 [8] 00 2F CB 61 00 1C B7 A3
1542598690.958616,can1 11111111 [8] 00 2F CB 62 00 1C B7 A3
1542598690.959343,can1 11111111 [8] 00 2F CB 63 00 1C B7 A4
1542598690.959908,can1 11111111 [8] 00 2F CB 64 00 1C B7 A4
1542598690.960616,can1 11111111 [8] 00 2F CB 65 00 1C B7 A5
1542598690.961166,can1 11111111 [8] 00 2F CB 66 00 1C B7 A6
1542598690.961612,can1 11111111 [8] 00 2F CB 67 00 1C B7 A6
1542598690.962102,can1 11111111 [8] 00 2F CB 68 00 1C B7 A7
1542598690.962652,can1 11111111 [8] 00 2F CB 69 00 1C B7 A7
1542598690.963143,can1 11111111 [8] 00 2F CB 6A 00 1C B7 A8
1542598690.963626,can1 11111111 [8] 00 2F CB 6B 00 1C B7 A9
1542598690.964098,can1 11111111 [8] 00 2F CB 6C 00 1C B7 A9
1542598690.964794,can1 11111111 [8] 00 2F CB 6D 00 1C B7 AA
1542598690.965334,can1 11111111 [8] 00 2F CB 6E 00 1C B7 AA
1542598690.965836,can1 11111111 [8] 00 2F CB 6F 00 1C B7 AB
1542598690.966377,can1 11111111 [8] 00 2F CB 70 00 1C B7 AC
1542598690.966884,can1 11111111 [8] 00 2F CB 71 00 1C B7 AC
1542598690.967373,can1 11111111 [8] 00 2F CB 72 00 1C B7 AD
1542598690.967846,can1 11111111 [8] 00 2F CB 73 00 1C B7 AD
1542598690.968375,can1 11111111 [8] 00 2F CB 74 00 1C B7 AE
1542598690.96887,can1 11111111 [8] 00 2F CB 75 00 1C B7 AF
1542598690.969342,can1 11111111 [8] 00 2F CB 76 00 1C B7 AF
1542598690.969767,can1 11111111 [8] 00 2F CB 77 00 1C B7 B0
1542598690.970298,can1 11111111 [8] 00 2F CB 78 00 1C B7 B0
1542598690.97133,can1 11111111 [8] 00 2F CB 79 00 1C B7 B1
1542598690.971948,can1 11111111 [8] 00 2F CB 7A 00 1C B7 B2
1542598690.972627,can1 11111111 [8] 00 2F CB 7B 00 1C B7 B2
1542598690.973083,can1 11111111 [8] 00 2F CB 7C 00 1C B7 B3
1542598690.973574,can1 11111111 [8] 00 2F CB 7D 00 1C B7 B3
1542598690.974124,can1 11111111 [8] 00 2F CB 7E 00 1C B7 B4
1542598690.974633,can1 11111111 [8] 00 2F CB 7F 00 1C B7 B5
1542598690.975113,can1 11111111 [8] 00 2F CB 80 00 1C B7 B5
1542598690.975588,can1 11111111 [8] 00 2F CB 81 00 1C B7 B6
1542598690.976121,can1 11111111 [8] 00 2F CB 82 00 1C B7 B6
1542598690.976621,can1 11111111 [8] 00 2F CB 83 00 1C B7 B7
1542598690.977043,can1 11111111 [8] 00 2F CB 84 00 1C B7 B8
1542598690.977518,can1 11111111 [8] 00 2F CB 85 00 1C B7 B8
1542598690.978045,can1 11111111 [8] 00 2F CB 86 00 1C B7 B9
1542598690.978542,can1 11111111 [8] 00 2F CB 87 00 1C B7 B9
1542598690.97902,can1 11111111 [8] 00 2F CB 88 00 1C B7 BA
1542598690.979492,can1 11111111 [8] 00 2F CB 89 00 1C B7 BB
1542598690.980016,can1 11111111 [8] 00 2F CB 8A 00 1C B7 BB
1542598690.980503,can1 11111111 [8] 00 2F CB 93 00 1C B7 C1
1542598690.980978,can1 11111111 [8] 00 2F CB 94 00 1C B7 C1
1542598690.981393,can1 18FEBF0B [8] 00 00 7D FE FE FE FF FF
1542598690.98191,can1 11111111 [8] 00 2F CB 95 00 1C B7 C2
1542598690.982401,can1 11111111 [8] 00 2F CB 96 00 1C B7 C2
1542598690.982881,can1 11111111 [8] 00 2F CB 97 00 1C B7 C3
1542598690.98335,can1 11111111 [8] 00 2F CB 9F 00 1C B7 C8
1542598690.983865,can1 11111111 [8] 00 2F CB A0 00 1C B7 C8
1542598690.984365,can1 18FEBF0B [8] 00 00 7D FE FE FE FF FF
1542598690.984848,can1 11111111 [8] 00 2F CB A2 00 1C B7 CA
1542598690.985261,can1 11111111 [8] 00 2F CB A3 00 1C B7 CA
1542598690.985779,can1 11111111 [8] 00 2F CB A4 00 1C B7 CB
1542598690.986291,can1 11111111 [8] 00 2F CB A5 00 1C B7 CB
1542598690.986793,can1 11111111 [8] 00 2F CB AC 00 1C B7 D0
1542598690.987276,can1 0CF00400 [8] 38 FE FE FE FE 00 FF FE
1542598690.987802,can1 11111111 [8] 00 2F CB AE 00 1C B7 D1
1542598690.988301,can1 0CF00203 [8] FF 00 00 FF FF AD 47 03
1542598690.988775,can1 11111111 [8] 00 2F CB AF 00 1C B7 D1
1542598690.989251,can1 0CF00300 [8] D1 00 FE FF FF FF 00 FF
1542598690.989772,can1 11111111 [8] 00 2F CB B6 00 1C B7 D6
1542598690.990205,can1 11111111 [8] 00 2F CB B8 00 1C B7 D7
1542598690.990678,can1 11111111 [8] 00 2F CB B9 00 1C B7 D7
1542598690.991152,can1 11111111 [8] 00 2F CB BA 00 1C B7 D8
1542598690.991665,can1 11111111 [8] 00 2F CB BB 00 1C B7 D9
1542598690.992163,can1 11111111 [8] 00 2F CB BC 00 1C B7 D9
1542598690.992634,can1 11111111 [8] 00 2F CB C3 00 1C B7 DD
1542598690.993101,can1 11111111 [8] 00 2F CB C5 00 1C B7 DF
1542598690.993611,can1 11111111 [8] 00 2F CB C6 00 1C B7 DF
1542598690.994102,can1 11111111 [8] 00 2F CB C7 00 1C B7 E0
1542598690.994537,can1 11111111 [8] 00 2F CB C8 00 1C B7 E0
1542598690.995013,can1 11111111 [8] 00 2F CB C9 00 1C B7 E1
1542598690.995532,can1 11111111 [8] 00 2F CB CA 00 1C B7 E2
1542598690.996031,can1 11111111 [8] 00 2F CB CC 00 1C B7 E3
1542598690.996507,can1 11111111 [8] 00 2F CB CD 00 1C B7 E3
1542598690.99698,can1 11111111 [8] 00 2F CB CF 00 1C B7 E5
1542598690.997493,can1 11111111 [8] 00 2F CB D0 00 1C B7 E5
1542598690.997976,can1 11111111 [8] 00 2F CB D1 00 1C B7 E6
1542598690.998398,can1 11111111 [8] 00 2F CB D2 00 1C B7 E6
1542598690.998866,can1 11111111 [8] 00 2F CB D3 00 1C B7 E7
1542598690.999331,can1 11111111 [8] 00 2F CB D4 00 1C B7 E8
1542598690.999871,can1 11111111 [8] 00 2F CB D5 00 1C B7 E8
1542598691.000344,can1 11111111 [8] 00 2F CB D6 00 1C B7 E9
1542598691.00081,can1 11111111 [8] 00 2F CB D7 00 1C B7 E9
1542598691.001278,can1 11111111 [8] 00 2F CB D8 00 1C B7 EA
1542598691.00175,can1 11111111 [8] 00 2F CB D9 00 1C B7 EB
1542598691.002244,can1 14FFA000 [8] FC FF FF FF FF FF FF FF
1542598691.002708,can1 11111111 [8] 00 2F CB DA 00 1C B7 EB
1542598691.003175,can1 0CF00400 [8] 38 FE FE FE FE 00 FF FE
1542598691.003712,can1 11111111 [8] 00 2F CB DC 00 1C B7 EC
1542598691.004192,can1 0CF00203 [8] FF 00 00 FF FF AD 47 03
1542598691.004666,can1 11111111 [8] 00 2F CB DD 00 1C B7 ED
1542598691.005128,can1 0CF00400 [8] 38 FE FE FE FE 00 FF FE
1542598691.005656,can1 11111111 [8] 00 2F CB DE 00 1C B7 EE
1542598691.006095,can1 0CF00300 [8] D1 00 FE FF FF FF 00 FF
1542598691.006566,can1 11111111 [8] 00 2F CB DF 00 1C B7 EE
1542598691.007035,can1 11111111 [8] 00 2F CB DB 00 1C B7 EC
1542598691.007569,can1 11111111 [8] 00 2F CB E0 00 1C B7 EF
1542598691.008049,can1 11111111 [8] 00 2F CB E1 00 1C B7 EF
1542598691.008524,can1 11111111 [8] 00 2F CB E2 00 1C B7 F0
1542598691.008995,can1 11111111 [8] 00 2F CB E3 00 1C B7 F1
1542598691.009533,can1 11111111 [8] 00 2F CB E4 00 1C B7 F1
1542598691.009972,can1 11111111 [8] 00 2F CB E5 00 1C B7 F2
1542598691.010449,can1 11111111 [8] 00 2F CB E6 00 1C B7 F2
1542598691.010915,can1 11111111 [8] 00 2F CB E7 00 1C B7 F3
1542598691.011444,can1 11111111 [8] 00 2F CB E8 00 1C B7 F4
1542598691.01193,can1 11111111 [8] 00 2F CB E9 00 1C B7 F4
1542598691.012399,can1 11111111 [8] 00 2F CB EA 00 1C B7 F5
1542598691.012868,can1 11111111 [8] 00 2F CB EB 00 1C B7 F5
1542598691.013404,can1 11111111 [8] 00 2F CB EC 00 1C B7 F6
1542598691.013828,can1 11111111 [8] 00 2F CB ED 00 1C B7 F7
1542598691.014303,can1 11111111 [8] 00 2F CB EE 00 1C B7 F7
1542598691.015245,can1 11111111 [8] 00 2F CB EF 00 1C B7 F8
1542598691.015879,can1 11111111 [8] 00 2F CB F0 00 1C B7 F8
1542598691.016428,can1 11111111 [8] 00 2F CB F1 00 1C B7 F9
1542598691.016995,can1 11111111 [8] 00 2F CB F2 00 1C B7 FA
1542598691.017529,can1 11111111 [8] 00 2F CB F3 00 1C B7 FA
1542598691.018027,can1 11111111 [8] 00 2F CB F4 00 1C B7 FB
1542598691.018511,can1 11111111 [8] 00 2F CB F5 00 1C B7 FB
1542598691.019031,can1 11111111 [8] 00 2F CB F6 00 1C B7 FC
1542598691.019525,can1 11111111 [8] 00 2F CB F7 00 1C B7 FD
1542598691.020012,can1 11111111 [8] 00 2F CB F8 00 1C B7 FD
1542598691.020433,can1 11111111 [8] 00 2F CB F9 00 1C B7 FE
1542598691.020952,can1 11111111 [8] 00 2F CB FA 00 1C B7 FE
1542598691.021449,can1 11111111 [8] 00 2F CB FB 00 1C B7 FF
1542598691.02193,can1 11111111 [8] 00 2F CB FC 00 1C B8 00
1542598691.022395,can1 11111111 [8] 00 2F CB FD 00 1C B8 00
1542598691.022907,can1 11111111 [8] 00 2F CB FE 00 1C B8 01
1542598691.023396,can1 11111111 [8] 00 2F CB FF 00 1C B8 01
1542598691.023866,can1 11111111 [8] 00 2F CC 00 00 1C B8 02
1542598691.024291,can1 11111111 [8] 00 2F CC 01 00 1C B8 03
1542598691.024813,can1 11111111 [8] 00 2F CC 02 00 1C B8 03
1542598691.025311,can1 11111111 [8] 00 2F CC 03 00 1C B8 04
1542598691.025794,can1 11111111 [8] 00 2F CC 04 00 1C B8 04
1542598691.026275,can1 11111111 [8] 00 2F CC 05 00 1C B8 05
1542598691.026779,can1 11111111 [8] 00 2F CC 06 00 1C B8 06
1542598691.027265,can1 11111111 [8] 00 2F CC 07 00 1C B8 06
1542598691.027736,can1 11111111 [8] 00 2F CC 08 00 1C B8 07
1542598691.028201,can1 11111111 [8] 00 2F CC 09 00 1C B8 07
1542598691.028615,can1 11111111 [8] 00 2F CC 0A 00 1C B8 08
1542598691.029147,can1 11111111 [8] 00 2F CC 0B 00 1C B8 09
1542598691.02962,can1 11111111 [8] 00 2F CC 0C 00 1C B8 09
1542598691.030079,can1 11111111 [8] 00 2F CC 0D 00 1C B8 0A
1542598691.030547,can1 11111111 [8] 00 2F CC 0E 00 1C B8 0A
1542598691.031084,can1 11111111 [8] 00 2F CC 0F 00 1C B8 0B
1542598691.031556,can1 11111111 [8] 00 2F CC 10 00 1C B8 0C
1542598691.032015,can1 11111111 [8] 00 2F CC 11 00 1C B8 0C
1542598691.032434,can1 11111111 [8] 00 2F CC 12 00 1C B8 0D
1542598691.032972,can1 11111111 [8] 00 2F CC 13 00 1C B8 0D
1542598691.033453,can1 11111111 [8] 00 2F CC 14 00 1C B8 0E
1542598691.03393,can1 11111111 [8] 00 2F CC 15 00 1C B8 0F
1542598691.034396,can1 11111111 [8] 00 2F CC 16 00 1C B8 0F
1542598691.034938,can1 11111111 [8] 00 2F CC 17 00 1C B8 10
1542598691.035413,can1 11111111 [8] 00 2F CC 18 00 1C B8 10
1542598691.035886,can1 14FD3E00 [8] FF FF FF FF FF FF FF FF
1542598691.036298,can1 11111111 [8] 00 2F CC 19 00 1C B8 11
1542598691.037027,can1 0CF00400 [8] 38 FE FE FE FE 00 FF FE
1542598691.037546,can1 11111111 [8] 00 2F CC 1B 00 1C B8 12
1542598691.038627,can1 0CF00203 [8] FF 00 00 FF FF AD 47 03
1542598691.039267,can1 11111111 [8] 00 2F CC 1C 00 1C B8 13
1542598691.0398,can1 11111111 [8] 00 2F CC 1A 00 1C B8 12
1542598691.040293,can1 11111111 [8] 00 2F CC 1D 00 1C B8 13
1542598691.040882,can1 11111111 [8] 00 2F CC 1E 00 1C B8 14
1542598691.041389,can1 11111111 [8] 00 2F CC 1F 00 1C B8 15
1542598691.041819,can1 11111111 [8] 00 2F CC 20 00 1C B8 15
1542598691.042312,can1 11111111 [8] 00 2F CC 21 00 1C B8 16
1542598691.04287,can1 11111111 [8] 00 2F CC 22 00 1C B8 16
1542598691.043357,can1 11111111 [8] 00 2F CC 23 00 1C B8 17
1542598691.04384,can1 11111111 [8] 00 2F CC 24 00 1C B8 18
1542598691.044362,can1 11111111 [8] 00 2F CC 25 00 1C B8 18
1542598691.044858,can1 11111111 [8] 00 2F CC 26 00 1C B8 19
1542598691.045332,can1 11111111 [8] 00 2F CC 27 00 1C B8 1A
1542598691.045797,can1 11111111 [8] 00 2F CC 28 00 1C B8 1A
1542598691.046207,can1 11111111 [8] 00 2F CC 29 00 1C B8 1B
1542598691.046733,can1 11111111 [8] 00 2F CC 2A 00 1C B8 1B
1542598691.04722,can1 11111111 [8] 00 2F CC 2B 00 1C B8 1C
1542598691.047693,can1 11111111 [8] 00 2F CC 2C 00 1C B8 1D
1542598691.048175,can1 11111111 [8] 00 2F CC 2D 00 1C B8 1D
1542598691.048724,can1 11111111 [8] 00 2F CC 2E 00 1C B8 1E
1542598691.049204,can1 11111111 [8] 00 2F CC 2F 00 1C B8 1E
1542598691.049903,can1 11111111 [8] 00 2F CC 30 00 1C B8 1F
1542598691.050471,can1 11111111 [8] 00 2F CC 31 00 1C B8 20
1542598691.050969,can1 11111111 [8] 00 2F CC 32 00 1C B8 20
1542598691.051454,can1 11111111 [8] 00 2F CC 33 00 1C B8 21
1542598691.051933,can1 11111111 [8] 00 2F CC 34 00 1C B8 21
1542598691.052473,can1 11111111 [8] 00 2F CC 35 00 1C B8 22
1542598691.05295,can1 11111111 [8] 00 2F CC 36 00 1C B8 23
1542598691.053425,can1 11111111 [8] 00 2F CC 37 00 1C B8 23
1542598691.053843,can1 11111111 [8] 00 2F CC 38 00 1C B8 24
1542598691.054375,can1 11111111 [8] 00 2F CC 39 00 1C B8 24
1542598691.054861,can1 11111111 [8] 00 2F CC 3A 00 1C B8 25
1542598691.055331,can1 11111111 [8] 00 2F CC 3B 00 1C B8 26
1542598691.055796,can1 18ECFFFA [8] 20 1C 00 04 FF EB FE 00
1542598691.056317,can1 11111111 [8] 00 2F CC 3C 00 1C B8 26
1542598691.056812,can1 11111111 [8] 00 2F CC 3D 00 1C B8 27
1542598691.058471,can1 11111111 [8] 00 2F CC 3E 00 1C B8 27
1542598691.059268,can1 11111111 [8] 00 2F CC 3F 00 1C B8 28
1542598691.05988,can1 11111111 [8] 00 2F CC 40 00 1C B8 29
1542598691.060657,can1 11111111 [8] 00 2F CC 41 00 1C B8 29
1542598691.061186,can1 11111111 [8] 00 2F CC 42 00 1C B8 2A
1542598691.061682,can1 11111111 [8] 00 2F CC 43 00 1C B8 2A
1542598691.062248,can1 11111111 [8] 00 2F CC 45 00 1C B8 2C
1542598691.062759,can1 11111111 [8] 00 2F CC 46 00 1C B8 2C
1542598691.063181,can1 18EBFFFA [8] 01 53 59 4E 45 52 2A 53
1542598691.063691,can1 11111111 [8] 00 2F CC 47 00 1C B8 2D
1542598691.064249,can1 11111111 [8] 00 2F CC 48 00 1C B8 2D
1542598691.064954,can1 11111111 [8] 00 2F CC 49 00 1C B8 2E
1542598691.065507,can1 11111111 [8] 00 2F CC 4A 00 1C B8 2F
1542598691.066075,can1 11111111 [8] 00 2F CC 4C 00 1C B8 30
1542598691.066528,can1 11111111 [8] 00 2F CC 4D 00 1C B8 30
1542598691.067021,can1 11111111 [8] 00 2F CC 4F 00 1C B8 32
1542598691.0675,can1 11111111 [8] 00 2F CC 50 00 1C B8 32
1542598691.068029,can1 11111111 [8] 00 2F CC 51 00 1C B8 33
1542598691.068513,can1 18EBFFFA [8] 03 58 58 58 58 2A 55 4E
1542598691.068982,can1 11111111 [8] 00 2F CC 52 00 1C B8 33
1542598691.069448,can1 11111111 [8] 00 2F CC 53 00 1C B8 34
1542598691.069977,can1 11111111 [8] 00 2F CC 54 00 1C B8 35
1542598691.070463,can1 11111111 [8] 00 2F CC 55 00 1C B8 35
1542598691.070887,can1 11111111 [8] 00 2F CC 56 00 1C B8 36
1542598691.071355,can1 11111111 [8] 00 2F CC 57 00 1C B8 36
1542598691.07188,can1 11111111 [8] 00 2F CC 58 00 1C B8 37
1542598691.072365,can1 11111111 [8] 00 2F CC 59 00 1C B8 38
1542598691.072832,can1 11111111 [8] 00 2F CC 5A 00 1C B8 38
1542598691.073299,can1 11111111 [8] 00 2F CC 5B 00 1C B8 39
1542598691.073819,can1 11111111 [8] 00 2F CC 5C 00 1C B8 39
1542598691.07431,can1 18EBFFFA [8] 04 49 56 45 52 53 41 4C
1542598691.074727,can1 11111111 [8] 00 2F CC 5D 00 1C B8 3A
1542598691.075198,can1 11111111 [8] 00 2F CC 5F 00 1C B8 3B
1542598691.075722,can1 11111111 [8] 00 2F CC 60 00 1C B8 3C
1542598691.076207,can1 11111111 [8] 00 2F CC 61 00 1C B8 3C
1542598691.076686,can1 11111111 [8] 00 2F CC 62 00 1C B8 3D
1542598691.077155,can1 11111111 [8] 00 2F CC 63 00 1C B8 3E
1542598691.077681,can1 11111111 [8] 00 2F CC 64 00 1C B8 3E
1542598691.078171,can1 11111111 [8] 00 2F CC 65 00 1C B8 3F
1542598691.078649,can1 11111111 [8] 00 2F CC 66 00 1C B8 3F
1542598691.079067,can1 11111111 [8] 00 2F CC 67 00 1C B8 40
1542598691.079588,can1 11111111 [8] 00 2F CC 68 00 1C B8 41
1542598691.080079,can1 18EBFFFA [8] 02 53 53 32 2D 30 32 2A
1542598691.080559,can1 11111111 [8] 00 2F CC 69 00 1C B8 41
1542598691.081024,can1 11111111 [8] 00 2F CC 6A 00 1C B8 42
1542598691.081529,can1 11111111 [8] 00 2F CC 6B 00 1C B8 42
1542598691.082019,can1 11111111 [8] 00 2F CC 6C 00 1C B8 43
1542598691.0825,can1 11111111 [8] 00 2F CC 6D 00 1C B8 44
1542598691.082921,can1 11111111 [8] 00 2F CC 6E 00 1C B8 44
1542598691.083445,can1 11111111 [8] 00 2F CC 6F 00 1C B8 45
1542598691.083939,can1 11111111 [8] 00 2F CC 70 00 1C B8 45
1542598691.084423,can1 11111111 [8] 00 2F CC 71 00 1C B8 46
1542598691.084903,can1 11111111 [8] 00 2F CC 72 00 1C B8 47
1542598691.085421,can1 18F0010B [8] CF FF F0 FF FF DC FF FF
1542598691.085905,can1 11111111 [8] 00 2F CC 73 00 1C B8 47
1542598691.086383,can1 11111111 [8] 00 2F CC 74 00 1C B8 48
1542598691.08685,can1 11111111 [8] 00 2F CC 75 00 1C B8 48
1542598691.087328,can1 11111111 [8] 00 2F CC 76 00 1C B8 49
1542598691.087826,can1 11111111 [8] 00 2F CC 77 00 1C B8 4A
1542598691.088303,can1 11111111 [8] 00 2F CC 78 00 1C B8 4A
1542598691.08877,can1 11111111 [8] 00 2F CC 79 00 1C B8 4B
1542598691.089276,can1 11111111 [8] 00 2F CC 7A 00 1C B8 4B
1542598691.089752,can1 11111111 [8] 00 2F CC 7B 00 1C B8 4C
1542598691.090234,can1 11111111 [8] 00 2F CC 7C 00 1C B8 4D
1542598691.090649,can1 18F0010B [8] CF FF F0 FF FF DC FF FF
1542598691.091122,can1 11111111 [8] 00 2F CC 7D 00 1C B8 4D
1542598691.09167,can1 11111111 [8] 00 2F CC 7E 00 1C B8 4E
1542598691.092156,can1 11111111 [8] 00 2F CC 7F 00 1C B8 4E
1542598691.092627,can1 11111111 [8] 00 2F CC 80 00 1C B8 4F
1542598691.093091,can1 11111111 [8] 00 2F CC 81 00 1C B8 50
1542598691.093643,can1 11111111 [8] 00 2F CC 82 00 1C B8 50
1542598691.094129,can1 11111111 [8] 00 2F CC 83 00 1C B8 51
1542598691.094553,can1 11111111 [8] 00 2F CC 84 00 1C B8 51
1542598691.095027,can1 11111111 [8] 00 2F CC 85 00 1C B8 52
1542598691.095565,can1 11111111 [8] 00 2F CC 86 00 1C B8 53
1542598691.096048,can1 11111111 [8] 00 2F CC 87 00 1C B8 53
1542598691.096519,can1 18F0010B [8] CF FF F0 FF FF DC FF FF
1542598691.096981,can1 11111111 [8] 00 2F CC 88 00 1C B8 54
1542598691.09754,can1 11111111 [8] 00 2F CC 89 00 1C B8 54
1542598691.098024,can1 11111111 [8] 00 2F CC 8A 00 1C B8 55
1542598691.098497,can1 11111111 [8] 00 2F CC 8B 00 1C B8 56
1542598691.098915,can1 11111111 [8] 00 2F CC 8C 00 1C B8 56
1542598691.099451,can1 11111111 [8] 00 2F CC 8D 00 1C B8 57
1542598691.099933,can1 11111111 [8] 00 2F CC 8E 00 1C B8 57
1542598691.100408,can1 11111111 [8] 00 2F CC 8F 00 1C B8 58
1542598691.100874,can1 11111111 [8] 00 2F CC 90 00 1C B8 59
1542598691.101417,can1 11111111 [8] 00 2F CC 91 00 1C B8 59
1542598691.101897,can1 11111111 [8] 00 2F CC 92 00 1C B8 5A
1542598691.102374,can1 18FEBF0B [8] 00 00 7D FE FE FE FF FF
1542598691.102841,can1 11111111 [8] 00 2F CC 93 00 1C B8 5A
1542598691.103326,can1 11111111 [8] 00 2F CC 94 00 1C B8 5B
1542598691.103801,can1 11111111 [8] 00 2F CC 95 00 1C B8 5C
1542598691.104278,can1 11111111 [8] 00 2F CC 96 00 1C B8 5C
1542598691.104749,can1 11111111 [8] 00 2F CC 97 00 1C B8 5D
1542598691.105286,can1 11111111 [8] 00 2F CC 98 00 1C B8 5D
1542598691.105764,can1 11111111 [8] 00 2F CC 99 00 1C B8 5E
1542598691.106238,can1 11111111 [8] 00 2F CC 9A 00 1C B8 5F
1542598691.106703,can1 11111111 [8] 00 2F CC 9B 00 1C B8 5F
1542598691.107704,can1 11111111 [8] 00 2F CC 9C 00 1C B8 60
1542598691.108387,can1 18FEDF00 [8] FE FE FE FF FE FF BF FF
1542598691.109001,can1 11111111 [8] 00 2F CC 9D 00 1C B8 60
1542598691.109537,can1 0CF00400 [8] 38 FE FE FE FE 00 FF FE
1542598691.110034,can1 11111111 [8] 00 2F CC 9F 00 1C B8 62
1542598691.110468,can1 0CF00203 [8] FF 00 00 FF FF AD 47 03
1542598691.111013,can1 11111111 [8] 00 2F CC A0 00 1C B8 62
1542598691.111509,can1 0CF00300 [8] D1 00 FE FF FF FF 00 FF
1542598691.111992,can1 11111111 [8] 00 2F CC A1 00 1C B8 63
1542598691.112474,can1 11111111 [8] 00 2F CC 9E 00 1C B8 61
1542598691.113008,can1 11111111 [8] 00 2F CC A2 00 1C B8 63
1542598691.113494,can1 11111111 [8] 00 2F CC A3 00 1C B8 64
1542598691.113964,can1 11111111 [8] 00 2F CC A4 00 1C B8 65
1542598691.114433,can1 11111111 [8] 00 2F CC A5 00 1C B8 65
1542598691.114973,can1 11111111 [8] 00 2F CC A6 00 1C B8 66
1542598691.115402,can1 11111111 [8] 00 2F CC A7 00 1C B8 66
1542598691.115874,can1 11111111 [8] 00 2F CC A8 00 1C B8 67
1542598691.116346,can1 11111111 [8] 00 2F CC A9 00 1C B8 68
1542598691.116867,can1 11111111 [8] 00 2F CC AA 00 1C B8 68
1542598691.117351,can1 11111111 [8] 00 2F CC AB 00 1C B8 69
1542598691.117827,can1 11111111 [8] 00 2F CC AC 00 1C B8 69
1542598691.118302,can1 11111111 [8] 00 2F CC AD 00 1C B8 6A
1542598691.118824,can1 11111111 [8] 00 2F CC AE 00 1C B8 6B
1542598691.119257,can1 11111111 [8] 00 2F CC AF 00 1C B8 6B
1542598691.119731,can1 11111111 [8] 00 2F CC B0 00 1C B8 6C
1542598691.120206,can1 11111111 [8] 00 2F CC B1 00 1C B8 6C
1542598691.120734,can1 11111111 [8] 00 2F CC B2 00 1C B8 6D
1542598691.12123,can1 11111111 [8] 00 2F CC B3 00 1C B8 6E
1542598691.1217,can1 11111111 [8] 00 2F CC B4 00 1C B8 6E
1542598691.122179,can1 11111111 [8] 00 2F CC B5 00 1C B8 6F
1542598691.122717,can1 11111111 [8] 00 2F CC B6 00 1C B8 6F
1542598691.12315,can1 11111111 [8] 00 2F CC B7 00 1C B8 70
1542598691.123622,can1 11111111 [8] 00 2F CC B8 00 1C B8 71
1542598691.124093,can1 11111111 [8] 00 2F CC B9 00 1C B8 71
1542598691.124623,can1 11111111 [8] 00 2F CC BA 00 1C B8 72
1542598691.125113,can1 11111111 [8] 00 2F CC BB 00 1C B8 72
1542598691.125593,can1 11111111 [8] 00 2F CC BC 00 1C B8 73
1542598691.12606,can1 11111111 [8] 00 2F CC BD 00 1C B8 74
1542598691.126586,can1 11111111 [8] 00 2F CC BE 00 1C B8 74
1542598691.127021,can1 11111111 [8] 00 2F CC BF 00 1C B8 75
1542598691.127505,can1 11111111 [8] 00 2F CC C0 00 1C B8 75
1542598691.127976,can1 11111111 [8] 00 2F CC C1 00 1C B8 76
1542598691.128492,can1 11111111 [8] 00 2F CC C2 00 1C B8 77
1542598691.128973,can1 11111111 [8] 00 2F CC C3 00 1C B8 77
1542598691.129448,can1 11111111 [8] 00 2F CC C4 00 1C B8 78
1542598691.129909,can1 11111111 [8] 00 2F CC C5 00 1C B8 78
1542598691.130431,can1 11111111 [8] 00 2F CC C6 00 1C B8 79
1542598691.130867,can1 11111111 [8] 00 2F CC C7 00 1C B8 7A
1542598691.131352,can1 14FFA000 [8] FC FF FF FF FF FF FF FF
1542598691.131829,can1 11111111 [8] 00 2F CC C8 00 1C B8 7A
1542598691.132342,can1 0CF00400 [8] 38 FE FE FE FE 00 FF FE
1542598691.132832,can1 11111111 [8] 00 2F CC CA 00 1C B8 7B
1542598691.133305,can1 0CF00203 [8] FF 00 00 FF FF AD 47 03
1542598691.133777,can1 11111111 [8] 00 2F CC CB 00 1C B8 7C
1542598691.13439,can1 0CF00300 [8] D1 00 FE FF FF FF 00 FF
1542598691.134942,can1 11111111 [8] 00 2F CC CC 00 1C B8 7D
1542598691.135436,can1 11111111 [8] 00 2F CC C9 00 1C B8 7B
1542598691.135926,can1 11111111 [8] 00 2F CC CD 00 1C B8 7D
1542598691.136467,can1 11111111 [8] 00 2F CC CE 00 1C B8 7E
1542598691.136965,can1 11111111 [8] 00 2F CC CF 00 1C B8 7E
1542598691.137391,can1 11111111 [8] 00 2F CC D0 00 1C B8 7F
1542598691.137865,can1 11111111 [8] 00 2F CC D1 00 1C B8 80
1542598691.1384,can1 11111111 [8] 00 2F CC D2 00 1C B8 80
1542598691.138885,can1 11111111 [8] 00 2F CC D3 00 1C B8 81
1542598691.139354,can1 11111111 [8] 00 2F CC D4 00 1C B8 81
1542598691.139819,can1 11111111 [8] 00 2F CC D5 00 1C B8 82
1542598691.140359,can1 11111111 [8] 00 2F CC D6 00 1C B8 83
1542598691.140838,can1 11111111 [8] 00 2F CC D7 00 1C B8 83
1542598691.141256,can1 11111111 [8] 00 2F CC D8 00 1C B8 84
1542598691.141725,can1 11111111 [8] 00 2F CC D9 00 1C B8 84
1542598691.142258,can1 11111111 [8] 00 2F CC DA 00 1C B8 85
1542598691.142749,can1 11111111 [8] 00 2F CC DB 00 1C B8 86
1542598691.143215,can1 11111111 [8] 00 2F CC DC 00 1C B8 86
1542598691.143689,can1 11111111 [8] 00 2F CC DD 00 1C B8 87
1542598691.144208,can1 11111111 [8] 00 2F CC DE 00 1C B8 87
1542598691.144699,can1 11111111 [8] 00 2F CC DF 00 1C B8 88
1542598691.14517,can1 11111111 [8] 00 2F CC E0 00 1C B8 89
1542598691.14559,can1 11111111 [8] 00 2F CC E1 00 1C B8 89
1542598691.146114,can1 11111111 [8] 00 2F CC E2 00 1C B8 8A
1542598691.146599,can1 11111111 [8] 00 2F CC E3 00 1C B8 8A
1542598691.147071,can1 11111111 [8] 00 2F CC E4 00 1C B8 8B
1542598691.147533,can1 11111111 [8] 00 2F CC E5 00 1C B8 8C
1542598691.148035,can1 11111111 [8] 00 2F CC E6 00 1C B8 8C
1542598691.148525,can1 11111111 [8] 00 2F CC E7 00 1C B8 8D
1542598691.149,can1 11111111 [8] 00 2F CC E8 00 1C B8 8D
1542598691.149417,can1 11111111 [8] 00 2F CC E9 00 1C B8 8E
1542598691.150198,can1 11111111 [8] 00 2F CC EA 00 1C B8 8F
1542598691.150715,can1 11111111 [8] 00 2F CC EB 00 1C B8 8F
1542598691.151207,can1 11111111 [8] 00 2F CC EC 00 1C B8 90
1542598691.151639,can1 11111111 [8] 00 2F CC ED 00 1C B8 90
1542598691.152194,can1 11111111 [8] 00 2F CC EE 00 1C B8 91
1542598691.152687,can1 11111111 [8] 00 2F CC EF 00 1C B8 92
1542598691.153156,can1 11111111 [8] 00 2F CC F0 00 1C B8 92
1542598691.15364,can1 11111111 [8] 00 2F CC F1 00 1C B8 93
1542598691.15419,can1 11111111 [8] 00 2F CC F2 00 1C B8 93
1542598691.154681,can1 11111111 [8] 00 2F CC F3 00 1C B8 94
1542598691.155149,can1 18FE4A03 [8] FF FF F3 FF F0 F7 FF FF
1542598691.155664,can1 11111111 [8] 00 2F CC F4 00 1C B8 95
1542598691.156157,can1 0CF00400 [8] 38 FE FE FE FE 00 FF FE
1542598691.156586,can1 11111111 [8] 00 2F CC F6 00 1C B8 96
1542598691.15706,can1 0CF00203 [8] FF 00 00 FF FF AD 47 03
1542598691.15753,can1 11111111 [8] 00 2F CC F7 00 1C B8 96
1542598691.158068,can1 11111111 [8] 00 2F CC F5 00 1C B8 95
1542598691.158542,can1 11111111 [8] 00 2F CC F8 00 1C B8 97
1542598691.159006,can1 11111111 [8] 00 2F CC F9 00 1C B8 98
1542598691.159469,can1 11111111 [8] 00 2F CC FA 00 1C B8 98
1542598691.159998,can1 11111111 [8] 00 2F CC FB 00 1C B8 99
1542598691.160432,can1 11111111 [8] 00 2F CC FC 00 1C B8 99
1542598691.160905,can1 11111111 [8] 00 2F CC FD 00 1C B8 9A
1542598691.161371,can1 11111111 [8] 00 2F CC FE 00 1C B8 9B
1542598691.161904,can1 11111111 [8] 00 2F CC FF 00 1C B8 9B
1542598691.162381,can1 11111111 [8] 00 2F CD 00 00 1C B8 9C
1542598691.162856,can1 11111111 [8] 00 2F CD 01 00 1C B8 9C
1542598691.163323,can1 11111111 [8] 00 2F CD 02 00 1C B8 9D
1542598691.163855,can1 11111111 [8] 00 2F CD 03 00 1C B8 9E
1542598691.164292,can1 11111111 [8] 00 2F CD 04 00 1C B8 9E
1542598691.16477,can1 11111111 [8] 00 2F CD 05 00 1C B8 9F
1542598691.16555,can1 11111111 [8] 00 2F CD 06 00 1C B8 9F
1542598691.166075,can1 11111111 [8] 00 2F CD 07 00 1C B8 A0
1542598691.166529,can1 11111111 [8] 00 2F CD 08 00 1C B8 A1
1542598691.167011,can1 11111111 [8] 00 2F CD 09 00 1C B8 A1
1542598691.167551,can1 11111111 [8] 00 2F CD 0A 00 1C B8 A2
1542598691.16805,can1 11111111 [8] 00 2F CD 0B 00 1C B8 A2
1542598691.169867,can1 11111111 [8] 00 2F CD 0C 00 1C B8 A3
1542598691.170644,can1 11111111 [8] 00 2F CD 0D 00 1C B8 A4
1542598691.171191,can1 11111111 [8] 00 2F CD 0E 00 1C B8 A4
1542598691.171885,can1 11111111 [8] 00 2F CD 0F 00 1C B8 A5
1542598691.172417,can1 11111111 [8] 00 2F CD 10 00 1C B8 A5
1542598691.172906,can1 11111111 [8] 00 2F CD 11 00 1C B8 A6
1542598691.173464,can1 11111111 [8] 00 2F CD 12 00 1C B8 A7
1542598691.173958,can1 11111111 [8] 00 2F CD 13 00 1C B8 A7
1542598691.174438,can1 11111111 [8] 00 2F CD 14 00 1C B8 A8
1542598691.174908,can1 18FEDF00 [8] FE FE FE FF FE FF BF FF
1542598691.175393,can1 11111111 [8] 00 2F CD 15 00 1C B8 A8
1542598691.175887,can1 0CF00400 [8] 38 FE FE FE FE 00 FF FE
1542598691.176883,can1 11111111 [8] 00 2F CD 17 00 1C B8 AA
1542598691.177574,can1 0CF00203 [8] FF 00 00 FF FF AD 47 03
1542598691.178114,can1 11111111 [8] 00 2F CD 18 00 1C B8 AA
1542598691.178612,can1 11111111 [8] 00 2F CD 16 00 1C B8 A9
1542598691.179164,can1 11111111 [8] 00 2F CD 19 00 1C B8 AB
1542598691.179679,can1 11111111 [8] 00 2F CD 1A 00 1C B8 AB
1542598691.18018,can1 11111111 [8] 00 2F CD 1B 00 1C B8 AC
1542598691.180653,can1 11111111 [8] 00 2F CD 1C 00 1C B8 AD
1542598691.181196,can1 11111111 [8] 00 2F CD 1D 00 1C B8 AD
1542598691.181709,can1 11111111 [8] 00 2F CD 1E 00 1C B8 AE
1542598691.182192,can1 11111111 [8] 00 2F CD 1F 00 1C B8 AE
1542598691.182663,can1 11111111 [8] 00 2F CD 20 00 1C B8 AF
1542598691.183193,can1 11111111 [8] 00 2F CD 21 00 1C B8 B0
1542598691.183637,can1 11111111 [8] 00 2F CD 22 00 1C B8 B0
1542598691.184106,can1 11111111 [8] 00 2F CD 23 00 1C B8 B1
1542598691.184581,can1 11111111 [8] 00 2F CD 24 00 1C B8 B1
1542598691.185113,can1 11111111 [8] 00 2F CD 25 00 1C B8 B2
1542598691.185608,can1 11111111 [8] 00 2F CD 26 00 1C B8 B3
1542598691.186084,can1 11111111 [8] 00 2F CD 27 00 1C B8 B3
1542598691.186552,can1 11111111 [8] 00 2F CD 28 00 1C B8 B4
1542598691.187071,can1 11111111 [8] 00 2F CD 29 00 1C B8 B4
1542598691.187517,can1 11111111 [8] 00 2F CD 2A 00 1C B8 B5
1542598691.187997,can1 11111111 [8] 00 2F CD 2B 00 1C B8 B6
1542598691.188469,can1 11111111 [8] 00 2F CD 2C 00 1C B8 B6
1542598691.189003,can1 11111111 [8] 00 2F CD 2D 00 1C B8 B7
1542598691.189497,can1 11111111 [8] 00 2F CD 2E 00 1C B8 B7
1542598691.189977,can1 11111111 [8] 00 2F CD 2F 00 1C B8 B8
1542598691.190445,can1 11111111 [8] 00 2F CD 30 00 1C B8 B9
1542598691.190974,can1 11111111 [8] 00 2F CD 31 00 1C B8 B9
1542598691.191465,can1 11111111 [8] 00 2F CD 32 00 1C B8 BA
1542598691.191891,can1 11111111 [8] 00 2F CD 33 00 1C B8 BA
1542598691.192366,can1 18F0010B [8] CF FF F0 FF FF DC FF FF
1542598691.192893,can1 11111111 [8] 00 2F CD 34 00 1C B8 BB
1542598691.193392,can1 11111111 [8] 00 2F CD 35 00 1C B8 BC
1542598691.193865,can1 11111111 [8] 00 2F CD 36 00 1C B8 BC
1542598691.194329,can1 11111111 [8] 00 2F CD 37 00 1C B8 BD
1542598691.194848,can1 11111111 [8] 00 2F CD 38 00 1C B8 BD
1542598691.195354,can1 11111111 [8] 00 2F CD 39 00 1C B8 BE
1542598691.195834,can1 11111111 [8] 00 2F CD 3A 00 1C B8 BF
1542598691.19625,can1 11111111 [8] 00 2F CD 3B 00 1C B8 BF
1542598691.196781,can1 11111111 [8] 00 2F CD 3C 00 1C B8 C0
1542598691.19727,can1 11111111 [8] 00 2F CD 3D 00 1C B8 C0
1542598691.197754,can1 11111111 [8] 00 2F CD 3E 00 1C B8 C1
1542598691.198223,can1 18F0010B [8] CF FF F0 FF FF DC FF FF
1542598691.19874,can1 11111111 [8] 00 2F CD 3F 00 1C B8 C2
1542598691.199227,can1 11111111 [8] 00 2F CD 40 00 1C B8 C2
1542598691.199696,can1 11111111 [8] 00 2F CD 41 00 1C B8 C3
1542598691.200117,can1 11111111 [8] 00 2F CD 42 00 1C B8 C3
1542598691.200644,can1 11111111 [8] 00 2F CD 43 00 1C B8 C4
1542598691.201135,can1 11111111 [8] 00 2F CD 44 00 1C B8 C5
1542598691.201616,can1 11111111 [8] 00 2F CD 45 00 1C B8 C5
1542598691.202092,can1 11111111 [8] 00 2F CD 46 00 1C B8 C6
1542598691.202603,can1 11111111 [8] 00 2F CD 47 00 1C B8 C6
1542598691.203085,can1 11111111 [8] 00 2F CD 48 00 1C B8 C7
1542598691.203563,can1 11111111 [8] 00 2F CD 49 00 1C B8 C8
1542598691.204029,can1 18F00503 [8] FF 57 9E FF 20 2D 2D 2D
1542598691.204497,can1 11111111 [8] 00 2F CD 4A 00 1C B8 C8
1542598691.204984,can1 11111111 [8] 00 2F CD 4B 00 1C B8 C9
1542598691.205465,can1 11111111 [8] 00 2F CD 4C 00 1C B8 C9
1542598691.205942,can1 11111111 [8] 00 2F CD 4D 00 1C B8 CA
1542598691.206457,can1 11111111 [8] 00 2F CD 4E 00 1C B8 CB
1542598691.20695,can1 11111111 [8] 00 2F CD 4F 00 1C B8 CB
1542598691.207422,can1 11111111 [8] 00 2F CD 50 00 1C B8 CC
1542598691.20789,can1 11111111 [8] 00 2F CD 51 00 1C B8 CC
1542598691.208303,can1 11111111 [8] 00 2F CD 52 00 1C B8 CD
1542598691.208831,can1 18FEBF0B [8] 00 00 7D FE FE FE FF FF
1542598691.209314,can1 11111111 [8] 00 2F CD 53 00 1C B8 CE
1542598691.209805,can1 11111111 [8] 00 2F CD 54 00 1C B8 CE
1542598691.210275,can1 11111111 [8] 00 2F CD 55 00 1C B8 CF
1542598691.210818,can1 11111111 [8] 00 2F CD 56 00 1C B8 CF
1542598691.211295,can1 11111111 [8] 00 2F CD 57 00 1C B8 D0
1542598691.211763,can1 11111111 [8] 00 2F CD 58 00 1C B8 D1
1542598691.212222,can1 11111111 [8] 00 2F CD 59 00 1C B8 D1
1542598691.212715,can1 11111111 [8] 00 2F CD 5A 00 1C B8 D2
1542598691.213196,can1 11111111 [8] 00 2F CD 5B 00 1C B8 D2
1542598691.213667,can1 11111111 [8] 00 2F CD 5C 00 1C B8 D3
1542598691.214128,can1 11111111 [8] 00 2F CD 5D 00 1C B8 D4
1542598691.214654,can1 1CECFF00 [8] 20 22 00 05 FF CA FE 00
1542598691.215133,can1 11111111 [8] 00 2F CD 5E 00 1C B8 D4
1542598691.215606,can1 0CF00400 [8] 38 FE FE FE FE 00 FF FE
1542598691.216017,can1 11111111 [8] 00 2F CD 60 00 1C B8 D5
1542598691.216572,can1 0CF00203 [8] FF 00 00 FF FF AD 47 03
1542598691.217063,can1 11111111 [8] 00 2F CD 61 00 1C B8 D6
1542598691.217541,can1 0CF00300 [8] D1 00 FE FF FF FF 00 FF
1542598691.218009,can1 11111111 [8] 00 2F CD 62 00 1C B8 D7
1542598691.218543,can1 11111111 [8] 00 2F CD 5F 00 1C B8 D5
1542598691.219021,can1 11111111 [8] 00 2F CD 63 00 1C B8 D7
1542598691.219489,can1 11111111 [8] 00 2F CD 64 00 1C B8 D8
1542598691.219966,can1 11111111 [8] 00 2F CD 65 00 1C B8 D8
1542598691.220516,can1 11111111 [8] 00 2F CD 66 00 1C B8 D9
1542598691.220953,can1 11111111 [8] 00 2F CD 67 00 1C B8 DA
1542598691.22143,can1 11111111 [8] 00 2F CD 68 00 1C B8 DA
1542598691.221906,can1 11111111 [8] 00 2F CD 69 00 1C B8 DB
1542598691.222444,can1 11111111 [8] 00 2F CD 6A 00 1C B8 DB
1542598691.226585,can1 11111111 [8] 00 2F CD 6B 00 1C B8 DC
1542598691.227262,can1 11111111 [8] 00 2F CD 6C 00 1C B8 DD
1542598691.227795,can1 11111111 [8] 00 2F CD 6D 00 1C B8 DD
1542598691.228406,can1 11111111 [8] 00 2F CD 6E 00 1C B8 DE
1542598691.228913,can1 11111111 [8] 00 2F CD 6F 00 1C B8 DE
1542598691.2294,can1 11111111 [8] 00 2F CD 70 00 1C B8 DF
1542598691.23389,can1 11111111 [8] 00 2F CD 71 00 1C B8 E0
1542598691.234618,can1 11111111 [8] 00 2F CD 72 00 1C B8 E0
1542598691.23519,can1 11111111 [8] 00 2F CD 73 00 1C B8 E1
1542598691.235778,can1 11111111 [8] 00 2F CD 74 00 1C B8 E1
1542598691.236309,can1 11111111 [8] 00 2F CD 75 00 1C B8 E2
1542598691.236807,can1 11111111 [8] 00 2F CD 76 00 1C B8 E3
1542598691.237291,can1 11111111 [8] 00 2F CD 77 00 1C B8 E3
1542598691.241844,can1 11111111 [8] 00 2F CD 78 00 1C B8 E4
1542598691.242618,can1 11111111 [8] 00 2F CD 79 00 1C B8 E4
1542598691.243166,can1 11111111 [8] 00 2F CD 7A 00 1C B8 E5
1542598691.243745,can1 11111111 [8] 00 2F CD 7B 00 1C B8 E6
1542598691.244262,can1 11111111 [8] 00 2F CD 7C 00 1C B8 E6
1542598691.244747,can1 11111111 [8] 00 2F CD 7D 00 1C B8 E7
1542598691.245174,can1 11111111 [8] 00 2F CD 7E 00 1C B8 E7
1542598691.253511,can1 11111111 [8] 00 2F CD 7F 00 1C B8 E8
1542598691.254287,can1 11111111 [8] 00 2F CD 80 00 1C B8 E9
1542598691.25487,can1 11111111 [8] 00 2F CD 81 00 1C B8 E9
1542598691.255474,can1 11111111 [8] 00 2F CD 82 00 1C B8 EA
1542598691.258314,can1 11111111 [8] 00 2F CD 83 00 1C B8 EA
1542598691.261376,can1 11111111 [8] 00 2F CD 84 00 1C B8 EB
1542598691.262119,can1 11111111 [8] 00 2F CD 85 00 1C B8 EC
1542598691.262696,can1 11111111 [8] 00 2F CD 86 00 1C B8 EC
1542598691.263379,can1 11111111 [8] 00 2F CD 87 00 1C B8 ED
1542598691.263907,can1 11111111 [8] 00 2F CD 88 00 1C B8 ED
1542598691.26434,can1 18FEDF00 [8] FE FE FE FF FE FF BF FF
1542598691.264815,can1 11111111 [8] 00 2F CD 89 00 1C B8 EE
1542598691.272487,can1 0CF00400 [8] 38 FE FE FE FE 00 FF FE
1542598691.273329,can1 11111111 [8] 00 2F CD 8B 00 1C B8 EF
1542598691.273899,can1 0CF00203 [8] FF 00 00 FF FF AD 47 03
1542598691.274404,can1 11111111 [8] 00 2F CD 8C 00 1C B8 F0
1542598691.274956,can1 0CF00300 [8] D1 00 FE FF FF FF 00 FF
1542598691.275462,can1 11111111 [8] 00 2F CD 8D 00 1C B8 F0
1542598691.275891,can1 11111111 [8] 00 2F CD 8A 00 1C B8 EF
1542598691.276387,can1 11111111 [8] 00 2F CD 8E 00 1C B8 F1
1542598691.281108,can1 11111111 [8] 00 2F CD 8F 00 1C B8 F2
1542598691.282352,can1 11111111 [8] 00 2F CD 90 00 1C B8 F2
1542598691.283173,can1 11111111 [8] 00 2F CD 91 00 1C B8 F3
1542598691.283745,can1 11111111 [8] 00 2F CD 92 00 1C B8 F3
1542598691.284249,can1 11111111 [8] 00 2F CD 93 00 1C B8 F4
1542598691.284938,can1 11111111 [8] 00 2F CD 94 00 1C B8 F5
1542598691.285492,can1 11111111 [8] 00 2F CD 95 00 1C B8 F5
1542598691.285996,can1 11111111 [8] 00 2F CD 96 00 1C B8 F6
1542598691.286528,can1 11111111 [8] 00 2F CD 97 00 1C B8 F6
1542598691.287027,can1 11111111 [8] 00 2F CD 98 00 1C B8 F7
1542598691.287511,can1 11111111 [8] 00 2F CD 99 00 1C B8 F8
1542598691.287936,can1 11111111 [8] 00 2F CD 9A 00 1C B8 F8
1542598691.288409,can1 11111111 [8] 00 2F CD 9B 00 1C B8 F9
1542598691.288949,can1 11111111 [8] 00 2F CD 9C 00 1C B8 F9
1542598691.289428,can1 11111111 [8] 00 2F CD 9D 00 1C B8 FA
1542598691.289902,can1 11111111 [8] 00 2F CD 9E 00 1C B8 FB
1542598691.290411,can1 11111111 [8] 00 2F CD 9F 00 1C B8 FB
1542598691.290907,can1 11111111 [8] 00 2F CD A0 00 1C B8 FC
1542598691.291405,can1 11111111 [8] 00 2F CD A1 00 1C B8 FC
1542598691.291886,can1 11111111 [8] 00 2F CD A2 00 1C B8 FD
1542598691.292309,can1 11111111 [8] 00 2F CD A3 00 1C B8 FE
1542598691.292845,can1 11111111 [8] 00 2F CD A4 00 1C B8 FE
1542598691.293333,can1 11111111 [8] 00 2F CD A5 00 1C B8 FF
1542598691.293806,can1 11111111 [8] 00 2F CD A6 00 1C B8 FF
1542598691.294314,can1 11111111 [8] 00 2F CD A7 00 1C B9 00
1542598691.2948,can1 11111111 [8] 00 2F CD A8 00 1C B9 01
1542598691.295273,can1 11111111 [8] 00 2F CD A9 00 1C B9 01
1542598691.295754,can1 11111111 [8] 00 2F CD AA 00 1C B9 02
1542598691.296174,can1 11111111 [8] 00 2F CD AB 00 1C B9 02
1542598691.296713,can1 11111111 [8] 00 2F CD AC 00 1C B9 03
1542598691.297198,can1 11111111 [8] 00 2F CD AD 00 1C B9 04
1542598691.297671,can1 11111111 [8] 00 2F CD AE 00 1C B9 04
1542598691.298135,can1 11111111 [8] 00 2F CD AF 00 1C B9 05
1542598691.298665,can1 11111111 [8] 00 2F CD B0 00 1C B9 05
1542598691.299134,can1 11111111 [8] 00 2F CD B1 00 1C B9 06
1542598691.299597,can1 11111111 [8] 00 2F CD B2 00 1C B9 07
1542598691.300012,can1 11111111 [8] 00 2F CD B3 00 1C B9 07
1542598691.300541,can1 11111111 [8] 00 2F CD B4 00 1C B9 08
1542598691.301032,can1 14FFA000 [8] FC FF FF FF FF FF FF FF
1542598691.301508,can1 11111111 [8] 00 2F CD B5 00 1C B9 08
1542598691.30197,can1 11111111 [8] 00 2F CD B6 00 1C B9 09
1542598691.302491,can1 11111111 [8] 00 2F CD B7 00 1C B9 0A
1542598691.302974,can1 11111111 [8] 00 2F CD B8 00 1C B9 0A
1542598691.30344,can1 11111111 [8] 00 2F CD B9 00 1C B9 0B
1542598691.303862,can1 11111111 [8] 00 2F CD BA 00 1C B9 0B
1542598691.304389,can1 11111111 [8] 00 2F CD BB 00 1C B9 0C
1542598691.304874,can1 11111111 [8] 00 2F CD BC 00 1C B9 0D
1542598691.305339,can1 11111111 [8] 00 2F CD BD 00 1C B9 0D
1542598691.305811,can1 11111111 [8] 00 2F CD BE 00 1C B9 0E
1542598691.306326,can1 11111111 [8] 00 2F CD BF 00 1C B9 0E
1542598691.306812,can1 1CEBFF00 [8] 01 47 FF 71 02 0D 01 3F
1542598691.307297,can1 11111111 [8] 00 2F CD C0 00 1C B9 0F
1542598691.307715,can1 0CF00400 [8] 08 FE FE FE FE 00 FF FE
1542598691.308247,can1 11111111 [8] 00 2F CD C1 00 1C B9 10
1542598691.308738,can1 0CF00203 [8] FF 00 00 FF FF AD 47 03
1542598691.309213,can1 11111111 [8] 00 2F CD C3 00 1C B9 11
1542598691.309829,can1 0CF00300 [8] D1 00 FE FF FF FF 00 FF
1542598691.310413,can1 11111111 [8] 00 2F CD C4 00 1C B9 12
1542598691.310917,can1 11111111 [8] 00 2F CD C2 00 1C B9 10
1542598691.311406,can1 11111111 [8] 00 2F CD C5 00 1C B9 12
1542598691.311936,can1 11111111 [8] 00 2F CD C6 00 1C B9 13
1542598691.312432,can1 11111111 [8] 00 2F CD C7 00 1C B9 13
1542598691.312913,can1 11111111 [8] 00 2F CD C8 00 1C B9 14
1542598691.313387,can1 11111111 [8] 00 2F CD C9 00 1C B9 15
1542598691.313892,can1 11111111 [8] 00 2F CD CA 00 1C B9 15
1542598691.314339,can1 11111111 [8] 00 2F CD CB 00 1C B9 16
1542598691.314826,can1 11111111 [8] 00 2F CD CC 00 1C B9 16
1542598691.315298,can1 11111111 [8] 00 2F CD CD 00 1C B9 17
1542598691.315809,can1 11111111 [8] 00 2F CD CE 00 1C B9 18
1542598691.316298,can1 11111111 [8] 00 2F CD CF 00 1C B9 18
1542598691.316767,can1 11111111 [8] 00 2F CD D0 00 1C B9 19
1542598691.317237,can1 11111111 [8] 00 2F CD D1 00 1C B9 19
1542598691.317652,can1 11111111 [8] 00 2F CD D2 00 1C B9 1A
1542598691.318192,can1 11111111 [8] 00 2F CD D3 00 1C B9 1B
1542598691.318681,can1 11111111 [8] 00 2F CD D4 00 1C B9 1B
1542598691.319152,can1 11111111 [8] 00 2F CD D5 00 1C B9 1C
1542598691.319615,can1 11111111 [8] 00 2F CD D6 00 1C B9 1C
1542598691.320155,can1 11111111 [8] 00 2F CD D7 00 1C B9 1D
1542598691.320639,can1 11111111 [8] 00 2F CD D8 00 1C B9 1E
1542598691.321108,can1 11111111 [8] 00 2F CD D9 00 1C B9 1E
1542598691.321521,can1 11111111 [8] 00 2F CD DA 00 1C B9 1F
1542598691.322072,can1 11111111 [8] 00 2F CD DB 00 1C B9 1F
1542598691.322578,can1 11111111 [8] 00 2F CD DC 00 1C B9 20
1542598691.32306,can1 11111111 [8] 00 2F CD DD 00 1C B9 21
1542598691.323533,can1 11111111 [8] 00 2F CD DE 00 1C B9 21
1542598691.324066,can1 11111111 [8] 00 2F CD DF 00 1C B9 22
1542598691.324545,can1 11111111 [8] 00 2F CD E0 00 1C B9 22
1542598691.325013,can1 11111111 [8] 00 2F CD E1 00 1C B9 23
1542598691.325483,can1 11111111 [8] 00 2F CD E2 00 1C B9 24
1542598691.326018,can1 11111111 [8] 00 2F CD E3 00 1C B9 24
1542598691.326444,can1 11111111 [8] 00 2F CD E4 00 1C B9 25
1542598691.326915,can1 11111111 [8] 00 2F CD E5 00 1C B9 25
1542598691.327381,can1 11111111 [8] 00 2F CD E6 00 1C B9 26
1542598691.327921,can1 11111111 [8] 00 2F CD E7 00 1C B9 27
1542598691.328404,can1 11111111 [8] 00 2F CD E8 00 1C B9 27
1542598691.328878,can1 11111111 [8] 00 2F CD E9 00 1C B9 28
1542598691.329346,can1 11111111 [8] 00 2F CD EA 00 1C B9 28
1542598691.329876,can1 18F0010B [8] CF FF F0 FF FF DC FF FF
1542598691.330304,can1 11111111 [8] 00 2F CD EB 00 1C B9 29
1542598691.330772,can1 11111111 [8] 00 2F CD EC 00 1C B9 2A
1542598691.331233,can1 11111111 [8] 00 2F CD ED 00 1C B9 2A
1542598691.331764,can1 11111111 [8] 00 2F CD EE 00 1C B9 2B
1542598691.332245,can1 11111111 [8] 00 2F CD EF 00 1C B9 2B
1542598691.332707,can1 11111111 [8] 00 2F CD F0 00 1C B9 2C
1542598691.333117,can1 11111111 [8] 00 2F CD F1 00 1C B9 2D
1542598691.333644,can1 11111111 [8] 00 2F CD F2 00 1C B9 2D
1542598691.334143,can1 11111111 [8] 00 2F CD F3 00 1C B9 2E
1542598691.334621,can1 11111111 [8] 00 2F CD F4 00 1C B9 2E
1542598691.335094,can1 18F0010B [8] CF FF F0 FF FF DC FF FF
1542598691.335623,can1 11111111 [8] 00 2F CD F5 00 1C B9 2F
1542598691.336108,can1 11111111 [8] 00 2F CD F6 00 1C B9 30
1542598691.336576,can1 11111111 [8] 00 2F CD F7 00 1C B9 30
1542598691.336996,can1 11111111 [8] 00 2F CD F8 00 1C B9 31
1542598691.337708,can1 11111111 [8] 00 2F CD F9 00 1C B9 31
1542598691.338245,can1 11111111 [8] 00 2F CD FA 00 1C B9 32
1542598691.338741,can1 11111111 [8] 00 2F CD FB 00 1C B9 33
1542598691.339168,can1 11111111 [8] 00 2F CD FC 00 1C B9 33
1542598691.339715,can1 11111111 [8] 00 2F CD FD 00 1C B9 34
1542598691.340201,can1 11111111 [8] 00 2F CD FE 00 1C B9 34
1542598691.340675,can1 11111111 [8] 00 2F CD FF 00 1C B9 35
1542598691.341144,can1 18FE4A03 [8] FF FF F3 FF F0 F7 FF FF
1542598691.341691,can1 11111111 [8] 00 2F CE 00 00 1C B9 36
1542598691.342167,can1 11111111 [8] 00 2F CE 01 00 1C B9 36
1542598691.342643,can1 11111111 [8] 00 2F CE 02 00 1C B9 37
1542598691.343153,can1 11111111 [8] 00 2F CE 03 00 1C B9 37
1542598691.343647,can1 11111111 [8] 00 2F CE 04 00 1C B9 38
1542598691.344071,can1 11111111 [8] 00 2F CE 05 00 1C B9 39
1542598691.344549,can1 11111111 [8] 00 2F CE 06 00 1C B9 39
1542598691.345025,can1 11111111 [8] 00 2F CE 07 00 1C B9 3A
1542598691.34557,can1 11111111 [8] 00 2F CE 08 00 1C B9 3A
1542598691.346048,can1 11111111 [8] 00 2F CE 09 00 1C B9 3B
1542598691.346518,can1 11111111 [8] 00 2F CE 0A 00 1C B9 3C
1542598691.346987,can1 11111111 [8] 00 2F CE 0B 00 1C B9 3C
1542598691.347523,can1 18FEBF0B [8] 00 00 7D FE FE FE FF FF
1542598691.347995,can1 11111111 [8] 00 2F CE 0C 00 1C B9 3D
1542598691.348414,can1 11111111 [8] 00 2F CE 0D 00 1C B9 3D
1542598691.349459,can1 11111111 [8] 00 2F CE 0E 00 1C B9 3E
1542598691.350294,can1 11111111 [8] 00 2F CE 0F 00 1C B9 3F
1542598691.350889,can1 11111111 [8] 00 2F CE 10 00 1C B9 3F
1542598691.351485,can1 11111111 [8] 00 2F CE 11 00 1C B9 40
1542598691.351995,can1 11111111 [8] 00 2F CE 12 00 1C B9 40
1542598691.352479,can1 11111111 [8] 00 2F CE 13 00 1C B9 41
1542598691.35301,can1 11111111 [8] 00 2F CE 14 00 1C B9 42
1542598691.35351,can1 11111111 [8] 00 2F CE 15 00 1C B9 42
1542598691.353938,can1 11111111 [8] 00 2F CE 16 00 1C B9 43
1542598691.35442,can1 18FEBF0B [8] 00 00 7D FE FE FE FF FF
1542598691.354944,can1 11111111 [8] 00 2F CE 17 00 1C B9 43
1542598691.355442,can1 11111111 [8] 00 2F CE 18 00 1C B9 44
1542598691.355925,can1 11111111 [8] 00 2F CE 19 00 1C B9 45
1542598691.356393,can1 11111111 [8] 00 2F CE 1A 00 1C B9 45
1542598691.356911,can1 11111111 [8] 00 2F CE 1B 00 1C B9 46
1542598691.357404,can1 11111111 [8] 00 2F CE 1C 00 1C B9 46
1542598691.359053,can1 11111111 [8] 00 2F CE 1D 00 1C B9 47
1542598691.359871,can1 11111111 [8] 00 2F CE 1E 00 1C B9 48
1542598691.360461,can1 11111111 [8] 00 2F CE 1F 00 1C B9 48
1542598691.361145,can1 11111111 [8] 00 2F CE 20 00 1C B9 49
1542598691.361694,can1 11111111 [8] 00 2F CE 21 00 1C B9 49
1542598691.362197,can1 1CEBFF00 [8] 02 0A 08 09 5B 00 08 01
1542598691.362747,can1 11111111 [8] 00 2F CE 22 00 1C B9 4A
1542598691.363257,can1 0CF00400 [8] 38 FE FE FE FE 00 FF FE
1542598691.36375,can1 11111111 [8] 00 2F CE 24 00 1C B9 4B
1542598691.364226,can1 0CF00203 [8] FF 00 00 FF FF AD 47 03
1542598691.364762,can1 11111111 [8] 00 2F CE 25 00 1C B9 4C
1542598691.3654,can1 0CF00400 [8] 38 FE FE FE FE 00 FF FE
1542598691.365965,can1 11111111 [8] 00 2F CE 26 00 1C B9 4C
1542598691.36648,can1 0CF00300 [8] D1 00 FE FF FF FF 00 FF
1542598691.367047,can1 11111111 [8] 00 2F CE 27 00 1C B9 4D
1542598691.367542,can1 11111111 [8] 00 2F CE 23 00 1C B9 4B
1542598691.368032,can1 11111111 [8] 00 2F CE 28 00 1C B9 4E
1542598691.368552,can1 11111111 [8] 00 2F CE 29 00 1C B9 4E
1542598691.369059,can1 11111111 [8] 00 2F CE 2A 00 1C B9 4F
1542598691.369541,can1 11111111 [8] 00 2F CE 2B 00 1C B9 4F
1542598691.369967,can1 11111111 [8] 00 2F CE 2C 00 1C B9 50
1542598691.370486,can1 11111111 [8] 00 2F CE 2D 00 1C B9 51
1542598691.370982,can1 11111111 [8] 00 2F CE 2E 00 1C B9 51
1542598691.371453,can1 11111111 [8] 00 2F CE 2F 00 1C B9 52
1542598691.371924,can1 11111111 [8] 00 2F CE 30 00 1C B9 52
1542598691.372393,can1 11111111 [8] 00 2F CE 31 00 1C B9 53
1542598691.372929,can1 11111111 [8] 00 2F CE 32 00 1C B9 54
1542598691.373354,can1 11111111 [8] 00 2F CE 33 00 1C B9 54
1542598691.373834,can1 11111111 [8] 00 2F CE 34 00 1C B9 55
1542598691.374307,can1 11111111 [8] 00 2F CE 35 00 1C B9 55
1542598691.374847,can1 11111111 [8] 00 2F CE 36 00 1C B9 56
1542598691.37532,can1 11111111 [8] 00 2F CE 37 00 1C B9 57
1542598691.375786,can1 11111111 [8] 00 2F CE 38 00 1C B9 57
1542598691.376249,can1 11111111 [8] 00 2F CE 39 00 1C B9 58
1542598691.376784,can1 11111111 [8] 00 2F CE 3A 00 1C B9 58
1542598691.377205,can1 11111111 [8] 00 2F CE 3B 00 1C B9 59
1542598691.377676,can1 11111111 [8] 00 2F CE 3C 00 1C B9 5A
1542598691.37817,can1 11111111 [8] 00 2F CE 3D 00 1C B9 5A
1542598691.378698,can1 11111111 [8] 00 2F CE 3E 00 1C B9 5B
1542598691.379176,can1 11111111 [8] 00 2F CE 3F 00 1C B9 5B
1542598691.379653,can1 11111111 [8] 00 2F CE 40 00 1C B9 5C
1542598691.380123,can1 11111111 [8] 00 2F CE 41 00 1C B9 5D
1542598691.380664,can1 11111111 [8] 00 2F CE 42 00 1C B9 5D
1542598691.381135,can1 11111111 [8] 00 2F CE 43 00 1C B9 5E
1542598691.381564,can1 11111111 [8] 00 2F CE 44 00 1C B9 5E
1542598691.382032,can1 11111111 [8] 00 2F CE 45 00 1C B9 5F
1542598691.382558,can1 11111111 [8] 00 2F CE 46 00 1C B9 60
1542598691.383043,can1 11111111 [8] 00 2F CE 47 00 1C B9 60
1542598691.383518,can1 11111111 [8] 00 2F CE 48 00 1C B9 61
1542598691.383984,can1 11111111 [8] 00 2F CE 49 00 1C B9 61
1542598691.384519,can1 11111111 [8] 00 2F CE 4A 00 1C B9 62
1542598691.384991,can1 11111111 [8] 00 2F CE 4B 00 1C B9 63
1542598691.385407,can1 11111111 [8] 00 2F CE 4C 00 1C B9 63
1542598691.385877,can1 11111111 [8] 00 2F CE 4D 00 1C B9 64
1542598691.386404,can1 11111111 [8] 00 2F CE 4E 00 1C B9 64
1542598691.38689,can1 11111111 [8] 00 2F CE 4F 00 1C B9 65
1542598691.387372,can1 11111111 [8] 00 2F CE 50 00 1C B9 66
1542598691.387845,can1 11111111 [8] 00 2F CE 51 00 1C B9 66
1542598691.388379,can1 11111111 [8] 00 2F CE 52 00 1C B9 67
1542598691.388863,can1 11111111 [8] 00 2F CE 53 00 1C B9 67
1542598691.38928,can1 11111111 [8] 00 2F CE 54 00 1C B9 68
1542598691.389749,can1 11111111 [8] 00 2F CE 55 00 1C B9 69
1542598691.390274,can1 11111111 [8] 00 2F CE 56 00 1C B9 69
1542598691.390759,can1 14FFA000 [8] FC FF FF FF FF FF FF FF
1542598691.391231,can1 11111111 [8] 00 2F CE 57 00 1C B9 6A
1542598691.391701,can1 11111111 [8] 00 2F CE 58 00 1C B9 6A
1542598691.392221,can1 11111111 [8] 00 2F CE 59 00 1C B9 6B
1542598691.392706,can1 11111111 [8] 00 2F CE 5A 00 1C B9 6C
1542598691.393124,can1 11111111 [8] 00 2F CE 5B 00 1C B9 6C
1542598691.39359,can1 11111111 [8] 00 2F CE 5C 00 1C B9 6D
1542598691.394117,can1 11111111 [8] 00 2F CE 5D 00 1C B9 6D
1542598691.394601,can1 11111111 [8] 00 2F CE 5E 00 1C B9 6E
1542598691.395076,can1 11111111 [8] 00 2F CE 5F 00 1C B9 6F
1542598691.395553,can1 11111111 [8] 00 2F CE 60 00 1C B9 6F
1542598691.396071,can1 11111111 [8] 00 2F CE 61 00 1C B9 70
1542598691.39655,can1 11111111 [8] 00 2F CE 62 00 1C B9 70
1542598691.396976,can1 1CEBFF00 [8] 03 71 02 0E 03 0F 02 09
1542598691.397443,can1 11111111 [8] 00 2F CE 63 00 1C B9 71
1542598691.397958,can1 0CF00400 [8] 38 FE FE FE FE 00 FF FE
1542598691.398452,can1 11111111 [8] 00 2F CE 65 00 1C B9 72
1542598691.398941,can1 0CF00203 [8] FF 00 00 FF FF AD 47 03
1542598691.399407,can1 11111111 [8] 00 2F CE 66 00 1C B9 73
1542598691.399914,can1 11111111 [8] 00 2F CE 64 00 1C B9 72
1542598691.400401,can1 11111111 [8] 00 2F CE 67 00 1C B9 73
1542598691.400829,can1 11111111 [8] 00 2F CE 68 00 1C B9 74
1542598691.401302,can1 11111111 [8] 00 2F CE 69 00 1C B9 75
1542598691.40181,can1 11111111 [8] 00 2F CE 6A 00 1C B9 75
1542598691.402295,can1 11111111 [8] 00 2F CE 6B 00 1C B9 76
1542598691.402766,can1 11111111 [8] 00 2F CE 6C 00 1C B9 76
1542598691.403231,can1 11111111 [8] 00 2F CE 6D 00 1C B9 77
1542598691.403641,can1 11111111 [8] 00 2F CE 6E 00 1C B9 78
1542598691.404168,can1 11111111 [8] 00 2F CE 6F 00 1C B9 78
1542598691.404658,can1 11111111 [8] 00 2F CE 70 00 1C B9 79
1542598691.405129,can1 11111111 [8] 00 2F CE 71 00 1C B9 79
1542598691.405591,can1 11111111 [8] 00 2F CE 72 00 1C B9 7A
1542598691.406124,can1 11111111 [8] 00 2F CE 73 00 1C B9 7B
1542598691.406606,can1 11111111 [8] 00 2F CE 74 00 1C B9 7B
1542598691.407073,can1 11111111 [8] 00 2F CE 75 00 1C B9 7C
1542598691.407488,can1 11111111 [8] 00 2F CE 76 00 1C B9 7C
1542598691.408015,can1 11111111 [8] 00 2F CE 77 00 1C B9 7D
1542598691.408498,can1 11111111 [8] 00 2F CE 78 00 1C B9 7E
1542598691.408963,can1 11111111 [8] 00 2F CE 79 00 1C B9 7E
1542598691.409428,can1 11111111 [8] 00 2F CE 7A 00 1C B9 7F
1542598691.409959,can1 11111111 [8] 00 2F CE 7B 00 1C B9 7F
1542598691.410437,can1 11111111 [8] 00 2F CE 7C 00 1C B9 80
1542598691.410859,can1 11111111 [8] 00 2F CE 7D 00 1C B9 81
1542598691.411319,can1 11111111 [8] 00 2F CE 7E 00 1C B9 81
1542598691.411845,can1 11111111 [8] 00 2F CE 7F 00 1C B9 82
1542598691.412327,can1 11111111 [8] 00 2F CE 80 00 1C B9 82
1542598691.412793,can1 11111111 [8] 00 2F CE 81 00 1C B9 83
1542598691.413264,can1 11111111 [8] 00 2F CE 82 00 1C B9 84
1542598691.413804,can1 18FEDF00 [8] FE FE FE FF FE FF BF FF
1542598691.414303,can1 11111111 [8] 00 2F CE 83 00 1C B9 84
1542598691.414738,can1 0CF00400 [8] 38 FE FE FE FE 00 FF FE
1542598691.415215,can1 11111111 [8] 00 2F CE 85 00 1C B9 85
1542598691.415742,can1 0CF00203 [8] FF 00 00 FF FF AD 47 03
1542598691.416225,can1 11111111 [8] 00 2F CE 86 00 1C B9 86
1542598691.416692,can1 0CF00300 [8] D1 00 FE FF FF FF 00 FF
1542598691.417157,can1 11111111 [8] 00 2F CE 87 00 1C B9 87
1542598691.418209,can1 11111111 [8] 00 2F CE 84 00 1C B9 85
1542598691.418826,can1 11111111 [8] 00 2F CE 88 00 1C B9 87
1542598691.419413,can1 11111111 [8] 00 2F CE 89 00 1C B9 88
1542598691.41994,can1 11111111 [8] 00 2F CE 8A 00 1C B9 88
1542598691.420444,can1 11111111 [8] 00 2F CE 8B 00 1C B9 89
1542598691.420927,can1 11111111 [8] 00 2F CE 8C 00 1C B9 8A
1542598691.421453,can1 11111111 [8] 00 2F CE 8D 00 1C B9 8A
1542598691.421893,can1 11111111 [8] 00 2F CE 8E 00 1C B9 8B
1542598691.42238,can1 11111111 [8] 00 2F CE 8F 00 1C B9 8B
1542598691.422862,can1 11111111 [8] 00 2F CE 90 00 1C B9 8C
1542598691.423383,can1 11111111 [8] 00 2F CE 91 00 1C B9 8D
1542598691.42388,can1 11111111 [8] 00 2F CE 92 00 1C B9 8D
1542598691.424357,can1 11111111 [8] 00 2F CE 93 00 1C B9 8E
1542598691.424823,can1 11111111 [8] 00 2F CE 94 00 1C B9 8E
1542598691.425348,can1 11111111 [8] 00 2F CE 95 00 1C B9 8F
1542598691.425777,can1 11111111 [8] 00 2F CE 96 00 1C B9 90
1542598691.426251,can1 11111111 [8] 00 2F CE 97 00 1C B9 90
1542598691.426737,can1 11111111 [8] 00 2F CE 98 00 1C B9 91
1542598691.427264,can1 11111111 [8] 00 2F CE 99 00 1C B9 91
1542598691.427753,can1 11111111 [8] 00 2F CE 9A 00 1C B9 92
1542598691.428224,can1 11111111 [8] 00 2F CE 9B 00 1C B9 93
1542598691.428701,can1 11111111 [8] 00 2F CE 9C 00 1C B9 93
1542598691.429218,can1 11111111 [8] 00 2F CE 9D 00 1C B9 94
1542598691.429651,can1 11111111 [8] 00 2F CE 9E 00 1C B9 94
1542598691.430143,can1 11111111 [8] 00 2F CE 9F 00 1C B9 95
1542598691.430622,can1 11111111 [8] 00 2F CE A0 00 1C B9 96
1542598691.431155,can1 11111111 [8] 00 2F CE A1 00 1C B9 96
1542598691.431644,can1 11111111 [8] 00 2F CE A2 00 1C B9 97
1542598691.432122,can1 11111111 [8] 00 2F CE A3 00 1C B9 97
1542598691.432591,can1 11111111 [8] 00 2F CE A4 00 1C B9 98
1542598691.4331,can1 11111111 [8] 00 2F CE A5 00 1C B9 99
1542598691.433585,can1 11111111 [8] 00 2F CE A6 00 1C B9 99
1542598691.43401,can1 11111111 [8] 00 2F CE A7 00 1C B9 9A
1542598691.434499,can1 11111111 [8] 00 2F CE A8 00 1C B9 9A
1542598691.435021,can1 11111111 [8] 00 2F CE A9 00 1C B9 9B
1542598691.435517,can1 11111111 [8] 00 2F CE AA 00 1C B9 9C
1542598691.436002,can1 11111111 [8] 00 2F CE AB 00 1C B9 9C
1542598691.436471,can1 11111111 [8] 00 2F CE AC 00 1C B9 9D
1542598691.436986,can1 18F0010B [8] CF FF F0 FF FF DC FF FF
1542598691.437489,can1 11111111 [8] 00 2F CE AD 00 1C B9 9D
1542598691.437908,can1 11111111 [8] 00 2F CE AE 00 1C B9 9E
1542598691.438375,can1 11111111 [8] 00 2F CE BA 00 1C B9 A5
1542598691.438894,can1 11111111 [8] 00 2F CE BB 00 1C B9 A6
1542598691.439388,can1 11111111 [8] 00 2F CE BC 00 1C B9 A6
1542598691.43987,can1 11111111 [8] 00 2F CE BD 00 1C B9 A7
1542598691.440342,can1 11111111 [8] 00 2F CE BE 00 1C B9 A8
1542598691.441111,can1 11111111 [8] 00 2F CE BF 00 1C B9 A8
1542598691.44171,can1 11111111 [8] 00 2F CE C0 00 1C B9 A9
1542598691.442237,can1 11111111 [8] 00 2F CE C1 00 1C B9 A9
1542598691.442795,can1 0CF00300 [8] D1 00 FE FF FF FF 00 FF
1542598691.443313,can1 11111111 [8] 00 2F CE C8 00 1C B9 AE
1542598691.443809,can1 11111111 [8] 00 2F CE C9 00 1C B9 AE
1542598691.444292,can1 11111111 [8] 00 2F CE CA 00 1C B9 AF
1542598691.444816,can1 11111111 [8] 00 2F CE CB 00 1C B9 AF
1542598691.445321,can1 11111111 [8] 00 2F CE CD 00 1C B9 B1
1542598691.445804,can1 11111111 [8] 00 2F CE CE 00 1C B9 B1
1542598691.44623,can1 11111111 [8] 00 2F CE CF 00 1C B9 B2
1542598691.446758,can1 11111111 [8] 00 2F CE D0 00 1C B9 B2
1542598691.447249,can1 11111111 [8] 00 2F CE D1 00 1C B9 B3
1542598691.447733,can1 11111111 [8] 00 2F CE D2 00 1C B9 B4
1542598691.448207,can1 11111111 [8] 00 2F CE D3 00 1C B9 B4
1542598691.448724,can1 11111111 [8] 00 2F CE D4 00 1C B9 B5
1542598691.449217,can1 11111111 [8] 00 2F CE D5 00 1C B9 B5
1542598691.449704,can1 11111111 [8] 00 2F CE D6 00 1C B9 B6
1542598691.45012,can1 11111111 [8] 00 2F CE D7 00 1C B9 B7
1542598691.450919,can1 11111111 [8] 00 2F CE D8 00 1C B9 B7
1542598691.451436,can1 11111111 [8] 00 2F CE D9 00 1C B9 B8
1542598691.45193,can1 11111111 [8] 00 2F CE DA 00 1C B9 B8
1542598691.452348,can1 11111111 [8] 00 2F CE DB 00 1C B9 B9
1542598691.452892,can1 11111111 [8] 00 2F CE DC 00 1C B9 BA
1542598691.453394,can1 11111111 [8] 00 2F CE DD 00 1C B9 BA
1542598691.453874,can1 11111111 [8] 00 2F CE DE 00 1C B9 BB
1542598691.454343,can1 11111111 [8] 00 2F CE DF 00 1C B9 BB
1542598691.454875,can1 11111111 [8] 00 2F CE E0 00 1C B9 BC
1542598691.455359,can1 11111111 [8] 00 2F CE E1 00 1C B9 BD
1542598691.455828,can1 11111111 [8] 00 2F CE E2 00 1C B9 BD
1542598691.45629,can1 11111111 [8] 00 2F CE E3 00 1C B9 BE
1542598691.456825,can1 11111111 [8] 00 2F CE E4 00 1C B9 BE
1542598691.457251,can1 11111111 [8] 00 2F CE E5 00 1C B9 BF
1542598691.45773,can1 11111111 [8] 00 2F CE E6 00 1C B9 C0
1542598691.459451,can1 11111111 [8] 00 2F CE E7 00 1C B9 C0
1542598691.460236,can1 11111111 [8] 00 2F CE E8 00 1C B9 C1
1542598691.461005,can1 11111111 [8] 00 2F CE E9 00 1C B9 C1
1542598691.461559,can1 11111111 [8] 00 2F CE EA 00 1C B9 C2
1542598691.462065,can1 11111111 [8] 00 2F CE EB 00 1C B9 C3
1542598691.462685,can1 11111111 [8] 00 2F CE EC 00 1C B9 C3
1542598691.463218,can1 14FFA000 [8] FC FF FF FF FF FF FF FF
1542598691.463706,can1 11111111 [8] 00 2F CE ED 00 1C B9 C4
1542598691.464184,can1 11111111 [8] 00 2F CE EE 00 1C B9 C4
1542598691.464762,can1 11111111 [8] 00 2F CE EF 00 1C B9 C5
1542598691.465247,can1 11111111 [8] 00 2F CE F0 00 1C B9 C6
1542598691.4659,can1 11111111 [8] 00 2F CE F1 00 1C B9 C6
1542598691.466488,can1 11111111 [8] 00 2F CE F2 00 1C B9 C7
1542598691.467004,can1 11111111 [8] 00 2F CE F3 00 1C B9 C7
1542598691.467489,can1 11111111 [8] 00 2F CE F4 00 1C B9 C8
1542598691.467957,can1 11111111 [8] 00 2F CE F5 00 1C B9 C9
1542598691.468497,can1 11111111 [8] 00 2F CE F6 00 1C B9 C9
1542598691.468981,can1 11111111 [8] 00 2F CE F7 00 1C B9 CA
1542598691.469402,can1 1CEBFF00 [8] 05 09 03 38 06 09 03 FF
1542598691.469876,can1 11111111 [8] 00 2F CE F8 00 1C B9 CA
1542598691.470402,can1 0CF00400 [8] 38 FE FE FE FE 00 FF FE
1542598691.470891,can1 11111111 [8] 00 2F CE FA 00 1C B9 CC
1542598691.471371,can1 0CF00203 [8] FF 00 00 FF FF AD 47 03
1542598691.471838,can1 11111111 [8] 00 2F CE FB 00 1C B9 CC
1542598691.472368,can1 11111111 [8] 00 2F CE F9 00 1C B9 CB
1542598691.472857,can1 11111111 [8] 00 2F CE FC 00 1C B9 CD
1542598691.473272,can1 11111111 [8] 00 2F CE FD 00 1C B9 CD
1542598691.473759,can1 11111111 [8] 00 2F CE FE 00 1C B9 CE
1542598691.474289,can1 11111111 [8] 00 2F CE FF 00 1C B9 CF
1542598691.474777,can1 11111111 [8] 00 2F CF 00 00 1C B9 CF
1542598691.475258,can1 11111111 [8] 00 2F CF 01 00 1C B9 D0
1542598691.475731,can1 11111111 [8] 00 2F CF 02 00 1C B9 D0
1542598691.476266,can1 11111111 [8] 00 2F CF 03 00 1C B9 D1
1542598691.4767,can1 11111111 [8] 00 2F CF 04 00 1C B9 D2
1542598691.477173,can1 11111111 [8] 00 2F CF 05 00 1C B9 D2
1542598691.477652,can1 11111111 [8] 00 2F CF 06 00 1C B9 D3
1542598691.478175,can1 11111111 [8] 00 2F CF 07 00 1C B9 D3
1542598691.478667,can1 11111111 [8] 00 2F CF 08 00 1C B9 D4
1542598691.479138,can1 11111111 [8] 00 2F CF 09 00 1C B9 D5
1542598691.479615,can1 11111111 [8] 00 2F CF 0A 00 1C B9 D5
1542598691.480143,can1 11111111 [8] 00 2F CF 0B 00 1C B9 D6
1542598691.480637,can1 11111111 [8] 00 2F CF 0C 00 1C B9 D6
1542598691.481057,can1 11111111 [8] 00 2F CF 0D 00 1C B9 D7
1542598691.481523,can1 11111111 [8] 00 2F CF 0E 00 1C B9 D8
1542598691.482043,can1 11111111 [8] 00 2F CF 0F 00 1C B9 D8
1542598691.48253,can1 11111111 [8] 00 2F CF 10 00 1C B9 D9
1542598691.482999,can1 11111111 [8] 00 2F CF 11 00 1C B9 D9
1542598691.483473,can1 11111111 [8] 00 2F CF 12 00 1C B9 DA
1542598691.48399,can1 11111111 [8] 00 2F CF 13 00 1C B9 DB
1542598691.484477,can1 11111111 [8] 00 2F CF 14 00 1C B9 DB
1542598691.484896,can1 11111111 [8] 00 2F CF 15 00 1C B9 DC
1542598691.485357,can1 11111111 [8] 00 2F CF 16 00 1C B9 DC
1542598691.48587,can1 11111111 [8] 00 2F CF 17 00 1C B9 DD
1542598691.486362,can1 11111111 [8] 00 2F CF 18 00 1C B9 DE
1542598691.486838,can1 18FEDF00 [8] FE FE FE FF FE FF BF FF
1542598691.487897,can1 11111111 [8] 00 2F CF 19 00 1C B9 DE
1542598691.488526,can1 0CF00400 [8] 38 FE FE FE FE 00 FF FE
1542598691.489053,can1 11111111 [8] 00 2F CF 1A 00 1C B9 DF
1542598691.489555,can1 0CF00203 [8] FF 00 00 FF FF AD 47 03
1542598691.490142,can1 11111111 [8] 00 2F CF 1C 00 1C B9 E0
1542598691.490653,can1 0CF00300 [8] D1 00 FE FF FF FF 00 FF
1542598691.491157,can1 11111111 [8] 00 2F CF 1D 00 1C B9 E1
1542598691.491699,can1 0CF00400 [8] 38 FE FE FE FE 00 FF FE
1542598691.492193,can1 11111111 [8] 00 2F CF 1E 00 1C B9 E1
1542598691.492638,can1 0CF00203 [8] FF 00 00 FF FF AD 47 03
1542598691.493117,can1 11111111 [8] 00 2F CF 1F 00 1C B9 E2
1542598691.493641,can1 11111111 [8] 00 2F CF 1B 00 1C B9 DF
1542598691.494144,can1 11111111 [8] 00 2F CF 20 00 1C B9 E2
1542598691.494622,can1 11111111 [8] 00 2F CF 21 00 1C B9 E3
1542598691.49509,can1 11111111 [8] 00 2F CF 22 00 1C B9 E4
1542598691.4956,can1 11111111 [8] 00 2F CF 23 00 1C B9 E4
1542598691.496089,can1 11111111 [8] 00 2F CF 24 00 1C B9 E5
1542598691.496524,can1 11111111 [8] 00 2F CF 25 00 1C B9 E5
1542598691.497,can1 11111111 [8] 00 2F CF 26 00 1C B9 E6
1542598691.49752,can1 11111111 [8] 00 2F CF 27 00 1C B9 E7
1542598691.498009,can1 11111111 [8] 00 2F CF 28 00 1C B9 E7
1542598691.498482,can1 11111111 [8] 00 2F CF 29 00 1C B9 E8
1542598691.498955,can1 11111111 [8] 00 2F CF 2A 00 1C B9 E8
1542598691.499466,can1 11111111 [8] 00 2F CF 2B 00 1C B9 E9
1542598691.499956,can1 11111111 [8] 00 2F CF 2C 00 1C B9 EA
1542598691.500374,can1 11111111 [8] 00 2F CF 2D 00 1C B9 EA
1542598691.500859,can1 11111111 [8] 00 2F CF 2E 00 1C B9 EB
1542598691.50138,can1 11111111 [8] 00 2F CF 2F 00 1C B9 EB
1542598691.50188,can1 11111111 [8] 00 2F CF 30 00 1C B9 EC
1542598691.50236,can1 11111111 [8] 00 2F CF 31 00 1C B9 ED
1542598691.502833,can1 11111111 [8] 00 2F CF 32 00 1C B9 ED
1542598691.503341,can1 11111111 [8] 00 2F CF 33 00 1C B9 EE
1542598691.50378,can1 11111111 [8] 00 2F CF 34 00 1C B9 EE
1542598691.504256,can1 11111111 [8] 00 2F CF 35 00 1C B9 EF
1542598691.504736,can1 11111111 [8] 00 2F CF 36 00 1C B9 F0
1542598691.505201,can1 11111111 [8] 00 2F CF 37 00 1C B9 F0
1542598691.505746,can1 11111111 [8] 00 2F CF 38 00 1C B9 F1
1542598691.506231,can1 11111111 [8] 00 2F CF 39 00 1C B9 F1
1542598691.506715,can1 11111111 [8] 00 2F CF 3A 00 1C B9 F2
1542598691.507232,can1 11111111 [8] 00 2F CF 3B 00 1C B9 F3
1542598691.507665,can1 11111111 [8] 00 2F CF 3C 00 1C B9 F3
1542598691.508143,can1 11111111 [8] 00 2F CF 3D 00 1C B9 F4
1542598691.508615,can1 11111111 [8] 00 2F CF 3E 00 1C B9 F4
1542598691.509079,can1 11111111 [8] 00 2F CF 3F 00 1C B9 F5
1542598691.509612,can1 11111111 [8] 00 2F CF 40 00 1C B9 F6
1542598691.510096,can1 11111111 [8] 00 2F CF 41 00 1C B9 F6
1542598691.510571,can1 11111111 [8] 00 2F CF 42 00 1C B9 F7
1542598691.511045,can1 11111111 [8] 00 2F CF 43 00 1C B9 F7
1542598691.511604,can1 11111111 [8] 00 2F CF 44 00 1C B9 F8
1542598691.512037,can1 11111111 [8] 00 2F CF 45 00 1C B9 F9
1542598691.512523,can1 11111111 [8] 00 2F CF 46 00 1C B9 F9
1542598691.512999,can1 11111111 [8] 00 2F CF 47 00 1C B9 FA
1542598691.513557,can1 11111111 [8] 00 2F CF 48 00 1C B9 FA
1542598691.514038,can1 11111111 [8] 00 2F CF 49 00 1C B9 FB
1542598691.514504,can1 11111111 [8] 00 2F CF 4A 00 1C B9 FC
1542598691.515055,can1 11111111 [8] 00 2F CF 4B 00 1C B9 FC
1542598691.515665,can1 11111111 [8] 00 2F CF 4C 00 1C B9 FD
1542598691.516164,can1 11111111 [8] 00 2F CF 4D 00 1C B9 FD
1542598691.51665,can1 11111111 [8] 00 2F CF 4E 00 1C B9 FE
1542598691.517491,can1 11111111 [8] 00 2F CF 4F 00 1C B9 FF
1542598691.518183,can1 11111111 [8] 00 2F CF 50 00 1C B9 FF
1542598691.518668,can1 11111111 [8] 00 2F CF 51 00 1C BA 00
1542598691.51931,can1 11111111 [8] 00 2F CF 52 00 1C BA 00
1542598691.519756,can1 11111111 [8] 00 2F CF 53 00 1C BA 01
1542598691.520242,can1 11111111 [8] 00 2F CF 54 00 1C BA 02
1542598691.52071,can1 11111111 [8] 00 2F CF 55 00 1C BA 02
1542598691.521241,can1 11111111 [8] 00 2F CF 56 00 1C BA 03
1542598691.521723,can1 11111111 [8] 00 2F CF 57 00 1C BA 03
1542598691.522204,can1 11111111 [8] 00 2F CF 58 00 1C BA 04
1542598691.522674,can1 11111111 [8] 00 2F CF 59 00 1C BA 05
1542598691.523225,can1 11111111 [8] 00 2F CF 5A 00 1C BA 05
1542598691.523717,can1 11111111 [8] 00 2F CF 5B 00 1C BA 06
1542598691.52414,can1 14FD3E00 [8] FF FF FF FF FF FF FF FF
1542598691.524617,can1 11111111 [8] 00 2F CF 5C 00 1C BA 06
1542598691.52515,can1 0CF00400 [8] 38 FE FE FE FE 00 FF FE
1542598691.525641,can1 11111111 [8] 00 2F CF 5E 00 1C BA 08
1542598691.526117,can1 0CF00203 [8] FF 00 00 FF FF AD 47 03
1542598691.526587,can1 11111111 [8] 00 2F CF 5F 00 1C BA 08
1542598691.527116,can1 11111111 [8] 00 2F CF 5D 00 1C BA 07
1542598691.5276,can1 11111111 [8] 00 2F CF 60 00 1C BA 09
1542598691.52802,can1 11111111 [8] 00 2F CF 61 00 1C BA 09
1542598691.528491,can1 11111111 [8] 00 2F CF 62 00 1C BA 0A
1542598691.530764,can1 11111111 [8] 00 2F CF 63 00 1C BA 0B
1542598691.531485,can1 11111111 [8] 00 2F CF 64 00 1C BA 0B
1542598691.532023,can1 11111111 [8] 00 2F CF 65 00 1C BA 0C
1542598691.53252,can1 11111111 [8] 00 2F CF 66 00 1C BA 0C
1542598691.53311,can1 11111111 [8] 00 2F CF 67 00 1C BA 0D
1542598691.53361,can1 11111111 [8] 00 2F CF 68 00 1C BA 0E
1542598691.534036,can1 11111111 [8] 00 2F CF 69 00 1C BA 0E
1542598691.534567,can1 11111111 [8] 00 2F CF 6A 00 1C BA 0F
1542598691.535079,can1 11111111 [8] 00 2F CF 6B 00 1C BA 0F
1542598691.535563,can1 11111111 [8] 00 2F CF 6C 00 1C BA 10
1542598691.536042,can1 11111111 [8] 00 2F CF 6D 00 1C BA 11
1542598691.536565,can1 11111111 [8] 00 2F CF 6E 00 1C BA 11
1542598691.537064,can1 11111111 [8] 00 2F CF 6F 00 1C BA 12
1542598691.537539,can1 11111111 [8] 00 2F CF 70 00 1C BA 12
1542598691.53796,can1 11111111 [8] 00 2F CF 71 00 1C BA 13
1542598691.538468,can1 11111111 [8] 00 2F CF 72 00 1C BA 14
1542598691.538957,can1 11111111 [8] 00 2F CF 73 00 1C BA 14
1542598691.539431,can1 11111111 [8] 00 2F CF 74 00 1C BA 15
1542598691.539899,can1 11111111 [8] 00 2F CF 75 00 1C BA 15
1542598691.540358,can1 11111111 [8] 00 2F CF 76 00 1C BA 16
1542598691.540909,can1 11111111 [8] 00 2F CF 77 00 1C BA 17
1542598691.541403,can1 11111111 [8] 00 2F CF 78 00 1C BA 17
1542598691.541829,can1 11111111 [8] 00 2F CF 79 00 1C BA 18
1542598691.542299,can1 11111111 [8] 00 2F CF 7A 00 1C BA 19
1542598691.542846,can1 11111111 [8] 00 2F CF 7B 00 1C BA 19
1542598691.543332,can1 11111111 [8] 00 2F CF 7C 00 1C BA 1A
1542598691.543805,can1 18F0010B [8] CF FF F0 FF FF DC FF FF
1542598691.544314,can1 11111111 [8] 00 2F CF 7D 00 1C BA 1A
1542598691.544813,can1 11111111 [8] 00 2F CF 7E 00 1C BA 1B
1542598691.545287,can1 11111111 [8] 00 2F CF 7F 00 1C BA 1C
1542598691.545708,can1 11111111 [8] 00 2F CF 80 00 1C BA 1C
1542598691.546178,can1 11111111 [8] 00 2F CF 81 00 1C BA 1D
1542598691.546719,can1 11111111 [8] 00 2F CF 82 00 1C BA 1D
1542598691.547197,can1 11111111 [8] 00 2F CF 83 00 1C BA 1E
1542598691.547665,can1 11111111 [8] 00 2F CF 84 00 1C BA 1F
1542598691.548122,can1 11111111 [8] 00 2F CF 85 00 1C BA 1F
1542598691.548658,can1 11111111 [8] 00 2F CF 86 00 1C BA 20
1542598691.549141,can1 11111111 [8] 00 2F CF 87 00 1C BA 20
1542598691.549563,can1 11111111 [8] 00 2F CF 88 00 1C BA 21
1542598691.550037,can1 11111111 [8] 00 2F CF 89 00 1C BA 22
1542598691.550788,can1 18F0010B [8] CF FF F0 FF FF DC FF FF
1542598691.551335,can1 11111111 [8] 00 2F CF 8A 00 1C BA 22
1542598691.551779,can1 11111111 [8] 00 2F CF 8B 00 1C BA 23
1542598691.552326,can1 11111111 [8] 00 2F CF 8C 00 1C BA 23
1542598691.552837,can1 11111111 [8] 00 2F CF 8D 00 1C BA 24
1542598691.553323,can1 11111111 [8] 00 2F CF 8E 00 1C BA 25
1542598691.553803,can1 11111111 [8] 00 2F CF 8F 00 1C BA 25
1542598691.554324,can1 11111111 [8] 00 2F CF 90 00 1C BA 26
1542598691.554812,can1 11111111 [8] 00 2F CF 91 00 1C BA 26
1542598691.55528,can1 11111111 [8] 00 2F CF 92 00 1C BA 27
1542598691.5557,can1 11111111 [8] 00 2F CF 93 00 1C BA 28
1542598691.556223,can1 11111111 [8] 00 2F CF 94 00 1C BA 28
1542598691.556708,can1 18FEBF0B [8] 00 00 7D FE FE FE FF FF
1542598691.557709,can1 11111111 [8] 00 2F CF 95 00 1C BA 29
1542598691.55958,can1 11111111 [8] 00 2F CF 96 00 1C BA 29
1542598691.56053,can1 11111111 [8] 00 2F CF 97 00 1C BA 2A
1542598691.561119,can1 11111111 [8] 00 2F CF 98 00 1C BA 2B
1542598691.561653,can1 11111111 [8] 00 2F CF 99 00 1C BA 2B
1542598691.562299,can1 11111111 [8] 00 2F CF 9A 00 1C BA 2C
1542598691.562827,can1 11111111 [8] 00 2F CF 9B 00 1C BA 2C
1542598691.563323,can1 11111111 [8] 00 2F CF 9C 00 1C BA 2D
1542598691.563872,can1 11111111 [8] 00 2F CF 9D 00 1C BA 2E
1542598691.564397,can1 11111111 [8] 00 2F CF 9E 00 1C BA 2E
1542598691.564893,can1 11111111 [8] 00 2F CF 9F 00 1C BA 2F
1542598691.565374,can1 18FEDF00 [8] FE FE FE FF FE FF BF FF
1542598691.566053,can1 11111111 [8] 00 2F CF A0 00 1C BA 2F
1542598691.566606,can1 0CF00400 [8] 38 FE FE FE FE 00 FF FE
1542598691.56713,can1 11111111 [8] 00 2F CF A1 00 1C BA 30
1542598691.567621,can1 0CF00203 [8] FF 00 00 FF FF AD 47 03
1542598691.568176,can1 11111111 [8] 00 2F CF A3 00 1C BA 31
1542598691.568684,can1 0CF00400 [8] 38 FE FE FE FE 00 FF FE
1542598691.569167,can1 11111111 [8] 00 2F CF A4 00 1C BA 32
1542598691.569637,can1 0CF00300 [8] D1 00 FE FF FF FF 00 FF
1542598691.570179,can1 11111111 [8] 00 2F CF A5 00 1C BA 32
1542598691.570657,can1 11111111 [8] 00 2F CF A2 00 1C BA 31
1542598691.571119,can1 11111111 [8] 00 2F CF A6 00 1C BA 33
1542598691.571538,can1 11111111 [8] 00 2F CF A7 00 1C BA 34
1542598691.572065,can1 11111111 [8] 00 2F CF A8 00 1C BA 34
1542598691.572558,can1 11111111 [8] 00 2F CF A9 00 1C BA 35
1542598691.573039,can1 11111111 [8] 00 2F CF AA 00 1C BA 35
1542598691.573511,can1 11111111 [8] 00 2F CF AB 00 1C BA 36
1542598691.574044,can1 11111111 [8] 00 2F CF AC 00 1C BA 37
1542598691.574522,can1 11111111 [8] 00 2F CF AD 00 1C BA 37
1542598691.574991,can1 11111111 [8] 00 2F CF AE 00 1C BA 38
1542598691.575406,can1 11111111 [8] 00 2F CF AF 00 1C BA 38
1542598691.575942,can1 11111111 [8] 00 2F CF B0 00 1C BA 39
1542598691.576426,can1 11111111 [8] 00 2F CF B1 00 1C BA 3A
1542598691.57691,can1 11111111 [8] 00 2F CF B2 00 1C BA 3A
1542598691.577378,can1 11111111 [8] 00 2F CF B3 00 1C BA 3B
1542598691.577917,can1 11111111 [8] 00 2F CF B4 00 1C BA 3B
1542598691.578401,can1 11111111 [8] 00 2F CF B5 00 1C BA 3C
1542598691.578864,can1 11111111 [8] 00 2F CF B6 00 1C BA 3D
1542598691.57933,can1 11111111 [8] 00 2F CF B7 00 1C BA 3D
1542598691.579861,can1 11111111 [8] 00 2F CF B8 00 1C BA 3E
1542598691.580294,can1 11111111 [8] 00 2F CF B9 00 1C BA 3E
1542598691.580771,can1 11111111 [8] 00 2F CF BA 00 1C BA 3F
1542598691.581251,can1 11111111 [8] 00 2F CF BB 00 1C BA 40
1542598691.581778,can1 11111111 [8] 00 2F CF BC 00 1C BA 40
1542598691.582271,can1 11111111 [8] 00 2F CF BD 00 1C BA 41
1542598691.582744,can1 11111111 [8] 00 2F CF BE 00 1C BA 41
1542598691.583219,can1 11111111 [8] 00 2F CF BF 00 1C BA 42
1542598691.583763,can1 11111111 [8] 00 2F CF C0 00 1C BA 43
1542598691.584255,can1 11111111 [8] 00 2F CF C1 00 1C BA 43
1542598691.584673,can1 11111111 [8] 00 2F CF C2 00 1C BA 44
1542598691.585144,can1 11111111 [8] 00 2F CF C3 00 1C BA 44
1542598691.58567,can1 11111111 [8] 00 2F CF C4 00 1C BA 45
1542598691.586168,can1 11111111 [8] 00 2F CF C5 00 1C BA 46
1542598691.586648,can1 11111111 [8] 00 2F CF C6 00 1C BA 46
1542598691.587115,can1 11111111 [8] 00 2F CF C7 00 1C BA 47
1542598691.587644,can1 11111111 [8] 00 2F CF C8 00 1C BA 47
1542598691.588127,can1 11111111 [8] 00 2F CF C9 00 1C BA 48
1542598691.588548,can1 11111111 [8] 00 2F CF CA 00 1C BA 49
1542598691.589019,can1 11111111 [8] 00 2F CF CB 00 1C BA 49
1542598691.589546,can1 11111111 [8] 00 2F CF CC 00 1C BA 4A
1542598691.590039,can1 11111111 [8] 00 2F CF CD 00 1C BA 4A
1542598691.590515,can1 11111111 [8] 00 2F CF CE 00 1C BA 4B
1542598691.590981,can1 11111111 [8] 00 2F CF CF 00 1C BA 4C
1542598691.591525,can1 11111111 [8] 00 2F CF D0 00 1C BA 4C
1542598691.592002,can1 11111111 [8] 00 2F CF D1 00 1C BA 4D
1542598691.592426,can1 11111111 [8] 00 2F CF D2 00 1C BA 4D
1542598691.592895,can1 11111111 [8] 00 2F CF D3 00 1C BA 4E
1542598691.593415,can1 11111111 [8] 00 2F CF D4 00 1C BA 4F
1542598691.593896,can1 11111111 [8] 00 2F CF D5 00 1C BA 4F
1542598691.59438,can1 11111111 [8] 00 2F CF D6 00 1C BA 50
1542598691.594847,can1 11111111 [8] 00 2F CF D7 00 1C BA 50
1542598691.595372,can1 11111111 [8] 00 2F CF D8 00 1C BA 51
1542598691.595858,can1 11111111 [8] 00 2F CF D9 00 1C BA 52
1542598691.596279,can1 14FFA000 [8] FC FF FF FF FF FF FF FF
1542598691.596756,can1 11111111 [8] 00 2F CF DA 00 1C BA 52
1542598691.597313,can1 0CF00400 [8] 38 FE FE FE FE 00 FF FE
1542598691.597825,can1 11111111 [8] 00 2F CF DC 00 1C BA 53
1542598691.598309,can1 0CF00203 [8] FF 00 00 FF FF AD 47 03
1542598691.598784,can1 11111111 [8] 00 2F CF DD 00 1C BA 54
1542598691.59932,can1 0CF00300 [8] D1 00 FE FF FF FF 00 FF
1542598691.59981,can1 11111111 [8] 00 2F CF DE 00 1C BA 55
1542598691.600283,can1 11111111 [8] 00 2F CF DB 00 1C BA 53
1542598691.60076,can1 11111111 [8] 00 2F CF DF 00 1C BA 55
1542598691.601294,can1 11111111 [8] 00 2F CF E0 00 1C BA 56
1542598691.601723,can1 11111111 [8] 00 2F CF E1 00 1C BA 56
1542598691.602196,can1 11111111 [8] 00 2F CF E2 00 1C BA 57
1542598691.60267,can1 11111111 [8] 00 2F CF E3 00 1C BA 58
1542598691.603191,can1 11111111 [8] 00 2F CF E4 00 1C BA 58
1542598691.603673,can1 11111111 [8] 00 2F CF E5 00 1C BA 59
1542598691.60414,can1 11111111 [8] 00 2F CF E6 00 1C BA 59
1542598691.604616,can1 11111111 [8] 00 2F CF E7 00 1C BA 5A
1542598691.605138,can1 11111111 [8] 00 2F CF E8 00 1C BA 5B
1542598691.605572,can1 11111111 [8] 00 2F CF E9 00 1C BA 5B
1542598691.606054,can1 11111111 [8] 00 2F CF EA 00 1C BA 5C
1542598691.606531,can1 11111111 [8] 00 2F CF EB 00 1C BA 5C
1542598691.607059,can1 11111111 [8] 00 2F CF EC 00 1C BA 5D
1542598691.607553,can1 11111111 [8] 00 2F CF ED 00 1C BA 5E
1542598691.608022,can1 11111111 [8] 00 2F CF EE 00 1C BA 5E
1542598691.608486,can1 11111111 [8] 00 2F CF EF 00 1C BA 5F
1542598691.609008,can1 11111111 [8] 00 2F CF F0 00 1C BA 5F
1542598691.609442,can1 11111111 [8] 00 2F CF F1 00 1C BA 60
1542598691.60992,can1 11111111 [8] 00 2F CF F2 00 1C BA 61
1542598691.61039,can1 11111111 [8] 00 2F CF F3 00 1C BA 61
1542598691.610905,can1 11111111 [8] 00 2F CF F4 00 1C BA 62
1542598691.611388,can1 11111111 [8] 00 2F CF F5 00 1C BA 62
1542598691.611864,can1 11111111 [8] 00 2F CF F6 00 1C BA 63
1542598691.612336,can1 11111111 [8] 00 2F CF F7 00 1C BA 64
1542598691.612858,can1 11111111 [8] 00 2F CF F8 00 1C BA 64
1542598691.613297,can1 11111111 [8] 00 2F CF F9 00 1C BA 65
1542598691.613777,can1 11111111 [8] 00 2F CF FA 00 1C BA 65
1542598691.614244,can1 11111111 [8] 00 2F CF FB 00 1C BA 66
1542598691.614767,can1 11111111 [8] 00 2F CF FC 00 1C BA 67
1542598691.615254,can1 11111111 [8] 00 2F CF FD 00 1C BA 67
1542598691.615738,can1 11111111 [8] 00 2F CF FE 00 1C BA 68
1542598691.616214,can1 11111111 [8] 00 2F CF FF 00 1C BA 68
1542598691.616729,can1 11111111 [8] 00 2F D0 00 00 1C BA 69
1542598691.617161,can1 11111111 [8] 00 2F D0 01 00 1C BA 6A
1542598691.617639,can1 11111111 [8] 00 2F D0 02 00 1C BA 6A
1542598691.6184,can1 11111111 [8] 00 2F D0 03 00 1C BA 6B
1542598691.619001,can1 11111111 [8] 00 2F D0 04 00 1C BA 6B
1542598691.619507,can1 11111111 [8] 00 2F D0 05 00 1C BA 6C
1542598691.619931,can1 11111111 [8] 00 2F D0 06 00 1C BA 6D
1542598691.620405,can1 11111111 [8] 00 2F D0 07 00 1C BA 6D
1542598691.620957,can1 11111111 [8] 00 2F D0 08 00 1C BA 6E
1542598691.62144,can1 18FEDF00 [8] FE FE FE FF FE FF BF FF
1542598691.621911,can1 11111111 [8] 00 2F D0 09 00 1C BA 6E
1542598691.622381,can1 0CF00400 [8] 38 FE FE FE FE 00 FF FE
1542598691.622917,can1 11111111 [8] 00 2F D0 0B 00 1C BA 70
1542598691.623396,can1 0CF00203 [8] FF 00 00 FF FF AD 47 03
1542598691.623814,can1 11111111 [8] 00 2F D0 0C 00 1C BA 70
1542598691.62429,can1 0CF00300 [8] D1 00 FE FF FF FF 00 FF
1542598691.624826,can1 11111111 [8] 00 2F D0 0D 00 1C BA 71
1542598691.625315,can1 11111111 [8] 00 2F D0 0A 00 1C BA 6F
1542598691.625785,can1 11111111 [8] 00 2F D0 0E 00 1C BA 71
1542598691.626846,can1 11111111 [8] 00 2F D0 0F 00 1C BA 72
1542598691.627467,can1 11111111 [8] 00 2F D0 10 00 1C BA 73
1542598691.628001,can1 11111111 [8] 00 2F D0 11 00 1C BA 73
1542598691.628575,can1 11111111 [8] 00 2F D0 12 00 1C BA 74
1542598691.629093,can1 11111111 [8] 00 2F D0 13 00 1C BA 74
1542598691.629591,can1 11111111 [8] 00 2F D0 14 00 1C BA 75
1542598691.630071,can1 11111111 [8] 00 2F D0 15 00 1C BA 76
1542598691.630613,can1 11111111 [8] 00 2F D0 16 00 1C BA 76
1542598691.631101,can1 11111111 [8] 00 2F D0 17 00 1C BA 77
1542598691.631589,can1 11111111 [8] 00 2F D0 18 00 1C BA 77
1542598691.63201,can1 11111111 [8] 00 2F D0 19 00 1C BA 78
1542598691.632547,can1 11111111 [8] 00 2F D0 1A 00 1C BA 79
1542598691.63303,can1 11111111 [8] 00 2F D0 1B 00 1C BA 79
1542598691.633505,can1 11111111 [8] 00 2F D0 1C 00 1C BA 7A
1542598691.633971,can1 11111111 [8] 00 2F D0 1D 00 1C BA 7A
1542598691.634498,can1 11111111 [8] 00 2F D0 1E 00 1C BA 7B
1542598691.63498,can1 11111111 [8] 00 2F D0 1F 00 1C BA 7C
1542598691.635466,can1 11111111 [8] 00 2F D0 20 00 1C BA 7C
1542598691.635933,can1 11111111 [8] 00 2F D0 21 00 1C BA 7D
1542598691.63642,can1 11111111 [8] 00 2F D0 22 00 1C BA 7D
1542598691.636917,can1 11111111 [8] 00 2F D0 23 00 1C BA 7E
1542598691.637397,can1 11111111 [8] 00 2F D0 24 00 1C BA 7F
