1529343066.989259,can1 18E0FF00 [8] FF FF FF FF FF F3 FF FF
1529343067.002632,can1 18FCDC00 [8] E0 FE FE FF FF FF FF FF
1529343067.004397,can1 18DA00F1 [8] 30 08 00 00 00 00 00 00
1529343067.010582,can1 0CF00400 [8] 38 FE FE FE FE 00 FF FE
1529343067.012477,can1 0CF00203 [8] FF 00 00 FF FF AD 47 03
1529343067.018496,can1 18FEBF0B [8] 00 00 7D 7D 7D 7D FF FF
1529343067.020163,can1 18F0000F [8] 00 7D FF FF 0F 7D FF FF
1529343067.024568,can1 0CF00400 [8] 38 FE FE FE FE 00 FF FE
1529343067.026014,can1 0CF00203 [8] FF 00 00 FF FF AD 47 03
1529343067.027585,can1 18FF3000 [8] 00 00 FF FF FF FF FF FF
1529343067.029345,can1 0CF00400 [8] 38 FE FE FE FE 00 FF FE
1529343067.030824,can1 0CF00203 [8] FF 00 00 FF FF AD 47 03
1529343067.032049,can1 0CF00300 [8] D1 00 FE FF FF FF 00 FF
1529343067.033347,can1 14FFA000 [8] FC FF FF FF FF FF FF FF
1529343067.034624,can1 18FEF200 [8] 00 00 00 00 00 00 FF FF
1529343067.03582,can1 18FEF500 [8] FF FF FF FF FF FF FF FF
1529343067.037114,can1 0CF00400 [8] 38 FE FE FE FE 00 FF FE
1529343067.038828,can1 0CF00203 [8] FF 00 00 FF FF AD 47 03
1529343067.040284,can1 18DA00F1 [8] 30 08 00 00 00 00 00 00
1529343067.0415,can1 18FEDF00 [8] FE FE FE FF FE FF BF FF
1529343067.042794,can1 18FF6411 [8] F8 FF FF FF FF FF FF FF
1529343067.044064,can1 18FECA11 [8] 03 FF 00 00 00 00 FF FF
1529343067.045272,can1 18DA00F1 [8] 30 08 00 00 00 00 00 00
1529343067.046556,can1 0CF00400 [8] 38 FE FE FE FE 00 FF FE
1529343067.047977,can1 0CF00203 [8] FF 00 00 FF FF AD 47 03
1529343067.049542,can1 18FEEE00 [8] FF FF FF FF FF FF FF FF
1529343067.051121,can1 0CF00400 [8] 38 FE FE FE FE 00 FF FE
1529343067.052554,can1 0CF00203 [8] FF 00 00 FF FF AD 47 03
1529343067.053862,can1 18FEF000 [8] FF FF FF 00 00 FC 00 FF
1529343067.055066,can1 18FEA400 [8] FF FF FF FF 66 B1 A0 5B
1529343067.056352,can1 18FECA03 [8] 03 FF 00 00 00 00 FF FF
1529343067.05777,can1 0CF00400 [8] 38 FE FE FE FE 00 FF FE
1529343067.059371,can1 0CF00203 [8] FF 00 00 FF FF AD 47 03
1529343067.061349,can1 14FD3E00 [8] FF FF FF FF FF FF FF FF
1529343067.062769,can1 18FEE000 [8] A2 01 00 00 A2 01 00 00
1529343067.064106,can1 0CF00400 [8] 38 FE FE FE FE 00 FF FE
1529343067.065344,can1 0CF00203 [8] FF 00 00 FF FF AD 47 03
1529343067.066667,can1 0CF00300 [8] D1 00 FE FF FF FF 00 FF
1529343067.06823,can1 18FEF100 [8] CF 00 00 D0 FF 00 00 30
1529343067.069906,can1 18FEBD00 [8] FF FF FF FF FF FF FF FF
1529343067.071282,can1 18FD0700 [8] 47 F4 C0 FF FF FF FF FF
1529343067.072605,can1 18DA00F1 [8] 30 08 00 00 00 00 00 00
1529343067.073908,can1 0CF00400 [8] 38 FE FE FE FE 00 FF FE
1529343067.07511,can1 0CF00203 [8] FF 00 00 FF FF AD 47 03
1529343067.0764,can1 18FEDF00 [8] FE FE FE FF FE FF BF FF
1529343067.077814,can1 18FE4A03 [8] FF FF F3 FF F0 F7 FF FF
1529343067.07946,can1 18F00503 [8] FF 57 9E FF 20 2D 2D 2D
1529343067.080942,can1 18FF7400 [8] 7C 03 FF FF FF FF FF FF
1529343067.082247,can1 18DA00F1 [8] 30 08 00 00 00 00 00 00
1529343067.083541,can1 0CF00400 [8] 38 FE FE FE FE 00 FF FE
1529343067.084805,can1 1CECFF00 [8] 20 2A 00 06 FF CA FE 00
1529343067.08611,can1 18F0010B [8] CF FF F0 FF FF DC FF FF
1529343067.087543,can1 0CF00203 [8] FF 00 00 FF FF AD 47 03
1529343067.089535,can1 18F00100 [8] FF FF FF FF FA FF FF FF
1529343067.090822,can1 18FD7C00 [8] FF FF D0 34 FD FF FF FF
1529343067.092163,can1 0CF00400 [8] 38 FE FE FE FE 00 FF FE
1529343067.093474,can1 0CF00203 [8] FF 00 00 FF FF AD 47 03
1529343067.095228,can1 18FEBF0B [8] 00 00 7D 7D 7D 7D FF FF
1529343067.096482,can1 18F0000F [8] 00 7D FF FF 0F 7D FF FF
1529343067.098341,can1 18FEF600 [8] FF 00 FF FF FF FF FF FF
1529343067.099916,can1 18FEE400 [8] 00 3F FD FF 00 7F FF FF
1529343067.101374,can1 0CF00400 [8] 38 FE FE FE FE 00 FF FE
1529343067.102673,can1 0CF00203 [8] FF 00 00 FF FF AD 47 03
1529343067.103877,can1 18FF3000 [8] 00 00 FF FF FF FF FF FF
1529343067.105434,can1 18DA00F1 [8] 02 10 03 00 00 00 00 00
1529343067.106952,can1 18DA00F1 [8] 30 08 00 00 00 00 00 00
1529343067.108532,can1 18DAF100 [8] 06 50 03 00 14 00 C8 FF
1529343067.110051,can1 0CF00400 [8] 38 FE FE FE FE 00 FF FE
1529343067.11139,can1 0CF00203 [8] FF 00 00 FF FF AD 47 03
1529343067.112697,can1 0CF00300 [8] D1 00 FE FF FF FF 00 FF
1529343067.113892,can1 14FFA000 [8] FC FF FF FF FF FF FF FF
1529343067.115163,can1 18FEF200 [8] 00 00 00 00 00 00 FF FF
1529343067.116436,can1 18DA00F1 [8] 30 08 00 00 00 00 00 00
1529343067.117795,can1 0CF00400 [8] 38 FE FE FE FE 00 FF FE
1529343067.119546,can1 0CF00203 [8] FF 00 00 FF FF AD 47 03
1529343067.120875,can1 18FEDF00 [8] FE FE FE FF FE FF BF FF
1529343067.122073,can1 18FE5600 [8] FF FF FF FF FF FF FF FF
1529343067.123382,can1 0CF00400 [8] 38 FE FE FE FE 00 FF FE
1529343067.12465,can1 1CEBFF00 [8] 01 47 FF 71 02 0D 01 3F
1529343067.12584,can1 0CF00203 [8] FF 00 00 FF FF AD 47 03
1529343067.127114,can1 18FEC100 [8] CC 28 00 00 CC 28 00 00
1529343067.128772,can1 0CF00400 [8] 38 FE FE FE FE 00 FF FE
1529343067.130222,can1 0CF00203 [8] FF 00 00 FF FF AD 47 03
1529343067.131576,can1 18FEF000 [8] FF FF FF 00 00 FC 00 FF
1529343067.132913,can1 18FEF700 [8] FF FF FF FF F1 00 F1 00
1529343067.138285,can1 0CF00400 [8] 38 FE FE FE FE 00 FF FE
1529343067.139927,can1 0CF00203 [8] FF 00 00 FF FF AD 47 03
1529343067.141326,can1 18FEE000 [8] A2 01 00 00 A2 01 00 00
1529343067.142651,can1 18FEF803 [8] FF FF FF FF FF FF FF FF
1529343067.143959,can1 18DA00F1 [8] 30 08 00 00 00 00 00 00
1529343067.148454,can1 0CF00400 [8] 38 FE FE FE FE 00 FF FE
1529343067.150448,can1 0CF00203 [8] FF 00 00 FF FF AD 47 03
1529343067.151846,can1 0CF00300 [8] D1 00 FE FF FF FF 00 FF
1529343067.15307,can1 18FEF100 [8] CF 00 00 D0 FF 00 00 30
1529343067.154377,can1 18DA00F1 [8] 30 08 00 00 00 00 00 00
1529343067.158192,can1 0CF00400 [8] 38 FE FE FE FE 00 FF FE
1529343067.159926,can1 0CF00203 [8] FF 00 00 FF FF AD 47 03
1529343067.161265,can1 18FEDF00 [8] FE FE FE FF FE FF BF FF
1529343067.162492,can1 18FE4A03 [8] FF FF F3 FF F0 F7 FF FF
1529343067.16378,can1 18F00503 [8] FF 57 9E FF 20 2D 2D 2D
1529343067.168259,can1 0CF00400 [8] 38 FE FE FE FE 00 FF FE
1529343067.170023,can1 1CEBFF00 [8] 02 0A 08 7F 5B 00 08 01
1529343067.171383,can1 0CF00203 [8] FF 00 00 FF FF AD 47 03
1529343067.172609,can1 18F0010B [8] CF FF F0 FF FF DC FF FF
1529343067.174076,can1 18F00100 [8] FF FF FF FF FA FF FF FF
1529343067.175372,can1 18DA00F1 [8] 02 10 03 00 00 00 00 00
1529343067.177677,can1 18DAF100 [8] 06 50 03 00 14 00 C8 FF
1529343067.179404,can1 0CF00400 [8] 38 FE FE FE FE 00 FF FE
1529343067.180675,can1 0CF00203 [8] FF 00 00 FF FF AD 47 03
1529343067.181978,can1 18FEBF0B [8] 00 00 7D 7D 7D 7D FF FF
1529343067.183263,can1 18F0000F [8] 00 7D FF FF 0F 7D FF FF
1529343067.185353,can1 18DA00F1 [8] 30 08 00 00 00 00 00 00
1529343067.188134,can1 0CF00400 [8] 38 FE FE FE FE 00 FF FE
1529343067.18963,can1 0CF00203 [8] FF 00 00 FF FF AD 47 03
1529343067.190956,can1 18FF3000 [8] 00 00 FF FF FF FF FF FF
1529343067.194911,can1 18DA00F1 [8] 30 08 00 00 00 00 00 00
1529343067.198195,can1 0CF00400 [8] 38 FE FE FE FE 00 FF FE
1529343067.205267,can1 0CF00203 [8] FF 00 00 FF FF AD 47 03
1529343067.207074,can1 0CF00300 [8] D1 00 FE FF FF FF 00 FF
1529343067.213014,can1 14FFA000 [8] FC FF FF FF FF FF FF FF
1529343067.214647,can1 18FEF200 [8] 00 00 00 00 00 00 FF FF
1529343067.220086,can1 0CF00400 [8] 38 FE FE FE FE 00 FF FE
1529343067.22166,can1 0CF00203 [8] FF 00 00 FF FF AD 47 03
1529343067.223121,can1 18FEDF00 [8] FE FE FE FF FE FF BF FF
1529343067.228948,can1 0CF00400 [8] 38 FE FE FE FE 00 FF FE
1529343067.230651,can1 1CEBFF00 [8] 03 71 02 0E 01 73 0C 09
1529343067.236143,can1 0CF00203 [8] FF 00 00 FF FF AD 47 03
1529343067.241801,can1 0CF00400 [8] 38 FE FE FE FE 00 FF FE
1529343067.243503,can1 0CF00203 [8] FF 00 00 FF FF AD 47 03
1529343067.244832,can1 18FEF000 [8] FF FF FF 00 00 FC 00 FF
1529343067.250563,can1 18DA00F1 [8] 30 08 00 00 00 00 00 00
1529343067.252102,can1 0CF00400 [8] 38 FE FE FE FE 00 FF FE
1529343067.257719,can1 0CF00203 [8] FF 00 00 FF FF AD 47 03
1529343067.2597,can1 18DA00F1 [8] 30 08 00 00 00 00 00 00
1529343067.265265,can1 18FEE000 [8] A2 01 00 00 A2 01 00 00
1529343067.26831,can1 0CF00400 [8] 38 FE FE FE FE 00 FF FE
1529343067.272217,can1 0CF00203 [8] FF 00 00 FF FF AD 47 03
1529343067.273892,can1 0CF00300 [8] D1 00 FE FF FF FF 00 FF
1529343067.279678,can1 18FEF100 [8] CF 00 00 D0 FF 00 00 30
1529343067.281254,can1 0CF00400 [8] 38 FE FE FE FE 00 FF FE
1529343067.287188,can1 0CF00203 [8] FF 00 00 FF FF AD 47 03
1529343067.289149,can1 18FEDF00 [8] FE FE FE FF FE FF BF FF
1529343067.295023,can1 18FE4A03 [8] FF FF F3 FF F0 F7 FF FF
1529343067.296696,can1 18F00503 [8] FF 57 9E FF 20 2D 2D 2D
1529343067.302383,can1 0CF00400 [8] 38 FE FE FE FE 00 FF FE
1529343067.304009,can1 1CEBFF00 [8] 04 01 6F 00 03 01 38 06
1529343067.305323,can1 0CF00203 [8] FF 00 00 FF FF AD 47 03
1529343067.310835,can1 18F0010B [8] CF FF F0 FF FF DC FF FF
1529343067.312351,can1 18F00100 [8] FF FF FF FF FA FF FF FF
1529343067.317805,can1 18DA00F1 [8] 30 08 00 00 00 00 00 00
1529343067.319725,can1 0CF00400 [8] 38 FE FE FE FE 00 FF FE
1529343067.321071,can1 0CF00203 [8] FF 00 00 FF FF AD 47 03
1529343067.324723,can1 18F0000F [8] 00 7D FF FF 0F 7D FF FF
1529343067.326152,can1 18FEBF0B [8] 00 00 7D 7D 7D 7D FF FF
1529343067.333365,can1 18DA00F1 [8] 30 08 00 00 00 00 00 00
1529343067.334743,can1 0CF00400 [8] 38 FE FE FE FE 00 FF FE
1529343067.340314,can1 0CF00203 [8] FF 00 00 FF FF AD 47 03
1529343067.341776,can1 18FF3000 [8] 00 00 FF FF FF FF FF FF
1529343067.347154,can1 0CF00400 [8] 38 FE FE FE FE 00 FF FE
1529343067.349151,can1 0CF00203 [8] FF 00 00 FF FF AD 47 03
1529343067.350604,can1 0CF00300 [8] D1 00 FE FF FF FF 00 FF
1529343067.356228,can1 14FFA000 [8] FC FF FF FF FF FF FF FF
1529343067.357856,can1 18FEF200 [8] 00 00 00 00 00 00 FF FF
1529343067.361874,can1 0CF00400 [8] 38 FE FE FE FE 00 FF FE
1529343067.363389,can1 0CF00203 [8] FF 00 00 FF FF AD 47 03
1529343067.368966,can1 18FEDF00 [8] FE FE FE FF FE FF BF FF
1529343067.374634,can1 18DA00F1 [8] 30 08 00 00 00 00 00 00
1529343067.376235,can1 0CF00400 [8] 38 FE FE FE FE 00 FF FE
1529343067.377703,can1 1CEBFF00 [8] 05 09 01 0F 02 09 01 E7
1529343067.383265,can1 0CF00203 [8] FF 00 00 FF FF AD 47 03
1529343067.384747,can1 18DA00F1 [8] 30 08 00 00 00 00 00 00
1529343067.39014,can1 0CF00400 [8] 38 FE FE FE FE 00 FF FE
1529343067.391605,can1 0CF00203 [8] FF 00 00 FF FF AD 47 03
1529343067.393025,can1 18FEF000 [8] FF FF FF 00 00 FC 00 FF
1529343067.400577,can1 18DA00F1 [8] 02 10 03 00 00 00 00 00
1529343067.402147,can1 18DAF100 [8] 06 50 03 00 14 00 C8 FF
1529343067.407649,can1 0CF00400 [8] 08 FE FE FE FE 00 FF FE
1529343067.409527,can1 0CF00203 [8] FF 00 00 FF FF AD 47 03
1529343067.410853,can1 18FEE000 [8] A2 01 00 00 A2 01 00 00
1529343067.416575,can1 0CF00400 [8] 08 FE FE FE FE 00 FF FE
1529343067.418466,can1 0CF00203 [8] FF 00 00 FF FF AD 47 03
1529343067.424037,can1 0CF00300 [8] D1 00 FE FF FF FF 00 FF
1529343067.425573,can1 18FEF100 [8] CF 00 00 D0 FF 00 00 30
1529343067.429666,can1 0CF00400 [8] 08 FE FE FE FE 00 FF FE
1529343067.431401,can1 0CF00203 [8] FF 00 00 FF FF AD 47 03
1529343067.432856,can1 18FEDF00 [8] FE FE FE FF FE FF BF FF
1529343067.434115,can1 18FE4A03 [8] FF FF F3 FF F0 F7 FF FF
1529343067.435443,can1 18F00503 [8] FF 57 9E FF 20 2D 2D 2D
1529343067.436743,can1 18DA00F1 [8] 30 08 00 00 00 00 00 00
1529343067.438259,can1 0CF00400 [8] 08 FE FE FE FE 00 FF FE
1529343067.439714,can1 1CEBFF00 [8] 06 07 09 01 01 08 09 01
1529343067.44102,can1 0CF00203 [8] FF 00 00 FF FF AD 47 03
1529343067.442215,can1 18F0010B [8] CF FF F0 FF FF DC FF FF
1529343067.443509,can1 18F00100 [8] FF FF FF FF FA FF FF FF
1529343067.444799,can1 18DA00F1 [8] 30 08 00 00 00 00 00 00
1529343067.446007,can1 0CF00400 [8] 08 FE FE FE FE 00 FF FE
1529343067.447295,can1 0CF00203 [8] FF 00 00 FF FF AD 47 03
1529343067.448842,can1 18F0000F [8] 00 7D FF FF 0F 7D FF FF
1529343067.450506,can1 18FEBF0B [8] 00 00 7D 7D 7D 7D FF FF
1529343067.451738,can1 0CF00400 [8] 08 FE FE FE FE 00 FF FE
1529343067.453046,can1 0CF00203 [8] FF 00 00 FF FF AD 47 03
1529343067.454322,can1 18FF3000 [8] 00 00 FF FF FF FF FF FF
1529343067.455525,can1 0CF00400 [8] 38 FE FE FE FE 00 FF FE
1529343067.456806,can1 0CF00203 [8] FF 00 00 FF FF AD 47 03
1529343067.45835,can1 0CF00300 [8] D1 00 FE FF FF FF 00 FF
1529343067.460505,can1 14FFA000 [8] FC FF FF FF FF FF FF FF
1529343067.462028,can1 18FEF200 [8] 00 00 00 00 00 00 FF FF
1529343067.46328,can1 18DA00F1 [8] 30 08 00 00 00 00 00 00
1529343067.464615,can1 0CF00400 [8] 38 FE FE FE FE 00 FF FE
1529343067.465823,can1 0CF00203 [8] FF 00 00 FF FF AD 47 03
1529343067.467119,can1 18FEDF00 [8] FE FE FE FF FE FF BF FF
1529343067.468793,can1 18DA00F1 [8] 30 08 00 00 00 00 00 00
1529343067.470272,can1 18DA00F1 [8] 02 10 03 00 00 00 00 00
1529343067.471492,can1 18DAF100 [8] 06 50 03 00 14 00 C8 FF
1529343067.472802,can1 0CF00400 [8] 38 FE FE FE FE 00 FF FE
1529343067.474097,can1 0CF00203 [8] FF 00 00 FF FF AD 47 03
1529343067.475301,can1 0CF00400 [8] 38 FE FE FE FE 00 FF FE
1529343067.476592,can1 0CF00203 [8] FF 00 00 FF FF AD 47 03
1529343067.478124,can1 18FEF000 [8] FF FF FF 00 00 FC 00 FF
1529343067.479685,can1 0CF00400 [8] 38 FE FE FE FE 00 FF FE
1529343067.48092,can1 0CF00203 [8] FF 00 00 FF FF AD 47 03
1529343067.482204,can1 18FEE000 [8] A2 01 00 00 A2 01 00 00
1529343067.483398,can1 0CF00400 [8] 38 FE FE FE FE 00 FF FE
1529343067.484694,can1 0CF00203 [8] FF 00 00 FF FF AD 47 03
1529343067.486008,can1 0CF00300 [8] D1 00 FE FF FF FF 00 FF
1529343067.487194,can1 18DA00F1 [8] 30 08 00 00 00 00 00 00
1529343067.48887,can1 18FEF100 [8] CF 00 00 D0 FF 00 00 30
1529343067.4902,can1 0CF00400 [8] 38 FE FE FE FE 00 FF FE
1529343067.491504,can1 0CF00203 [8] FF 00 00 FF FF AD 47 03
1529343067.492704,can1 18FEDF00 [8] FE FE FE FF FE FF BF FF
1529343067.494133,can1 18FE4A03 [8] FF FF F3 FF F0 F7 FF FF
1529343067.495815,can1 18F00503 [8] FF 57 9E FF 20 2D 2D 2D
1529343067.497194,can1 18DA00F1 [8] 30 08 00 00 00 00 00 00
1529343067.498849,can1 18FEEF00 [8] FF FF FF FF FF FF FF FA
1529343067.500432,can1 0CF00400 [8] 38 FE FE FE FE 00 FF FE
1529343067.501759,can1 0CF00203 [8] FF 00 00 FF FF AD 47 03
1529343067.503038,can1 18F00100 [8] FF FF FF FF FA FF FF FF
1529343067.504703,can1 18F0010B [8] CF FF F0 FF FF DC FF FF
1529343067.506104,can1 0CF00400 [8] 38 FE FE FE FE 00 FF FE
1529343067.507547,can1 0CF00203 [8] FF 00 00 FF FF AD 47 03
1529343067.509109,can1 18F0000F [8] 00 7D FF FF 0F 7D FF FF
1529343067.510466,can1 18FEBF0B [8] 00 00 7D 7D 7D 7D FF FF
1529343067.511785,can1 0CF00400 [8] 38 FE FE FE FE 00 FF FE
1529343067.513075,can1 0CF00203 [8] FF 00 00 FF FF AD 47 03
1529343067.514272,can1 18FF3000 [8] 00 00 FF FF FF FF FF FF
1529343067.515554,can1 18DA00F1 [8] 30 08 00 00 00 00 00 00
1529343067.516835,can1 0CF00400 [8] 38 FE FE FE FE 00 FF FE
1529343067.525527,can1 0CF00203 [8] FF 00 00 FF FF AD 47 03
1529343067.527161,can1 0CF00300 [8] D1 00 FE FF FF FF 00 FF
1529343067.52901,can1 14FFA000 [8] FC FF FF FF FF FF FF FF
1529343067.530289,can1 18FEF200 [8] 00 00 00 00 00 00 FF FF
1529343067.531627,can1 18DA00F1 [8] 30 08 00 00 00 00 00 00
1529343067.532941,can1 0CF00400 [8] 38 FE FE FE FE 00 FF FE
1529343067.534153,can1 0CF00203 [8] FF 00 00 FF FF AD 47 03
1529343067.535461,can1 18FEDF00 [8] FE FE FE FF FE FF BF FF
1529343067.536748,can1 18FF6411 [8] F8 FF FF FF FF FF FF FF
1529343067.53829,can1 0CF00400 [8] 38 FE FE FE FE 00 FF FE
1529343067.539761,can1 18ECFFFA [8] 20 1C 00 04 FF EB FE 00
1529343067.541205,can1 0CF00203 [8] FF 00 00 FF FF AD 47 03
1529343067.542508,can1 18EBFFFA [8] 01 53 59 4E 45 52 2A 53
1529343067.543707,can1 18EBFFFA [8] 02 53 53 32 2D 30 32 2A
1529343067.545,can1 18EBFFFA [8] 03 58 58 58 58 2A 55 4E
1529343067.546291,can1 18EBFFFA [8] 04 49 56 45 52 53 41 4C
1529343067.547498,can1 0CF00400 [8] 38 FE FE FE FE 00 FF FE
1529343067.549657,can1 0CF00203 [8] FF 00 00 FF FF AD 47 03
1529343067.551168,can1 18FEF000 [8] FF FF FF 00 00 FC 00 FF
1529343067.552508,can1 0CF00400 [8] 38 FE FE FE FE 00 FF FE
1529343067.553704,can1 18DA00F1 [8] 30 08 00 00 00 00 00 00
1529343067.555022,can1 0CF00203 [8] FF 00 00 FF FF AD 47 03
1529343067.556339,can1 14FD3E00 [8] FF FF FF FF FF FF FF FF
1529343067.55894,can1 18FEE000 [8] A2 01 00 00 A2 01 00 00
1529343067.560706,can1 0CF00400 [8] 38 FE FE FE FE 00 FF FE
1529343067.562106,can1 0CF00203 [8] FF 00 00 FF FF AD 47 03
1529343067.563337,can1 18DA00F1 [8] 30 08 00 00 00 00 00 00
1529343067.564675,can1 0CF00300 [8] D1 00 FE FF FF FF 00 FF
1529343067.565986,can1 18FEF100 [8] CF 00 00 D0 FF 00 00 30
1529343067.567189,can1 0CF00400 [8] 38 FE FE FE FE 00 FF FE
1529343067.568918,can1 0CF00203 [8] FF 00 00 FF FF AD 47 03
1529343067.570367,can1 18FEDF00 [8] FE FE FE FF FE FF BF FF
1529343067.574583,can1 18FE4A03 [8] FF FF F3 FF F0 F7 FF FF
1529343067.575378,can1 18F00503 [8] FF 57 9E FF 20 2D 2D 2D
1529343067.57597,can1 0CF00400 [8] 38 FE FE FE FE 00 FF FE
1529343067.576404,can1 0CF00203 [8] FF 00 00 FF FF AD 47 03
1529343067.576811,can1 18F00100 [8] FF FF FF FF FA FF FF FF
1529343067.577363,can1 18F0010B [8] CF FF F0 FF FF DC FF FF
1529343067.577868,can1 18DA00F1 [8] 02 10 03 00 00 00 00 00
1529343067.578366,can1 18DAF100 [8] 06 50 03 00 14 00 C8 FF
1529343067.578856,can1 0CF00400 [8] 38 FE FE FE FE 00 FF FE
1529343067.579391,can1 0CF00203 [8] FF 00 00 FF FF AD 47 03
1529343067.579825,can1 18F0000F [8] 00 7D FF FF 0F 7D FF FF
1529343067.580293,can1 18FEBF0B [8] 00 00 7D 7D 7D 7D FF FF
1529343067.580692,can1 18FEF600 [8] FF 00 FF FF FF FF FF FF
1529343067.582106,can1 18DA00F1 [8] 30 08 00 00 00 00 00 00
1529343067.587676,can1 0CF00400 [8] 38 FE FE FE FE 00 FF FE
1529343067.588197,can1 0CF00203 [8] FF 00 00 FF FF AD 47 03
1529343067.588837,can1 18FF3000 [8] 00 00 FF FF FF FF FF FF
1529343067.593022,can1 18DA00F1 [8] 30 08 00 00 00 00 00 00
1529343067.597712,can1 0CF00400 [8] 38 FE FE FE FE 00 FF FE
1529343067.598283,can1 0CF00203 [8] FF 00 00 FF FF AD 47 03
1529343067.598873,can1 0CF00300 [8] D1 00 FE FF FF FF 00 FF
1529343067.599411,can1 14FFA000 [8] FC FF FF FF FF FF FF FF
1529343067.600047,can1 18FEF200 [8] 00 00 00 00 00 00 FF FF
1529343067.607627,can1 0CF00400 [8] 38 FE FE FE FE 00 FF FE
1529343067.608198,can1 0CF00203 [8] FF 00 00 FF FF AD 47 03
1529343067.608759,can1 18FEDF00 [8] FE FE FE FF FE FF BF FF
1529343067.617598,can1 0CF00400 [8] 38 FE FE FE FE 00 FF FE
1529343067.618177,can1 0CF00203 [8] FF 00 00 FF FF AD 47 03
1529343067.626198,can1 18DA00F1 [8] 30 08 00 00 00 00 00 00
1529343067.627608,can1 0CF00400 [8] 38 FE FE FE FE 00 FF FE
1529343067.628215,can1 0CF00203 [8] FF 00 00 FF FF AD 47 03
1529343067.628781,can1 18FEF000 [8] FF FF FF 00 00 FC 00 FF
1529343067.637162,can1 18DA00F1 [8] 30 08 00 00 00 00 00 00
1529343067.638051,can1 0CF00400 [8] 38 FE FE FE FE 00 FF FE
1529343067.638784,can1 0CF00203 [8] FF 00 00 FF FF AD 47 03
1529343067.639253,can1 18FEE000 [8] A2 01 00 00 A2 01 00 00
1529343067.647933,can1 0CF00400 [8] 38 FE FE FE FE 00 FF FE
1529343067.648478,can1 0CF00203 [8] FF 00 00 FF FF AD 47 03
1529343067.649078,can1 0CF00300 [8] D1 00 FE FF FF FF 00 FF
1529343067.649689,can1 18FEF100 [8] CF 00 00 D0 FF 00 00 30
1529343067.657727,can1 0CF00400 [8] 38 FE FE FE FE 00 FF FE
1529343067.658332,can1 0CF00203 [8] FF 00 00 FF FF AD 47 03
1529343067.658835,can1 18FEDF00 [8] FE FE FE FF FE FF BF FF
1529343067.659449,can1 18DA00F1 [8] 02 10 03 00 00 00 00 00
1529343067.659977,can1 18FE4A03 [8] FF FF F3 FF F0 F7 FF FF
1529343067.660545,can1 18F00503 [8] FF 57 9E FF 20 2D 2D 2D
1529343067.667236,can1 18DAF100 [8] 06 50 03 00 14 00 C8 FF
1529343067.66782,can1 0CF00400 [8] 38 FE FE FE FE 00 FF FE
1529343067.66839,can1 0CF00203 [8] FF 00 00 FF FF AD 47 03
1529343067.669036,can1 18F00100 [8] FF FF FF FF FA FF FF FF
1529343067.669655,can1 18F0010B [8] CF FF F0 FF FF DC FF FF
1529343067.670292,can1 18DA00F1 [8] 30 08 00 00 00 00 00 00
1529343067.67768,can1 0CF00400 [8] 38 FE FE FE FE 00 FF FE
1529343067.678252,can1 0CF00203 [8] FF 00 00 FF FF AD 47 03
1529343067.678879,can1 18F0000F [8] 00 7D FF FF 0F 7D FF FF
1529343067.679671,can1 18FEBF0B [8] 00 00 7D 7D 7D 7D FF FF
1529343067.681303,can1 18DA00F1 [8] 30 08 00 00 00 00 00 00
1529343067.687696,can1 0CF00400 [8] 38 FE FE FE FE 00 FF FE
1529343067.688228,can1 0CF00203 [8] FF 00 00 FF FF AD 47 03
1529343067.688868,can1 18FF3000 [8] 00 00 FF FF FF FF FF FF
1529343067.697695,can1 0CF00400 [8] 38 FE FE FE FE 00 FF FE
1529343067.69826,can1 0CF00203 [8] FF 00 00 FF FF AD 47 03
1529343067.698838,can1 0CF00300 [8] D1 00 FE FF FF FF 00 FF
1529343067.699442,can1 14FFA000 [8] FC FF FF FF FF FF FF FF
1529343067.704543,can1 18FEF200 [8] 00 00 00 00 00 00 FF FF
1529343067.707781,can1 0CF00400 [8] 38 FE FE FE FE 00 FF FE
1529343067.708554,can1 0CF00203 [8] FF 00 00 FF FF AD 47 03
1529343067.709111,can1 18FEDF00 [8] FE FE FE FF FE FF BF FF
1529343067.714549,can1 18DA00F1 [8] 30 08 00 00 00 00 00 00
1529343067.717727,can1 0CF00400 [8] 38 FE FE FE FE 00 FF FE
1529343067.718475,can1 0CF00203 [8] FF 00 00 FF FF AD 47 03
1529343067.725654,can1 18DA00F1 [8] 30 08 00 00 00 00 00 00
1529343067.727779,can1 0CF00400 [8] 38 FE FE FE FE 00 FF FE
1529343067.728442,can1 0CF00203 [8] FF 00 00 FF FF AD 47 03
1529343067.728968,can1 18FEF000 [8] FF FF FF 00 00 FC 00 FF
1529343067.737881,can1 0CF00400 [8] 38 FE FE FE FE 00 FF FE
1529343067.738718,can1 0CF00203 [8] FF 00 00 FF FF AD 47 03
1529343067.739228,can1 18FEE000 [8] A2 01 00 00 A2 01 00 00
1529343067.747957,can1 0CF00400 [8] 38 FE FE FE FE 00 FF FE
1529343067.748518,can1 0CF00203 [8] FF 00 00 FF FF AD 47 03
1529343067.749156,can1 0CF00300 [8] D1 00 FE FF FF FF 00 FF
1529343067.749677,can1 18FEF100 [8] CF 00 00 D0 FF 00 00 30
1529343067.757685,can1 0CF00400 [8] 38 FE FE FE FE 00 FF FE
1529343067.758264,can1 0CF00203 [8] FF 00 00 FF FF AD 47 03
1529343067.758848,can1 18DA00F1 [8] 30 08 00 00 00 00 00 00
1529343067.759392,can1 18FEDF00 [8] FE FE FE FF FE FF BF FF
1529343067.759987,can1 18FE4A03 [8] FF FF F3 FF F0 F7 FF FF
1529343067.760549,can1 18F00503 [8] FF 57 9E FF 20 2D 2D 2D
1529343067.771921,can1 18ECFFFA [8] 20 1C 00 04 FF EB FE 00
1529343067.772825,can1 18EBFFFA [8] 01 53 59 4E 45 52 2A 53
1529343067.773378,can1 18EBFFFA [8] 02 53 53 32 2D 30 32 2A
1529343067.77383,can1 0CF00400 [8] 38 FE FE FE FE 00 FF FE
1529343067.774239,can1 18EBFFFA [8] 03 58 58 58 58 2A 55 4E
1529343067.774723,can1 0CF00203 [8] FF 00 00 FF FF AD 47 03
1529343067.775705,can1 18EBFFFA [8] 04 49 56 45 52 53 41 4C
1529343067.776638,can1 18F00100 [8] FF FF FF FF FA FF FF FF
1529343067.777114,can1 18F0010B [8] CF FF F0 FF FF DC FF FF
1529343067.77763,can1 18DA00F1 [8] 30 08 00 00 00 00 00 00
1529343067.778137,can1 0CF00400 [8] 38 FE FE FE FE 00 FF FE
1529343067.77864,can1 0CF00203 [8] FF 00 00 FF FF AD 47 03
1529343067.779135,can1 18F0000F [8] 00 7D FF FF 0F 7D FF FF
1529343067.77988,can1 18FEBF0B [8] 00 00 7D 7D 7D 7D FF FF
1529343067.787671,can1 0CF00400 [8] 38 FE FE FE FE 00 FF FE
1529343067.788245,can1 0CF00203 [8] FF 00 00 FF FF AD 47 03
1529343067.788852,can1 18FF3000 [8] 00 00 FF FF FF FF FF FF
1529343067.797686,can1 0CF00400 [8] 38 FE FE FE FE 00 FF FE
1529343067.79831,can1 0CF00203 [8] FF 00 00 FF FF AD 47 03
1529343067.798822,can1 0CF00300 [8] D1 00 FE FF FF FF 00 FF
1529343067.799438,can1 14FFA000 [8] FC FF FF FF FF FF FF FF
1529343067.800046,can1 18FEF200 [8] 00 00 00 00 00 00 FF FF
1529343067.80269,can1 18DA00F1 [8] 30 08 00 00 00 00 00 00
1529343067.807708,can1 0CF00400 [8] 38 FE FE FE FE 00 FF FE
1529343067.808229,can1 0CF00203 [8] FF 00 00 FF FF AD 47 03
1529343067.808847,can1 18FEDF00 [8] FE FE FE FF FE FF BF FF
1529343067.815573,can1 18DA00F1 [8] 30 08 00 00 00 00 00 00
1529343067.817673,can1 0CF00400 [8] 38 FE FE FE FE 00 FF FE
1529343067.81835,can1 0CF00203 [8] FF 00 00 FF FF AD 47 03
1529343067.818879,can1 18DA00F1 [8] 02 10 03 00 00 00 00 00
1529343067.827219,can1 18DAF100 [8] 06 50 03 00 14 00 C8 FF
1529343067.827775,can1 0CF00400 [8] 38 FE FE FE FE 00 FF FE
1529343067.82834,can1 0CF00203 [8] FF 00 00 FF FF AD 47 03
1529343067.828929,can1 18FEF000 [8] FF FF FF 00 00 FC 00 FF
1529343067.83773,can1 0CF00400 [8] 38 FE FE FE FE 00 FF FE
1529343067.838313,can1 0CF00203 [8] FF 00 00 FF FF AD 47 03
1529343067.838877,can1 18FEE000 [8] A2 01 00 00 A2 01 00 00
1529343067.846862,can1 18DA00F1 [8] 30 08 00 00 00 00 00 00
1529343067.847998,can1 0CF00400 [8] 38 FE FE FE FE 00 FF FE
1529343067.84865,can1 0CF00203 [8] FF 00 00 FF FF AD 47 03
1529343067.849292,can1 0CF00300 [8] D1 00 FE FF FF FF 00 FF
1529343067.849803,can1 18FEF100 [8] CF 00 00 D0 FF 00 00 30
1529343067.857702,can1 0CF00400 [8] 38 FE FE FE FE 00 FF FE
1529343067.858244,can1 0CF00203 [8] FF 00 00 FF FF AD 47 03
1529343067.858983,can1 18FEDF00 [8] FE FE FE FF FE FF BF FF
1529343067.859551,can1 18FE4A03 [8] FF FF F3 FF F0 F7 FF FF
1529343067.860048,can1 18DA00F1 [8] 30 08 00 00 00 00 00 00
1529343067.8606,can1 18F00503 [8] FF 57 9E FF 20 2D 2D 2D
1529343067.862134,can1 18DA00F1 [8] 03 22 02 03 00 00 00 00
1529343067.867713,can1 0CF00400 [8] 38 FE FE FE FE 00 FF FE
1529343067.868309,can1 0CF00203 [8] FF 00 00 FF FF AD 47 03
1529343067.868884,can1 18F00100 [8] FF FF FF FF FA FF FF FF
1529343067.869979,can1 18F0010B [8] CF FF F0 FF FF DC FF FF
1529343067.87811,can1 18DAF100 [8] 10 52 62 02 03 03 1C 20
1529343067.879322,can1 0CF00400 [8] 38 FE FE FE FE 00 FF FE
1529343067.880219,can1 0CF00203 [8] FF 00 00 FF FF AD 47 03
1529343067.880905,can1 18F0000F [8] 00 7D FF FF 0F 7D FF FF
1529343067.881536,can1 18FEBF0B [8] 00 00 7D 7D 7D 7D FF FF
1529343067.887838,can1 0CF00400 [8] 38 FE FE FE FE 00 FF FE
1529343067.888695,can1 0CF00203 [8] FF 00 00 FF FF AD 47 03
1529343067.889366,can1 18FF3000 [8] 00 00 FF FF FF FF FF FF
1529343067.891042,can1 18DA00F1 [8] 30 08 00 00 00 00 00 00
1529343067.89194,can1 18DAF100 [8] 21 00 83 40 1F 40 06 40
1529343067.892693,can1 18DAF100 [8] 22 00 0F 00 A0 00 01 2C
1529343067.893427,can1 18DAF100 [8] 23 16 00 00 0F 38 40 00
1529343067.894315,can1 18DAF100 [8] 24 40 2C 56 24 34 04 00
1529343067.89505,can1 18DAF100 [8] 25 15 E0 7D 00 0F 61 A8
1529343067.895831,can1 18DAF100 [8] 26 3B CA 61 FB 1F 40 05
1529343067.896754,can1 18DAF100 [8] 27 00 12 C0 11 30 03 20
1529343067.897411,can1 18DAF100 [8] 28 01 00 00 80 00 00 00
1529343067.898325,can1 0CF00400 [8] 38 FE FE FE FE 00 FF FE
1529343067.899052,can1 0CF00203 [8] FF 00 00 FF FF AD 47 03
1529343067.899835,can1 0CF00300 [8] D1 00 FE FF FF FF 00 FF
1529343067.900563,can1 14FFA000 [8] FC FF FF FF FF FF FF FF
1529343067.901186,can1 18FEF200 [8] 00 00 00 00 00 00 FF FF
1529343067.902408,can1 18DA00F1 [8] 02 10 03 00 00 00 00 00
1529343067.90398,can1 18DA00F1 [8] 30 08 00 00 00 00 00 00
1529343067.904791,can1 18DAF100 [8] 29 01 00 04 00 00 01 00
1529343067.905673,can1 18DAF100 [8] 2A 34 80 FF FF FF FF FF
1529343067.906335,can1 18DAF100 [8] 2B FF 01 12 C0 00 00 FF
1529343067.907881,can1 0CF00400 [8] 38 FE FE FE FE 00 FF FE
1529343067.908662,can1 0CF00203 [8] FF 00 00 FF FF AD 47 03
1529343067.909463,can1 18FEDF00 [8] FE FE FE FF FE FF BF FF
1529343067.917722,can1 0CF00400 [8] 38 FE FE FE FE 00 FF FE
1529343067.918493,can1 0CF00203 [8] FF 00 00 FF FF AD 47 03
1529343067.927716,can1 0CF00400 [8] 38 FE FE FE FE 00 FF FE
1529343067.928494,can1 0CF00203 [8] FF 00 00 FF FF AD 47 03
1529343067.929301,can1 18FEF000 [8] FF FF FF 00 00 FC 00 FF
1529343067.935156,can1 18DA00F1 [8] 30 08 00 00 00 00 00 00
1529343067.937835,can1 0CF00400 [8] 38 FE FE FE FE 00 FF FE
1529343067.938651,can1 0CF00203 [8] FF 00 00 FF FF AD 47 03
1529343067.939394,can1 18FEE000 [8] A2 01 00 00 A2 01 00 00
1529343067.948149,can1 18DA00F1 [8] 30 08 00 00 00 00 00 00
1529343067.949098,can1 0CF00400 [8] 38 FE FE FE FE 00 FF FE
1529343067.949855,can1 0CF00203 [8] FF 00 00 FF FF AD 47 03
1529343067.950652,can1 0CF00300 [8] D1 00 FE FF FF FF 00 FF
1529343067.951461,can1 18FEF100 [8] CF 00 00 D0 FF 00 00 30
1529343067.952111,can1 18FDE000 [8] FF FF FF FF FF FF FF FF
1529343067.952824,can1 1CFEAB03 [8] FF FF 7E FF FF FF FF FF
1529343067.957963,can1 0CF00400 [8] 38 FE FE FE FE 00 FF FE
1529343067.959114,can1 0CF00203 [8] FF 00 00 FF FF AD 47 03
1529343067.960066,can1 18FEDF00 [8] FE FE FE FF FE FF BF FF
1529343067.960861,can1 18FE4A03 [8] FF FF F3 FF F0 F7 FF FF
1529343067.96151,can1 18F00503 [8] FF 57 9E FF 20 2D 2D 2D
1529343067.962215,can1 18FEEF00 [8] FF FF FF FF FF FF FF FA
1529343067.967915,can1 0CF00400 [8] 38 FE FE FE FE 00 FF FE
1529343067.968781,can1 0CF00203 [8] FF 00 00 FF FF AD 47 03
1529343067.969517,can1 18F00100 [8] FF FF FF FF FA FF FF FF
1529343067.970308,can1 18E0FF00 [8] FF FF FF FF FF F3 FF FF
1529343067.971043,can1 18FCDC00 [8] E0 FE FE FF FF FF FF FF
1529343067.971669,can1 18F0010B [8] CF FF F0 FF FF DC FF FF
1529343067.977814,can1 0CF00400 [8] 38 FE FE FE FE 00 FF FE
1529343067.978603,can1 0CF00203 [8] FF 00 00 FF FF AD 47 03
1529343067.979416,can1 18F0000F [8] 00 7D FF FF 0F 7D FF FF
1529343067.980216,can1 18DA00F1 [8] 30 08 00 00 00 00 00 00
1529343067.980861,can1 18FEBF0B [8] 00 00 7D 7D 7D 7D FF FF
1529343067.987804,can1 0CF00400 [8] 38 FE FE FE FE 00 FF FE
1529343067.988567,can1 0CF00203 [8] FF 00 00 FF FF AD 47 03
1529343067.989401,can1 18FF3000 [8] 00 00 FF FF FF FF FF FF
1529343067.992346,can1 18DA00F1 [8] 30 08 00 00 00 00 00 00
1529343067.997823,can1 0CF00400 [8] 38 FE FE FE FE 00 FF FE
1529343067.998745,can1 0CF00203 [8] FF 00 00 FF FF AD 47 03
1529343067.999582,can1 0CF00300 [8] D1 00 FE FF FF FF 00 FF
1529343068.000328,can1 14FFA000 [8] FC FF FF FF FF FF FF FF
1529343068.001112,can1 18FEF200 [8] 00 00 00 00 00 00 FF FF
1529343068.001761,can1 18FEF500 [8] FF FF FF FF FF FF FF FF
1529343068.007799,can1 0CF00400 [8] 38 FE FE FE FE 00 FF FE
1529343068.008582,can1 0CF00203 [8] FF 00 00 FF FF AD 47 03
1529343068.009465,can1 18FEDF00 [8] FE FE FE FF FE FF BF FF
1529343068.010201,can1 18FF6411 [8] F8 FF FF FF FF FF FF FF
1529343068.010896,can1 18FECA11 [8] 03 FF 00 00 00 00 FF FF
1529343068.017736,can1 0CF00400 [8] 38 FE FE FE FE 00 FF FE
1529343068.018496,can1 0CF00203 [8] FF 00 00 FF FF AD 47 03
1529343068.019298,can1 18FEEE00 [8] FF FF FF FF FF FF FF FF
1529343068.023435,can1 18DA00F1 [8] 30 08 00 00 00 00 00 00
1529343068.027744,can1 0CF00400 [8] 38 FE FE FE FE 00 FF FE
1529343068.028563,can1 0CF00203 [8] FF 00 00 FF FF AD 47 03
1529343068.029387,can1 18FEF000 [8] FF FF FF 00 00 FC 00 FF
1529343068.030102,can1 18FEA400 [8] FF FF FF FF 66 B1 A0 5B
1529343068.030808,can1 18FECA03 [8] 03 FF 00 00 00 00 FF FF
1529343068.036517,can1 18DA00F1 [8] 30 08 00 00 00 00 00 00
1529343068.037853,can1 0CF00400 [8] 38 FE FE FE FE 00 FF FE
1529343068.038776,can1 0CF00203 [8] FF 00 00 FF FF AD 47 03
1529343068.039533,can1 14FD3E00 [8] FF FF FF FF FF FF FF FF
1529343068.040254,can1 18FEE000 [8] A2 01 00 00 A2 01 00 00
1529343068.048082,can1 0CF00400 [8] 38 FE FE FE FE 00 FF FE
1529343068.048855,can1 0CF00203 [8] FF 00 00 FF FF AD 47 03
1529343068.049657,can1 0CF00300 [8] D1 00 FE FF FF FF 00 FF
1529343068.050437,can1 18FEF100 [8] CF 00 00 D0 FF 00 00 30
1529343068.051157,can1 18FEBD00 [8] FF FF FF FF FF FF FF FF
1529343068.051847,can1 18FD0700 [8] 47 F4 C0 FF FF FF FF FF
1529343068.057851,can1 0CF00400 [8] 38 FE FE FE FE 00 FF FE
1529343068.058627,can1 0CF00203 [8] FF 00 00 FF FF AD 47 03
1529343068.059426,can1 18FEDF00 [8] FE FE FE FF FE FF BF FF
1529343068.060218,can1 18FE4A03 [8] FF FF F3 FF F0 F7 FF FF
1529343068.06094,can1 18F00503 [8] FF 57 9E FF 20 2D 2D 2D
1529343068.061921,can1 18FF7400 [8] 7C 03 FF FF FF FF FF FF
1529343068.062619,can1 18DA00F1 [8] 02 10 03 00 00 00 00 00
1529343068.067396,can1 18DAF100 [8] 06 50 03 00 14 00 C8 FF
1529343068.068302,can1 18DA00F1 [8] 30 08 00 00 00 00 00 00
1529343068.069072,can1 0CF00400 [8] 38 FE FE FE FE 00 FF FE
1529343068.06987,can1 1CECFF00 [8] 20 2A 00 06 FF CA FE 00
1529343068.070687,can1 0CF00203 [8] FF 00 00 FF FF AD 47 03
1529343068.071469,can1 18F00100 [8] FF FF FF FF FA FF FF FF
1529343068.07212,can1 18F0010B [8] CF FF F0 FF FF DC FF FF
1529343068.072751,can1 18FD7C00 [8] FF FF D0 34 FD FF FF FF
1529343068.077803,can1 0CF00400 [8] 38 FE FE FE FE 00 FF FE
1529343068.07857,can1 0CF00203 [8] FF 00 00 FF FF AD 47 03
1529343068.079466,can1 18F0000F [8] 00 7D FF FF 0F 7D FF FF
1529343068.080461,can1 18FEF600 [8] FF 00 FF FF FF FF FF FF
1529343068.081283,can1 18FEE400 [8] 00 3F FD FF 00 7F FF FF
1529343068.081959,can1 18DA00F1 [8] 30 08 00 00 00 00 00 00
1529343068.08259,can1 18FEBF0B [8] 00 00 7D 7D 7D 7D FF FF
1529343068.087895,can1 0CF00400 [8] 38 FE FE FE FE 00 FF FE
1529343068.088875,can1 0CF00203 [8] FF 00 00 FF FF AD 47 03
1529343068.089675,can1 18FF3000 [8] 00 00 FF FF FF FF FF FF
1529343068.097849,can1 0CF00400 [8] 38 FE FE FE FE 00 FF FE
1529343068.098822,can1 0CF00203 [8] FF 00 00 FF FF AD 47 03
1529343068.099619,can1 0CF00300 [8] D1 00 FE FF FF FF 00 FF
1529343068.100366,can1 14FFA000 [8] FC FF FF FF FF FF FF FF
1529343068.101082,can1 18FEF200 [8] 00 00 00 00 00 00 FF FF
1529343068.107814,can1 0CF00400 [8] 38 FE FE FE FE 00 FF FE
1529343068.108734,can1 0CF00203 [8] FF 00 00 FF FF AD 47 03
1529343068.109488,can1 18FEDF00 [8] FE FE FE FF FE FF BF FF
1529343068.110135,can1 18FE5600 [8] FF FF FF FF FF FF FF FF
1529343068.111688,can1 18DA00F1 [8] 30 08 00 00 00 00 00 00
1529343068.117757,can1 0CF00400 [8] 38 FE FE FE FE 00 FF FE
1529343068.118666,can1 1CEBFF00 [8] 01 47 FF 71 02 0D 01 3F
1529343068.119417,can1 0CF00203 [8] FF 00 00 FF FF AD 47 03
1529343068.120057,can1 18FEC100 [8] CC 28 00 00 CC 28 00 00
1529343068.124884,can1 18DA00F1 [8] 30 08 00 00 00 00 00 00
1529343068.12776,can1 0CF00400 [8] 38 FE FE FE FE 00 FF FE
1529343068.128699,can1 0CF00203 [8] FF 00 00 FF FF AD 47 03
1529343068.129456,can1 18FEF000 [8] FF FF FF 00 00 FC 00 FF
1529343068.130181,can1 18FEF700 [8] FF FF FF FF F1 00 F1 00
1529343068.137902,can1 0CF00400 [8] 38 FE FE FE FE 00 FF FE
1529343068.138754,can1 0CF00203 [8] FF 00 00 FF FF AD 47 03
1529343068.139503,can1 18FEE000 [8] A2 01 00 00 A2 01 00 00
1529343068.140229,can1 18FEF803 [8] FF FF FF FF FF FF FF FF
1529343068.145575,can1 18DA00F1 [8] 02 10 03 00 00 00 00 00
1529343068.14746,can1 18DAF100 [8] 06 50 03 00 14 00 C8 FF
1529343068.148279,can1 0CF00400 [8] 38 FE FE FE FE 00 FF FE
1529343068.149092,can1 0CF00203 [8] FF 00 00 FF FF AD 47 03
1529343068.149875,can1 0CF00300 [8] D1 00 FE FF FF FF 00 FF
1529343068.150523,can1 18FEF100 [8] CF 00 00 D0 FF 00 00 30
1529343068.155816,can1 18DA00F1 [8] 30 08 00 00 00 00 00 00
1529343068.157812,can1 0CF00400 [8] 38 FE FE FE FE 00 FF FE
1529343068.158591,can1 0CF00203 [8] FF 00 00 FF FF AD 47 03
1529343068.159449,can1 18FEDF00 [8] FE FE FE FF FE FF BF FF
1529343068.160193,can1 18FE4A03 [8] FF FF F3 FF F0 F7 FF FF
1529343068.160826,can1 18F00503 [8] FF 57 9E FF 20 2D 2D 2D
1529343068.167831,can1 0CF00400 [8] 38 FE FE FE FE 00 FF FE
1529343068.168866,can1 1CEBFF00 [8] 02 0A 08 7F 5B 00 08 01
1529343068.169711,can1 0CF00203 [8] FF 00 00 FF FF AD 47 03
1529343068.170527,can1 18DA00F1 [8] 30 08 00 00 00 00 00 00
1529343068.171249,can1 18F00100 [8] FF FF FF FF FA FF FF FF
1529343068.171882,can1 18F0010B [8] CF FF F0 FF FF DC FF FF
1529343068.177808,can1 0CF00400 [8] 38 FE FE FE FE 00 FF FE
1529343068.178571,can1 0CF00203 [8] FF 00 00 FF FF AD 47 03
1529343068.182957,can1 18F0000F [8] 00 7D FF FF 0F 7D FF FF
1529343068.184252,can1 18FEBF0B [8] 00 00 7D 7D 7D 7D FF FF
1529343068.188244,can1 0CF00400 [8] 38 FE FE FE FE 00 FF FE
1529343068.189773,can1 0CF00203 [8] FF 00 00 FF FF AD 47 03
1529343068.191104,can1 18FF3000 [8] 00 00 FF FF FF FF FF FF
1529343068.198239,can1 0CF00400 [8] 38 FE FE FE FE 00 FF FE
1529343068.204826,can1 0CF00203 [8] FF 00 00 FF FF AD 47 03
1529343068.20648,can1 0CF00300 [8] D1 00 FE FF FF FF 00 FF
1529343068.207965,can1 14FFA000 [8] FC FF FF FF FF FF FF FF
1529343068.214068,can1 18DA00F1 [8] 30 08 00 00 00 00 00 00
1529343068.215414,can1 18FEF200 [8] 00 00 00 00 00 00 FF FF
1529343068.220841,can1 0CF00400 [8] 38 FE FE FE FE 00 FF FE
1529343068.222312,can1 0CF00203 [8] FF 00 00 FF FF AD 47 03
1529343068.22357,can1 18FEDF00 [8] FE FE FE FF FE FF BF FF
1529343068.229282,can1 18DA00F1 [8] 30 08 00 00 00 00 00 00
1529343068.230727,can1 0CF00400 [8] 38 FE FE FE FE 00 FF FE
1529343068.236066,can1 1CEBFF00 [8] 03 71 02 0E 01 73 0C 09
1529343068.23768,can1 0CF00203 [8] FF 00 00 FF FF AD 47 03
1529343068.23923,can1 0CF00400 [8] 38 FE FE FE FE 00 FF FE
1529343068.244854,can1 0CF00203 [8] FF 00 00 FF FF AD 47 03
1529343068.246269,can1 18FEF000 [8] FF FF FF 00 00 FC 00 FF
1529343068.251621,can1 0CF00400 [8] 38 FE FE FE FE 00 FF FE
1529343068.253116,can1 0CF00203 [8] FF 00 00 FF FF AD 47 03
1529343068.254385,can1 18FEE000 [8] A2 01 00 00 A2 01 00 00
1529343068.261782,can1 18DA00F1 [8] 30 08 00 00 00 00 00 00
1529343068.263308,can1 0CF00400 [8] 38 FE FE FE FE 00 FF FE
1529343068.264601,can1 0CF00203 [8] FF 00 00 FF FF AD 47 03
1529343068.270454,can1 0CF00300 [8] D1 00 FE FF FF FF 00 FF
1529343068.271887,can1 18FEF100 [8] CF 00 00 D0 FF 00 00 30
1529343068.277261,can1 18DA00F1 [8] 30 08 00 00 00 00 00 00
1529343068.279136,can1 0CF00400 [8] 38 FE FE FE FE 00 FF FE
1529343068.284482,can1 0CF00203 [8] FF 00 00 FF FF AD 47 03
1529343068.285887,can1 18FEDF00 [8] FE FE FE FF FE FF BF FF
1529343068.287283,can1 18FE4A03 [8] FF FF F3 FF F0 F7 FF FF
1529343068.292927,can1 18F00503 [8] FF 57 9E FF 20 2D 2D 2D
1529343068.294385,can1 0CF00400 [8] 38 FE FE FE FE 00 FF FE
1529343068.295637,can1 1CEBFF00 [8] 04 01 6F 00 03 01 38 06
1529343068.302531,can1 0CF00203 [8] FF 00 00 FF FF AD 47 03
1529343068.304023,can1 18F00100 [8] FF FF FF FF FA FF FF FF
1529343068.305869,can1 18F0010B [8] CF FF F0 FF FF DC FF FF
1529343068.307317,can1 0CF00400 [8] 38 FE FE FE FE 00 FF FE
1529343068.312942,can1 0CF00203 [8] FF 00 00 FF FF AD 47 03
1529343068.314406,can1 18F0000F [8] 00 7D FF FF 0F 7D FF FF
1529343068.319752,can1 18FEBF0B [8] 00 00 7D 7D 7D 7D FF FF
1529343068.321161,can1 0CF00400 [8] 38 FE FE FE FE 00 FF FE
1529343068.322556,can1 18DA00F1 [8] 30 08 00 00 00 00 00 00
1529343068.328852,can1 0CF00203 [8] FF 00 00 FF FF AD 47 03
1529343068.33038,can1 18FF3000 [8] 00 00 FF FF FF FF FF FF
1529343068.335761,can1 0CF00400 [8] 38 FE FE FE FE 00 FF FE
1529343068.337247,can1 0CF00203 [8] FF 00 00 FF FF AD 47 03
1529343068.342983,can1 0CF00300 [8] D1 00 FE FF FF FF 00 FF
1529343068.344423,can1 14FFA000 [8] FC FF FF FF FF FF FF FF
1529343068.349917,can1 18FEF200 [8] 00 00 00 00 00 00 FF FF
1529343068.351426,can1 18DA00F1 [8] 30 08 00 00 00 00 00 00
1529343068.356732,can1 18DA00F1 [8] 02 10 03 00 00 00 00 00
1529343068.358523,can1 18DAF100 [8] 06 50 03 00 14 00 C8 FF
1529343068.360223,can1 0CF00400 [8] 38 FE FE FE FE 00 FF FE
1529343068.367916,can1 0CF00203 [8] FF 00 00 FF FF AD 47 03
1529343068.369961,can1 18FEDF00 [8] FE FE FE FF FE FF BF FF
1529343068.371533,can1 0CF00400 [8] 38 FE FE FE FE 00 FF FE
1529343068.377153,can1 1CEBFF00 [8] 05 09 01 0F 02 09 01 E7
1529343068.379121,can1 0CF00203 [8] FF 00 00 FF FF AD 47 03
1529343068.381777,can1 0CF00400 [8] 38 FE FE FE FE 00 FF FE
1529343068.383312,can1 0CF00203 [8] FF 00 00 FF FF AD 47 03
1529343068.384684,can1 18FEF000 [8] FF FF FF 00 00 FC 00 FF
1529343068.386015,can1 18DA00F1 [8] 30 08 00 00 00 00 00 00
1529343068.387234,can1 0CF00400 [8] 38 FE FE FE FE 00 FF FE
1529343068.388993,can1 0CF00203 [8] FF 00 00 FF FF AD 47 03
1529343068.39093,can1 18FEE000 [8] A2 01 00 00 A2 01 00 00
1529343068.392319,can1 18DA00F1 [8] 30 08 00 00 00 00 00 00
1529343068.393542,can1 0CF00400 [8] 38 FE FE FE FE 00 FF FE
1529343068.394865,can1 0CF00203 [8] FF 00 00 FF FF AD 47 03
1529343068.396174,can1 0CF00300 [8] D1 00 FE FF FF FF 00 FF
1529343068.398111,can1 18FEF100 [8] CF 00 00 D0 FF 00 00 30
1529343068.399903,can1 0CF00400 [8] 38 FE FE FE FE 00 FF FE
1529343068.401312,can1 0CF00203 [8] FF 00 00 FF FF AD 47 03
1529343068.402633,can1 18FEDF00 [8] FE FE FE FF FE FF BF FF
1529343068.403923,can1 18FE4A03 [8] FF FF F3 FF F0 F7 FF FF
1529343068.405119,can1 18F00503 [8] FF 57 9E FF 20 2D 2D 2D
1529343068.406419,can1 0CF00400 [8] 38 FE FE FE FE 00 FF FE
1529343068.407837,can1 1CEBFF00 [8] 06 07 09 01 01 08 09 01
1529343068.40941,can1 0CF00203 [8] FF 00 00 FF FF AD 47 03
1529343068.41062,can1 18F00100 [8] FF FF FF FF FA FF FF FF
1529343068.411908,can1 18F0010B [8] CF FF F0 FF FF DC FF FF
1529343068.413082,can1 18DA00F1 [8] 30 08 00 00 00 00 00 00
1529343068.414391,can1 0CF00400 [8] 38 FE FE FE FE 00 FF FE
1529343068.415666,can1 0CF00203 [8] FF 00 00 FF FF AD 47 03
1529343068.416847,can1 18F0000F [8] 00 7D FF FF 0F 7D FF FF
1529343068.418398,can1 18FEBF0B [8] 00 00 7D 7D 7D 7D FF FF
1529343068.420746,can1 0CF00400 [8] 38 FE FE FE FE 00 FF FE
1529343068.422268,can1 0CF00203 [8] FF 00 00 FF FF AD 47 03
1529343068.423669,can1 18DA00F1 [8] 02 10 03 00 00 00 00 00
1529343068.425012,can1 18FF3000 [8] 00 00 FF FF FF FF FF FF
1529343068.42624,can1 18DA00F1 [8] 30 08 00 00 00 00 00 00
1529343068.427706,can1 18DAF100 [8] 06 50 03 00 14 00 C8 FF
1529343068.429274,can1 0CF00400 [8] 38 FE FE FE FE 00 FF FE
1529343068.430506,can1 0CF00203 [8] FF 00 00 FF FF AD 47 03
1529343068.431848,can1 0CF00300 [8] D1 00 FE FF FF FF 00 FF
1529343068.433151,can1 14FFA000 [8] FC FF FF FF FF FF FF FF
1529343068.434914,can1 18FEF200 [8] 00 00 00 00 00 00 FF FF
1529343068.436213,can1 0CF00400 [8] 38 FE FE FE FE 00 FF FE
1529343068.43769,can1 0CF00203 [8] FF 00 00 FF FF AD 47 03
1529343068.439263,can1 18FEDF00 [8] FE FE FE FF FE FF BF FF
1529343068.440589,can1 0CF00400 [8] 38 FE FE FE FE 00 FF FE
1529343068.441808,can1 0CF00203 [8] FF 00 00 FF FF AD 47 03
1529343068.443087,can1 18DA00F1 [8] 30 08 00 00 00 00 00 00
1529343068.444307,can1 0CF00400 [8] 38 FE FE FE FE 00 FF FE
1529343068.44561,can1 0CF00203 [8] FF 00 00 FF FF AD 47 03
1529343068.446881,can1 18FEF000 [8] FF FF FF 00 00 FC 00 FF
1529343068.448209,can1 18DA00F1 [8] 30 08 00 00 00 00 00 00
1529343068.449907,can1 0CF00400 [8] 38 FE FE FE FE 00 FF FE
1529343068.451237,can1 0CF00203 [8] FF 00 00 FF FF AD 47 03
1529343068.452535,can1 18FEE000 [8] A2 01 00 00 A2 01 00 00
1529343068.453735,can1 0CF00400 [8] 38 FE FE FE FE 00 FF FE
1529343068.455033,can1 0CF00203 [8] FF 00 00 FF FF AD 47 03
1529343068.456345,can1 0CF00300 [8] D1 00 FE FF FF FF 00 FF
1529343068.457682,can1 18FEF100 [8] CF 00 00 D0 FF 00 00 30
1529343068.459221,can1 0CF00400 [8] 38 FE FE FE FE 00 FF FE
1529343068.460883,can1 0CF00203 [8] FF 00 00 FF FF AD 47 03
1529343068.462186,can1 18FEDF00 [8] FE FE FE FF FE FF BF FF
1529343068.463399,can1 18FE4A03 [8] FF FF F3 FF F0 F7 FF FF
1529343068.464803,can1 18F00503 [8] FF 57 9E FF 20 2D 2D 2D
1529343068.466104,can1 18FEEF00 [8] FF FF FF FF FF FF FF FA
1529343068.467311,can1 18DA00F1 [8] 30 08 00 00 00 00 00 00
1529343068.468982,can1 0CF00400 [8] 38 FE FE FE FE 00 FF FE
1529343068.470305,can1 0CF00203 [8] FF 00 00 FF FF AD 47 03
1529343068.471644,can1 18F00100 [8] FF FF FF FF FA FF FF FF
1529343068.472946,can1 18F0010B [8] CF FF F0 FF FF DC FF FF
1529343068.478471,can1 0CF00400 [8] 38 FE FE FE FE 00 FF FE
1529343068.480173,can1 0CF00203 [8] FF 00 00 FF FF AD 47 03
1529343068.48362,can1 18F0000F [8] 00 7D FF FF 0F 7D FF FF
1529343068.485129,can1 18DA00F1 [8] 30 08 00 00 00 00 00 00
1529343068.485642,can1 18FEBF0B [8] 00 00 7D 7D 7D 7D FF FF
1529343068.487725,can1 0CF00400 [8] 38 FE FE FE FE 00 FF FE
1529343068.488265,can1 0CF00203 [8] FF 00 00 FF FF AD 47 03
1529343068.488878,can1 18FF3000 [8] 00 00 FF FF FF FF FF FF
1529343068.49781,can1 0CF00400 [8] 38 FE FE FE FE 00 FF FE
1529343068.498481,can1 0CF00203 [8] FF 00 00 FF FF AD 47 03
1529343068.498999,can1 0CF00300 [8] D1 00 FE FF FF FF 00 FF
1529343068.499558,can1 14FFA000 [8] FC FF FF FF FF FF FF FF
1529343068.500038,can1 18FEF200 [8] 00 00 00 00 00 00 FF FF
1529343068.507714,can1 0CF00400 [8] 38 FE FE FE FE 00 FF FE
1529343068.50823,can1 0CF00203 [8] FF 00 00 FF FF AD 47 03
1529343068.508875,can1 18DA00F1 [8] 30 08 00 00 00 00 00 00
1529343068.509397,can1 18FEDF00 [8] FE FE FE FF FE FF BF FF
1529343068.510029,can1 18FF6411 [8] F8 FF FF FF FF FF FF FF
1529343068.517654,can1 0CF00400 [8] 38 FE FE FE FE 00 FF FE
1529343068.518236,can1 0CF00203 [8] FF 00 00 FF FF AD 47 03
1529343068.523152,can1 18DA00F1 [8] 30 08 00 00 00 00 00 00
1529343068.527708,can1 0CF00400 [8] 38 FE FE FE FE 00 FF FE
1529343068.52824,can1 0CF00203 [8] FF 00 00 FF FF AD 47 03
1529343068.528864,can1 18FEF000 [8] FF FF FF 00 00 FC 00 FF
1529343068.537752,can1 0CF00400 [8] 38 FE FE FE FE 00 FF FE
1529343068.538347,can1 0CF00203 [8] FF 00 00 FF FF AD 47 03
1529343068.538934,can1 14FD3E00 [8] FF FF FF FF FF FF FF FF
1529343068.539512,can1 18FEE000 [8] A2 01 00 00 A2 01 00 00
1529343068.547998,can1 0CF00400 [8] 38 FE FE FE FE 00 FF FE
1529343068.548546,can1 18DA00F1 [8] 02 10 03 00 00 00 00 00
1529343068.54906,can1 0CF00203 [8] FF 00 00 FF FF AD 47 03
1529343068.549687,can1 0CF00300 [8] D1 00 FE FF FF FF 00 FF
1529343068.550261,can1 18FEF100 [8] CF 00 00 D0 FF 00 00 30
1529343068.552884,can1 18DA00F1 [8] 30 08 00 00 00 00 00 00
1529343068.557267,can1 18DAF100 [8] 06 50 03 00 14 00 C8 FF
1529343068.557879,can1 0CF00400 [8] 38 FE FE FE FE 00 FF FE
1529343068.558402,can1 0CF00203 [8] FF 00 00 FF FF AD 47 03
1529343068.559006,can1 18FEDF00 [8] FE FE FE FF FE FF BF FF
1529343068.559632,can1 18FE4A03 [8] FF FF F3 FF F0 F7 FF FF
1529343068.560152,can1 18F00503 [8] FF 57 9E FF 20 2D 2D 2D
1529343068.567312,can1 18DA00F1 [8] 30 08 00 00 00 00 00 00
1529343068.567915,can1 0CF00400 [8] 38 FE FE FE FE 00 FF FE
1529343068.568431,can1 0CF00203 [8] FF 00 00 FF FF AD 47 03
1529343068.569064,can1 18F00100 [8] FF FF FF FF FA FF FF FF
1529343068.570975,can1 18F0010B [8] CF FF F0 FF FF DC FF FF
1529343068.577705,can1 0CF00400 [8] 38 FE FE FE FE 00 FF FE
1529343068.578279,can1 0CF00203 [8] FF 00 00 FF FF AD 47 03
1529343068.578873,can1 18F0000F [8] 00 7D FF FF 0F 7D FF FF
1529343068.579469,can1 18FEF600 [8] FF 00 FF FF FF FF FF FF
1529343068.580994,can1 18FEBF0B [8] 00 00 7D 7D 7D 7D FF FF
1529343068.587702,can1 0CF00400 [8] 38 FE FE FE FE 00 FF FE
1529343068.588272,can1 0CF00203 [8] FF 00 00 FF FF AD 47 03
1529343068.588881,can1 18FF3000 [8] 00 00 FF FF FF FF FF FF
1529343068.59699,can1 18DA00F1 [8] 30 08 00 00 00 00 00 00
1529343068.597707,can1 0CF00400 [8] 38 FE FE FE FE 00 FF FE
1529343068.598468,can1 0CF00203 [8] FF 00 00 FF FF AD 47 03
1529343068.599046,can1 0CF00300 [8] D1 00 FE FF FF FF 00 FF
1529343068.59954,can1 14FFA000 [8] FC FF FF FF FF FF FF FF
1529343068.600089,can1 18FEF200 [8] 00 00 00 00 00 00 FF FF
1529343068.607671,can1 0CF00400 [8] 38 FE FE FE FE 00 FF FE
1529343068.608241,can1 0CF00203 [8] FF 00 00 FF FF AD 47 03
1529343068.608814,can1 18FEDF00 [8] FE FE FE FF FE FF BF FF
1529343068.611461,can1 18DA00F1 [8] 30 08 00 00 00 00 00 00
1529343068.617668,can1 0CF00400 [8] 38 FE FE FE FE 00 FF FE
1529343068.618244,can1 0CF00203 [8] FF 00 00 FF FF AD 47 03
1529343068.627663,can1 0CF00400 [8] 38 FE FE FE FE 00 FF FE
1529343068.628244,can1 0CF00203 [8] FF 00 00 FF FF AD 47 03
1529343068.628812,can1 18FEF000 [8] FF FF FF 00 00 FC 00 FF
1529343068.631634,can1 18DA00F1 [8] 02 10 03 00 00 00 00 00
1529343068.637307,can1 18DAF100 [8] 06 50 03 00 14 00 C8 FF
1529343068.637883,can1 0CF00400 [8] 38 FE FE FE FE 00 FF FE
1529343068.638463,can1 0CF00203 [8] FF 00 00 FF FF AD 47 03
1529343068.639017,can1 18FEE000 [8] A2 01 00 00 A2 01 00 00
1529343068.641091,can1 18DA00F1 [8] 30 08 00 00 00 00 00 00
1529343068.647965,can1 0CF00400 [8] 38 FE FE FE FE 00 FF FE
1529343068.648534,can1 0CF00203 [8] FF 00 00 FF FF AD 47 03
1529343068.649123,can1 0CF00300 [8] D1 00 FE FF FF FF 00 FF
1529343068.649689,can1 18FEF100 [8] CF 00 00 D0 FF 00 00 30
1529343068.655628,can1 18DA00F1 [8] 30 08 00 00 00 00 00 00
1529343068.657789,can1 0CF00400 [8] 38 FE FE FE FE 00 FF FE
1529343068.658331,can1 0CF00203 [8] FF 00 00 FF FF AD 47 03
1529343068.658925,can1 18FEDF00 [8] FE FE FE FF FE FF BF FF
1529343068.659499,can1 18FE4A03 [8] FF FF F3 FF F0 F7 FF FF
1529343068.660064,can1 18F00503 [8] FF 57 9E FF 20 2D 2D 2D
1529343068.667765,can1 0CF00400 [8] 38 FE FE FE FE 00 FF FE
1529343068.668334,can1 0CF00203 [8] FF 00 00 FF FF AD 47 03
1529343068.668937,can1 18F00100 [8] FF FF FF FF FA FF FF FF
1529343068.671116,can1 18F0010B [8] CF FF F0 FF FF DC FF FF
1529343068.677712,can1 0CF00400 [8] 38 FE FE FE FE 00 FF FE
1529343068.678311,can1 0CF00203 [8] FF 00 00 FF FF AD 47 03
1529343068.678916,can1 18F0000F [8] 00 7D FF FF 0F 7D FF FF
1529343068.681136,can1 18FEBF0B [8] 00 00 7D 7D 7D 7D FF FF
1529343068.68523,can1 18DA00F1 [8] 30 08 00 00 00 00 00 00
1529343068.687723,can1 0CF00400 [8] 38 FE FE FE FE 00 FF FE
1529343068.688295,can1 0CF00203 [8] FF 00 00 FF FF AD 47 03
1529343068.68889,can1 18FF3000 [8] 00 00 FF FF FF FF FF FF
1529343068.697788,can1 0CF00400 [8] 38 FE FE FE FE 00 FF FE
1529343068.698775,can1 0CF00203 [8] FF 00 00 FF FF AD 47 03
1529343068.704463,can1 0CF00300 [8] D1 00 FE FF FF FF 00 FF
1529343068.705161,can1 14FFA000 [8] FC FF FF FF FF FF FF FF
1529343068.705647,can1 18DA00F1 [8] 30 08 00 00 00 00 00 00
1529343068.706074,can1 18FEF200 [8] 00 00 00 00 00 00 FF FF
1529343068.710285,can1 0CF00400 [8] 38 FE FE FE FE 00 FF FE
1529343068.710894,can1 0CF00203 [8] FF 00 00 FF FF AD 47 03
1529343068.711356,can1 18FEDF00 [8] FE FE FE FF FE FF BF FF
1529343068.717847,can1 0CF00400 [8] 38 FE FE FE FE 00 FF FE
1529343068.718589,can1 0CF00203 [8] FF 00 00 FF FF AD 47 03
