1507916053.383954,can0 08FF0001 [8] 00 00 00 00 00 00 00 00
1507916053.397853,can0 0CF00203 [8] 00 00 00 00 00 00 00 00
1507916053.410135,can0 08FF0303 [8] 00 00 00 00 00 00 00 00
1507916053.411939,can0 08FF0001 [8] 00 00 00 00 00 00 00 00
1507916053.423484,can0 0CF00203 [8] 00 00 00 00 00 00 00 00
1507916053.425713,can0 08FF0303 [8] 00 00 00 00 00 00 00 00
1507916053.437676,can0 08FF0001 [8] 00 00 00 00 00 00 00 00
1507916053.439419,can0 0CF00203 [8] 00 00 00 00 00 00 00 00
1507916053.449035,can0 08FF0303 [8] 00 00 00 00 00 00 00 00
1507916053.45076,can0 08FF0001 [8] 00 00 00 00 00 00 00 00
1507916053.460159,can0 0CF00203 [8] 00 00 00 00 00 00 00 00
1507916053.461897,can0 08FF0303 [8] 00 00 00 00 00 00 00 00
1507916053.46323,can0 18F00503 [8] 00 00 00 00 00 00 00 00
1507916053.472821,can0 08FF0001 [8] 00 00 00 00 00 00 00 00
1507916053.474407,can0 0CF00203 [8] 00 00 00 00 00 00 00 00
1507916053.484263,can0 08FF0303 [8] 00 00 00 00 00 00 00 00
1507916053.486552,can0 08FF0001 [8] 00 00 00 00 00 00 00 00
1507916053.496712,can0 0CF00203 [8] 00 00 00 00 00 00 00 00
1507916053.498263,can0 08FF0303 [8] 00 00 00 00 00 00 00 00
1507916053.50776,can0 08FF0001 [8] 00 00 00 00 00 00 00 00
1507916053.509338,can0 0CF00203 [8] 00 00 00 00 00 00 00 00
1507916053.518695,can0 08FF0303 [8] 00 00 00 00 00 00 00 00
1507916053.520412,can0 08FF0001 [8] 00 00 00 00 00 00 00 00
1507916053.521944,can0 0CF00203 [8] 00 00 00 00 00 00 00 00
1507916053.530657,can0 08FF0303 [8] 00 00 00 00 00 00 00 00
1507916053.540237,can0 08FF0001 [8] 00 00 00 00 00 00 00 00
1507916053.541805,can0 0CF00203 [8] 00 00 00 00 00 00 00 00
1507916053.543106,can0 08FF0303 [8] 00 00 00 00 00 00 00 00
1507916053.552475,can0 08FF0001 [8] 00 00 00 00 00 00 00 00
1507916053.553972,can0 0CF00203 [8] 00 00 00 00 00 00 00 00
1507916053.563422,can0 08FF0303 [8] 00 00 00 00 00 00 00 00
1507916053.564868,can0 08FF0001 [8] 00 00 00 00 00 00 00 00
1507916053.566844,can0 0CF00203 [8] 00 00 00 00 00 00 00 00
1507916053.57666,can0 08FF0303 [8] 00 00 00 00 00 00 00 00
1507916053.578124,can0 08FF0001 [8] 00 00 00 00 00 00 00 00
1507916053.587743,can0 0CF00203 [8] 00 00 00 00 00 00 00 00
1507916053.589624,can0 08FF0303 [8] 00 00 00 00 00 00 00 00
1507916053.599255,can0 08FF0001 [8] 00 00 00 00 00 00 00 00
1507916053.600745,can0 0CF00203 [8] 00 00 00 00 00 00 00 00
1507916053.602023,can0 08FF0303 [8] 00 00 00 00 00 00 00 00
1507916053.611427,can0 08FF0001 [8] 00 00 00 00 00 00 00 00
1507916053.612873,can0 0CF00203 [8] 00 00 00 00 00 00 00 00
1507916053.622132,can0 08FF0303 [8] 00 00 00 00 00 00 00 00
1507916053.62357,can0 18F00503 [8] 00 00 00 00 00 00 00 00
1507916053.62521,can0 08FF0001 [8] 00 00 00 00 00 00 00 00
1507916053.632959,can0 0CF00203 [8] 00 00 00 00 00 00 00 00
1507916053.634464,can0 08FF0303 [8] 00 00 00 00 00 00 00 00
1507916053.644061,can0 08FF0001 [8] 00 00 00 00 00 00 00 00
1507916053.646048,can0 0CF00203 [8] 00 00 00 00 00 00 00 00
1507916053.655831,can0 08FF0303 [8] 00 00 00 00 00 00 00 00
1507916053.657596,can0 08FF0001 [8] 00 00 00 00 00 00 00 00
1507916053.666863,can0 0CF00203 [8] 00 00 00 00 00 00 00 00
1507916053.668457,can0 08FF0303 [8] 00 00 00 00 00 00 00 00
1507916053.669925,can0 08FF0001 [8] 00 00 00 00 00 00 00 00
1507916053.679339,can0 0CF00203 [8] 00 00 00 00 00 00 00 00
1507916053.68105,can0 08FF0303 [8] 00 00 00 00 00 00 00 00
1507916053.690497,can0 08FF0001 [8] 00 00 00 00 00 00 00 00
1507916053.69251,can0 0CF00203 [8] 00 00 00 00 00 00 00 00
1507916053.702228,can0 08FF0303 [8] 00 00 00 00 00 00 00 00
1507916053.703891,can0 08FF0001 [8] 00 00 00 00 00 00 00 00
1507916053.705499,can0 0CF00203 [8] 00 00 00 00 00 00 00 00
1507916053.715299,can0 08FF0303 [8] 00 00 00 00 00 00 00 00
1507916053.717022,can0 08FF0001 [8] 00 00 00 00 00 00 00 00
1507916053.726703,can0 0CF00203 [8] 00 00 00 00 00 00 00 00
1507916053.728258,can0 08FF0303 [8] 00 00 00 00 00 00 00 00
1507916053.73921,can0 08FF0001 [8] 00 00 00 00 00 00 00 00
1507916053.739789,can0 0CF00203 [8] 00 00 00 00 00 00 00 00
1507916053.740246,can0 08FF0303 [8] 00 00 00 00 00 00 00 00
1507916053.740653,can0 08FF0001 [8] 00 00 00 00 00 00 00 00
1507916053.741127,can0 0CF00203 [8] 00 00 00 00 00 00 00 00
1507916053.741544,can0 08FF0303 [8] 00 00 00 00 00 00 00 00
1507916053.741935,can0 08FF0001 [8] 00 00 00 00 00 00 00 00
1507916053.742322,can0 0CF00203 [8] 00 00 00 00 00 00 00 00
1507916053.742709,can0 08FF0303 [8] 00 00 00 00 00 00 00 00
1507916053.75116,can0 18F00503 [8] 00 00 00 00 00 00 00 00
1507916053.751682,can0 08FF0001 [8] 00 00 00 00 00 00 00 00
1507916053.752112,can0 0CF00203 [8] 00 00 00 00 00 00 00 00
1507916053.75252,can0 08FF0303 [8] 00 00 00 00 00 00 00 00
1507916053.753016,can0 08FF0001 [8] 00 00 00 00 00 00 00 00
1507916053.75342,can0 0CF00203 [8] 00 00 00 00 00 00 00 00
1507916053.753814,can0 08FF0303 [8] 00 00 00 00 00 00 00 00
1507916053.754202,can0 08FF0001 [8] 00 00 00 00 00 00 00 00
1507916053.758839,can0 0CF00203 [8] 00 00 00 00 00 00 00 00
1507916053.759522,can0 08FF0303 [8] 00 00 00 00 00 00 00 00
1507916053.76002,can0 08FF0001 [8] 00 00 00 00 00 00 00 00
1507916053.76052,can0 0CF00203 [8] 00 00 00 00 00 00 00 00
1507916053.76097,can0 08FF0303 [8] 00 00 00 00 00 00 00 00
1507916053.76138,can0 08FF0001 [8] 00 00 00 00 00 00 00 00
1507916053.761776,can0 0CF00203 [8] 00 00 00 00 00 00 00 00
1507916053.762182,can0 08FF0303 [8] 00 00 00 00 00 00 00 00
1507916053.762639,can0 08FF0001 [8] 00 00 00 00 00 00 00 00
1507916053.763051,can0 0CF00203 [8] 00 00 00 00 00 00 00 00
1507916053.763445,can0 08FF0303 [8] 00 00 00 00 00 00 00 00
1507916053.763828,can0 08FF0001 [8] 00 00 00 00 00 00 00 00
1507916053.764213,can0 0CF00203 [8] 00 00 00 00 00 00 00 00
1507916053.764662,can0 08FF0303 [8] 00 00 00 00 00 00 00 00
1507916053.766469,can0 08FF0001 [8] 00 00 00 00 00 00 00 00
1507916053.767048,can0 0CF00203 [8] 00 00 00 00 00 00 00 00
1507916053.767506,can0 08FF0303 [8] 00 00 00 00 00 00 00 00
1507916053.767923,can0 08FF0001 [8] 00 00 00 00 00 00 00 00
1507916053.76839,can0 0CF00203 [8] 00 00 00 00 00 00 00 00
1507916053.768815,can0 08FF0303 [8] 00 00 00 00 00 00 00 00
1507916053.769222,can0 08FF0001 [8] 00 00 00 00 00 00 00 00
1507916053.77002,can0 0CF00203 [8] 00 00 00 00 00 00 00 00
1507916053.770533,can0 08FF0303 [8] 00 00 00 00 00 00 00 00
1507916053.771042,can0 18F00503 [8] 00 00 00 00 00 00 00 00
1507916053.771483,can0 08FF0001 [8] 00 00 00 00 00 00 00 00
1507916053.771892,can0 0CF00203 [8] 00 00 00 00 00 00 00 00
1507916053.772357,can0 08FF0303 [8] 00 00 00 00 00 00 00 00
1507916053.77277,can0 08FF0001 [8] 00 00 00 00 00 00 00 00
1507916053.773165,can0 0CF00203 [8] 00 00 00 00 00 00 00 00
1507916053.773541,can0 08FF0303 [8] 00 00 00 00 00 00 00 00
1507916053.773915,can0 08FF0001 [8] 00 00 00 00 00 00 00 00
1507916053.774354,can0 0CF00203 [8] 00 00 00 00 00 00 00 00
1507916053.774754,can0 08FF0303 [8] 00 00 00 00 00 00 00 00
1507916053.775232,can0 08FF0001 [8] 00 00 00 00 00 00 00 00
1507916053.775698,can0 0CF00203 [8] 00 00 00 00 00 00 00 00
1507916053.776158,can0 08FF0303 [8] 00 00 00 00 00 00 00 00
1507916053.776639,can0 08FF0001 [8] 00 00 00 00 00 00 00 00
1507916053.777047,can0 0CF00203 [8] 00 00 00 00 00 00 00 00
1507916053.777437,can0 08FF0303 [8] 00 00 00 00 00 00 00 00
1507916053.777817,can0 08FF0001 [8] 00 00 00 00 00 00 00 00
1507916053.778257,can0 0CF00203 [8] 00 00 00 00 00 00 00 00
1507916053.778652,can0 08FF0303 [8] 00 00 00 00 00 00 00 00
1507916053.779036,can0 08FF0001 [8] 00 00 00 00 00 00 00 00
1507916053.779413,can0 0CF00203 [8] 00 00 00 00 00 00 00 00
1507916053.779787,can0 08FF0303 [8] 00 00 00 00 00 00 00 00
1507916053.780233,can0 08FF0001 [8] 00 00 00 00 00 00 00 00
1507916053.780845,can0 0CF00203 [8] 00 00 00 00 00 00 00 00
1507916053.781333,can0 08FF0303 [8] 00 00 00 00 00 00 00 00
1507916053.781756,can0 08FF0001 [8] 00 00 00 00 00 00 00 00
1507916053.782241,can0 0CF00203 [8] 00 00 00 00 00 00 00 00
1507916053.782654,can0 08FF0303 [8] 00 00 00 00 00 00 00 00
1507916053.789932,can0 08FF0001 [8] 00 00 00 00 00 00 00 00
1507916053.790549,can0 0CF00203 [8] 00 00 00 00 00 00 00 00
1507916053.426692,can1 18E00028 [8] 00 00 00 00 00 00 00 00
1507916053.43177,can1 18E00031 [8] 00 00 00 00 00 00 00 00
1507916053.441402,can1 18FEF017 [8] 00 00 00 00 00 00 00 00
1507916053.442918,can1 18FEF021 [8] 00 00 00 00 00 00 00 00
1507916053.452245,can1 18FEF028 [8] 00 00 00 00 00 00 00 00
1507916053.453945,can1 18FEF031 [8] 00 00 00 00 00 00 00 00
1507916053.455697,can1 0CFE6E0B [8] 00 00 00 00 00 00 00 00
1507916053.465406,can1 18F0010B [8] CF FF F0 FF FF DC FF FF
1507916053.467282,can1 0CFE6E0B [8] 00 00 00 00 00 00 00 00
1507916053.477002,can1 18FEBF0B [8] 00 00 7D 7D FE FE FF FF
1507916053.478495,can1 0CFE6E0B [8] 00 00 00 00 00 00 00 00
1507916053.488051,can1 0CFE6E0B [8] 00 00 00 00 00 00 00 00
1507916053.489983,can1 0CFE6E0B [8] 00 00 00 00 00 00 00 00
1507916053.499549,can1 18F00131 [8] 00 00 00 00 00 00 00 00
1507916053.501072,can1 18F0010B [8] 00 00 00 00 00 00 00 00
1507916053.50235,can1 18FEF117 [8] 00 00 00 00 00 00 00 00
1507916053.511755,can1 18FEF128 [8] 00 00 00 00 00 00 00 00
1507916053.513235,can1 18FEF121 [8] 00 00 00 00 00 00 00 00
1507916053.522526,can1 18FEF131 [8] 00 00 00 00 00 00 00 00
1507916053.52397,can1 18E00017 [8] 00 00 00 00 00 00 00 00
1507916053.52575,can1 18E00019 [8] 00 00 00 00 00 00 00 00
1507916053.537403,can1 18E00021 [8] 00 00 00 00 00 00 00 00
1507916053.538978,can1 18E00028 [8] 00 00 00 00 00 00 00 00
1507916053.548415,can1 18E00031 [8] 00 00 00 00 00 00 00 00
1507916053.550068,can1 18FEF017 [8] 00 00 00 00 00 00 00 00
1507916053.551369,can1 18FEF021 [8] 00 00 00 00 00 00 00 00
1507916053.561018,can1 18FEF028 [8] 00 00 00 00 00 00 00 00
1507916053.562536,can1 18FEF031 [8] 00 00 00 00 00 00 00 00
1507916053.571968,can1 0CFE6E0B [8] 00 00 00 00 00 00 00 00
1507916053.573562,can1 18F0010B [8] CF FF F0 FF FF DC FF FF
1507916053.574855,can1 0CFE6E0B [8] 00 00 00 00 00 00 00 00
1507916053.584349,can1 18FEBF0B [8] 00 00 7D 7D FE FE FF FF
1507916053.58643,can1 0CFE6E0B [8] 00 00 00 00 00 00 00 00
1507916053.596504,can1 0CFE6E0B [8] 00 00 00 00 00 00 00 00
1507916053.597906,can1 0CFE6E0B [8] 00 00 00 00 00 00 00 00
1507916053.607493,can1 18F00131 [8] 00 00 00 00 00 00 00 00
1507916053.609057,can1 18F0010B [8] 00 00 00 00 00 00 00 00
1507916053.618406,can1 18FEF117 [8] 00 00 00 00 00 00 00 00
1507916053.620064,can1 18FEF128 [8] 00 00 00 00 00 00 00 00
1507916053.621406,can1 18FEF121 [8] 00 00 00 00 00 00 00 00
1507916053.630922,can1 18FEF131 [8] 00 00 00 00 00 00 00 00
1507916053.636628,can1 18E00017 [8] 00 00 00 00 00 00 00 00
1507916053.638096,can1 18E00019 [8] 00 00 00 00 00 00 00 00
1507916053.647316,can1 18E00021 [8] 00 00 00 00 00 00 00 00
1507916053.648802,can1 18E00028 [8] 00 00 00 00 00 00 00 00
1507916053.650227,can1 18E00031 [8] 00 00 00 00 00 00 00 00
1507916053.659517,can1 18FEF017 [8] 00 00 00 00 00 00 00 00
1507916053.661042,can1 18FEF021 [8] 00 00 00 00 00 00 00 00
1507916053.662329,can1 18FEF028 [8] 00 00 00 00 00 00 00 00
1507916053.671676,can1 18FEF031 [8] 00 00 00 00 00 00 00 00
1507916053.673158,can1 0CFE6E0B [8] 00 00 00 00 00 00 00 00
1507916053.674412,can1 18F0010B [8] CF FF F0 FF FF DC FF FF
1507916053.683878,can1 0CFE6E0B [8] 00 00 00 00 00 00 00 00
1507916053.685547,can1 18FEBF0B [8] 00 00 7D 7D FE FE FF FF
1507916053.695316,can1 0CFE6E0B [8] 00 00 00 00 00 00 00 00
1507916053.697139,can1 0CFE6E0B [8] 00 00 00 00 00 00 00 00
1507916053.706601,can1 0CFE6E0B [8] 00 00 00 00 00 00 00 00
1507916053.708138,can1 18F00131 [8] 00 00 00 00 00 00 00 00
1507916053.709409,can1 18F0010B [8] 00 00 00 00 00 00 00 00
1507916053.718829,can1 18FEF117 [8] 00 00 00 00 00 00 00 00
1507916053.720284,can1 18FEF128 [8] 00 00 00 00 00 00 00 00
1507916053.735217,can1 18FEF121 [8] 00 00 00 00 00 00 00 00
1507916053.736061,can1 18FEF131 [8] 00 00 00 00 00 00 00 00
1507916053.736647,can1 18E00017 [8] 00 00 00 00 00 00 00 00
1507916053.737173,can1 18E00019 [8] 00 00 00 00 00 00 00 00
1507916053.737616,can1 18E00021 [8] 00 00 00 00 00 00 00 00
1507916053.738024,can1 18E00028 [8] 00 00 00 00 00 00 00 00
1507916053.738416,can1 18E00031 [8] 00 00 00 00 00 00 00 00
1507916053.738804,can1 18FEF017 [8] 00 00 00 00 00 00 00 00
1507916053.747428,can1 18FEF021 [8] 00 00 00 00 00 00 00 00
1507916053.748038,can1 18FEF028 [8] 00 00 00 00 00 00 00 00
1507916053.748493,can1 18FEF031 [8] 00 00 00 00 00 00 00 00
1507916053.749017,can1 0CFE6E0B [8] 00 00 00 00 00 00 00 00
1507916053.749458,can1 18F0010B [8] CF FF F0 FF FF DC FF FF
1507916053.749862,can1 0CFE6E0B [8] 00 00 00 00 00 00 00 00
1507916053.750252,can1 18FEBF0B [8] 00 00 7D 7D FE FE FF FF
1507916053.750635,can1 0CFE6E0B [8] 00 00 00 00 00 00 00 00
1507916053.765691,can1 0CFE6E0B [8] 00 00 00 00 00 00 00 00
1507916053.785379,can1 0CFE6E0B [8] 00 00 00 00 00 00 00 00
1507916053.786147,can1 18F00131 [8] 00 00 00 00 00 00 00 00
1507916053.786835,can1 18F0010B [8] 00 00 00 00 00 00 00 00
1507916053.78729,can1 18FEF117 [8] 00 00 00 00 00 00 00 00
1507916053.787832,can1 18FEF128 [8] 00 00 00 00 00 00 00 00
1507916053.788337,can1 18FEF121 [8] 00 00 00 00 00 00 00 00
1507916053.788815,can1 18FEF131 [8] 00 00 00 00 00 00 00 00
1507916053.789283,can1 18E00017 [8] 00 00 00 00 00 00 00 00
1507916053.793278,can1 18E00019 [8] 00 00 00 00 00 00 00 00
1507916053.793997,can1 18E00021 [8] 00 00 00 00 00 00 00 00
1507916053.794546,can1 18E00028 [8] 00 00 00 00 00 00 00 00
1507916053.795082,can1 18E00031 [8] 00 00 00 00 00 00 00 00
1507916053.795532,can1 18FEF017 [8] 00 00 00 00 00 00 00 00
1507916053.796091,can1 18FEF021 [8] 00 00 00 00 00 00 00 00
1507916053.796578,can1 18FEF028 [8] 00 00 00 00 00 00 00 00
1507916053.796989,can1 18FEF031 [8] 00 00 00 00 00 00 00 00
1507916053.797381,can1 18FEF521 [8] 00 00 00 00 00 00 00 00
1507916053.813498,can1 0CFE6E0B [8] 00 00 00 00 00 00 00 00
1507916053.822238,can1 18F0010B [8] CF FF F0 FF FF DC FF FF
1507916053.825378,can1 0CFE6E0B [8] 00 00 00 00 00 00 00 00
1507916053.832226,can1 18FEBF0B [8] 00 00 7D 7D FE FE FF FF
1507916053.845474,can1 0CFE6E0B [8] 00 00 00 00 00 00 00 00
1507916053.865334,can1 0CFE6E0B [8] 00 00 00 00 00 00 00 00
1507916053.885344,can1 0CFE6E0B [8] 00 00 00 00 00 00 00 00
1507916053.88607,can1 18F00131 [8] 00 00 00 00 00 00 00 00
1507916053.886642,can1 18F0010B [8] 00 00 00 00 00 00 00 00
1507916053.887167,can1 18FEF117 [8] 00 00 00 00 00 00 00 00
1507916053.887791,can1 18FEF128 [8] 00 00 00 00 00 00 00 00
1507916053.888316,can1 18FEF121 [8] 00 00 00 00 00 00 00 00
1507916053.888796,can1 18FEF131 [8] 00 00 00 00 00 00 00 00
1507916053.889266,can1 18E00017 [8] 00 00 00 00 00 00 00 00
1507916053.892192,can1 18E00019 [8] 00 00 00 00 00 00 00 00
1507916053.892724,can1 18E00021 [8] 00 00 00 00 00 00 00 00
1507916053.893161,can1 18E00028 [8] 00 00 00 00 00 00 00 00
1507916053.893726,can1 18E00031 [8] 00 00 00 00 00 00 00 00
1507916053.894204,can1 18FEF017 [8] 00 00 00 00 00 00 00 00
1507916053.894604,can1 18FEF021 [8] 00 00 00 00 00 00 00 00
1507916053.894995,can1 18FEF028 [8] 00 00 00 00 00 00 00 00
1507916053.89735,can1 18FEF031 [8] 00 00 00 00 00 00 00 00
1507916053.907006,can1 0CFE6E0B [8] 00 00 00 00 00 00 00 00
1507916053.922255,can1 18F0010B [8] CF FF F0 FF FF DC FF FF
1507916053.925289,can1 0CFE6E0B [8] 00 00 00 00 00 00 00 00
1507916053.932275,can1 18FEBF0B [8] 00 00 7D 7D FE FE FF FF
1507916053.945331,can1 0CFE6E0B [8] 00 00 00 00 00 00 00 00
1507916053.96533,can1 0CFE6E0B [8] 00 00 00 00 00 00 00 00
1507916053.985329,can1 0CFE6E0B [8] 00 00 00 00 00 00 00 00
1507916053.985981,can1 18F00131 [8] 00 00 00 00 00 00 00 00
1507916053.986551,can1 18F0010B [8] 00 00 00 00 00 00 00 00
1507916053.98715,can1 18FEF117 [8] 00 00 00 00 00 00 00 00
1507916053.987672,can1 18FEF128 [8] 00 00 00 00 00 00 00 00
1507916053.988148,can1 18FEF121 [8] 00 00 00 00 00 00 00 00
1507916053.991033,can1 18FEF131 [8] 00 00 00 00 00 00 00 00
1507916053.991621,can1 18E00017 [8] 00 00 00 00 00 00 00 00
1507916053.992127,can1 18E00019 [8] 00 00 00 00 00 00 00 00
1507916053.992549,can1 18E00021 [8] 00 00 00 00 00 00 00 00
1507916053.993085,can1 18E00028 [8] 00 00 00 00 00 00 00 00
1507916053.993574,can1 18E00031 [8] 00 00 00 00 00 00 00 00
1507916053.791879,can0 08FF0303 [8] 00 00 00 00 00 00 00 00
1507916053.792535,can0 18F00503 [8] 00 00 00 00 00 00 00 00
1507916053.797786,can0 08FF0001 [8] 00 00 00 00 00 00 00 00
1507916053.798403,can0 0CF00203 [8] 00 00 00 00 00 00 00 00
1507916053.798851,can0 08FF0303 [8] 00 00 00 00 00 00 00 00
1507916053.80764,can0 08FF0001 [8] 00 00 00 00 00 00 00 00
1507916053.808318,can0 0CF00203 [8] 00 00 00 00 00 00 00 00
1507916053.808794,can0 08FF0303 [8] 00 00 00 00 00 00 00 00
1507916053.815427,can0 08FF0001 [8] 00 00 00 00 00 00 00 00
1507916053.816149,can0 0CF00203 [8] 00 00 00 00 00 00 00 00
1507916053.816699,can0 08FF0303 [8] 00 00 00 00 00 00 00 00
1507916053.826245,can0 08FF0001 [8] 00 00 00 00 00 00 00 00
1507916053.826934,can0 0CF00203 [8] 00 00 00 00 00 00 00 00
1507916053.827435,can0 08FF0303 [8] 00 00 00 00 00 00 00 00
1507916053.835368,can0 08FF0001 [8] 00 00 00 00 00 00 00 00
1507916053.836099,can0 0CF00203 [8] 00 00 00 00 00 00 00 00
1507916053.836723,can0 08FF0303 [8] 00 00 00 00 00 00 00 00
1507916053.846518,can0 08FF0001 [8] 00 00 00 00 00 00 00 00
1507916053.847141,can0 0CF00203 [8] 00 00 00 00 00 00 00 00
1507916053.847596,can0 08FF0303 [8] 00 00 00 00 00 00 00 00
1507916053.855278,can0 08FF0001 [8] 00 00 00 00 00 00 00 00
1507916053.85582,can0 0CF00203 [8] 00 00 00 00 00 00 00 00
1507916053.856378,can0 08FF0303 [8] 00 00 00 00 00 00 00 00
1507916053.866102,can0 08FF0001 [8] 00 00 00 00 00 00 00 00
1507916053.8667,can0 0CF00203 [8] 00 00 00 00 00 00 00 00
1507916053.867138,can0 08FF0303 [8] 00 00 00 00 00 00 00 00
1507916053.875264,can0 08FF0001 [8] 00 00 00 00 00 00 00 00
1507916053.875854,can0 0CF00203 [8] 00 00 00 00 00 00 00 00
1507916053.876395,can0 08FF0303 [8] 00 00 00 00 00 00 00 00
1507916053.889585,can0 08FF0001 [8] 00 00 00 00 00 00 00 00
1507916053.890198,can0 0CF00203 [8] 00 00 00 00 00 00 00 00
1507916053.890717,can0 08FF0303 [8] 00 00 00 00 00 00 00 00
1507916053.8912,can0 18F00503 [8] 00 00 00 00 00 00 00 00
1507916053.895325,can0 08FF0001 [8] 00 00 00 00 00 00 00 00
1507916053.895908,can0 0CF00203 [8] 00 00 00 00 00 00 00 00
1507916053.896412,can0 08FF0303 [8] 00 00 00 00 00 00 00 00
1507916053.905333,can0 08FF0001 [8] 00 00 00 00 00 00 00 00
1507916053.905931,can0 0CF00203 [8] 00 00 00 00 00 00 00 00
1507916053.906444,can0 08FF0303 [8] 00 00 00 00 00 00 00 00
1507916053.915302,can0 08FF0001 [8] 00 00 00 00 00 00 00 00
1507916053.915895,can0 0CF00203 [8] 00 00 00 00 00 00 00 00
1507916053.916416,can0 08FF0303 [8] 00 00 00 00 00 00 00 00
1507916053.925924,can0 08FF0001 [8] 00 00 00 00 00 00 00 00
1507916053.926576,can0 0CF00203 [8] 00 00 00 00 00 00 00 00
1507916053.927048,can0 08FF0303 [8] 00 00 00 00 00 00 00 00
1507916053.935313,can0 08FF0001 [8] 00 00 00 00 00 00 00 00
1507916053.935927,can0 0CF00203 [8] 00 00 00 00 00 00 00 00
1507916053.936516,can0 08FF0303 [8] 00 00 00 00 00 00 00 00
1507916053.946068,can0 08FF0001 [8] 00 00 00 00 00 00 00 00
1507916053.946656,can0 0CF00203 [8] 00 00 00 00 00 00 00 00
1507916053.947096,can0 08FF0303 [8] 00 00 00 00 00 00 00 00
1507916053.955264,can0 08FF0001 [8] 00 00 00 00 00 00 00 00
1507916053.955831,can0 0CF00203 [8] 00 00 00 00 00 00 00 00
1507916053.956413,can0 08FF0303 [8] 00 00 00 00 00 00 00 00
1507916053.96607,can0 08FF0001 [8] 00 00 00 00 00 00 00 00
1507916053.966668,can0 0CF00203 [8] 00 00 00 00 00 00 00 00
1507916053.967107,can0 08FF0303 [8] 00 00 00 00 00 00 00 00
1507916053.975299,can0 08FF0001 [8] 00 00 00 00 00 00 00 00
1507916053.975839,can0 0CF00203 [8] 00 00 00 00 00 00 00 00
1507916053.976413,can0 08FF0303 [8] 00 00 00 00 00 00 00 00
1507916053.988733,can0 08FF0001 [8] 00 00 00 00 00 00 00 00
1507916053.989401,can0 0CF00203 [8] 00 00 00 00 00 00 00 00
1507916053.989924,can0 08FF0303 [8] 00 00 00 00 00 00 00 00
1507916053.990414,can0 18F00503 [8] 00 00 00 00 00 00 00 00
1507916053.995345,can0 08FF0001 [8] 00 00 00 00 00 00 00 00
1507916053.995998,can0 0CF00203 [8] 00 00 00 00 00 00 00 00
1507916053.996514,can0 08FF0303 [8] 00 00 00 00 00 00 00 00
1507916054.005367,can0 08FF0001 [8] 00 00 00 00 00 00 00 00
1507916054.005978,can0 0CF00203 [8] 00 00 00 00 00 00 00 00
1507916054.006483,can0 08FF0303 [8] 00 00 00 00 00 00 00 00
1507916054.01532,can0 08FF0001 [8] 00 00 00 00 00 00 00 00
1507916054.015912,can0 0CF00203 [8] 00 00 00 00 00 00 00 00
1507916054.016487,can0 08FF0303 [8] 00 00 00 00 00 00 00 00
1507916054.025935,can0 08FF0001 [8] 00 00 00 00 00 00 00 00
1507916054.026597,can0 0CF00203 [8] 00 00 00 00 00 00 00 00
1507916054.027047,can0 08FF0303 [8] 00 00 00 00 00 00 00 00
1507916054.035326,can0 08FF0001 [8] 00 00 00 00 00 00 00 00
1507916054.03698,can0 0CF00203 [8] 00 00 00 00 00 00 00 00
1507916054.038637,can0 08FF0303 [8] 00 00 00 00 00 00 00 00
1507916054.046658,can0 08FF0001 [8] 00 00 00 00 00 00 00 00
1507916054.047422,can0 0CF00203 [8] 00 00 00 00 00 00 00 00
1507916054.048197,can0 08FF0303 [8] 00 00 00 00 00 00 00 00
1507916054.055443,can0 08FF0001 [8] 00 00 00 00 00 00 00 00
1507916054.056316,can0 0CF00203 [8] 00 00 00 00 00 00 00 00
1507916054.056982,can0 08FF0303 [8] 00 00 00 00 00 00 00 00
1507916054.066509,can0 08FF0001 [8] 00 00 00 00 00 00 00 00
1507916054.067344,can0 0CF00203 [8] 00 00 00 00 00 00 00 00
1507916054.068036,can0 08FF0303 [8] 00 00 00 00 00 00 00 00
1507916054.075378,can0 08FF0001 [8] 00 00 00 00 00 00 00 00
1507916054.076168,can0 0CF00203 [8] 00 00 00 00 00 00 00 00
1507916054.076972,can0 08FF0303 [8] 00 00 00 00 00 00 00 00
1507916054.088918,can0 08FF0001 [8] 00 00 00 00 00 00 00 00
1507916054.089849,can0 0CF00203 [8] 00 00 00 00 00 00 00 00
1507916054.090682,can0 08FF0303 [8] 00 00 00 00 00 00 00 00
1507916054.091497,can0 18F00503 [8] 00 00 00 00 00 00 00 00
1507916054.096709,can0 08FF0001 [8] 00 00 00 00 00 00 00 00
1507916054.097457,can0 0CF00203 [8] 00 00 00 00 00 00 00 00
1507916054.098119,can0 08FF0303 [8] 00 00 00 00 00 00 00 00
1507916054.105475,can0 08FF0001 [8] 00 00 00 00 00 00 00 00
1507916054.106464,can0 0CF00203 [8] 00 00 00 00 00 00 00 00
1507916054.107166,can0 08FF0303 [8] 00 00 00 00 00 00 00 00
1507916054.115405,can0 08FF0001 [8] 00 00 00 00 00 00 00 00
1507916054.11642,can0 0CF00203 [8] 00 00 00 00 00 00 00 00
1507916054.117121,can0 08FF0303 [8] 00 00 00 00 00 00 00 00
1507916054.126486,can0 08FF0001 [8] 00 00 00 00 00 00 00 00
1507916054.127251,can0 0CF00203 [8] 00 00 00 00 00 00 00 00
1507916054.128013,can0 08FF0303 [8] 00 00 00 00 00 00 00 00
1507916054.13549,can0 08FF0001 [8] 00 00 00 00 00 00 00 00
1507916054.136439,can0 0CF00203 [8] 00 00 00 00 00 00 00 00
1507916054.137138,can0 08FF0303 [8] 00 00 00 00 00 00 00 00
1507916054.153402,can0 08FF0001 [8] 00 00 00 00 00 00 00 00
1507916054.154672,can0 0CF00203 [8] 00 00 00 00 00 00 00 00
1507916054.155751,can0 08FF0303 [8] 00 00 00 00 00 00 00 00
1507916054.156545,can0 08FF0001 [8] 00 00 00 00 00 00 00 00
1507916054.157285,can0 0CF00203 [8] 00 00 00 00 00 00 00 00
1507916054.157931,can0 08FF0303 [8] 00 00 00 00 00 00 00 00
1507916054.166524,can0 08FF0001 [8] 00 00 00 00 00 00 00 00
1507916054.167397,can0 0CF00203 [8] 00 00 00 00 00 00 00 00
1507916054.168073,can0 08FF0303 [8] 00 00 00 00 00 00 00 00
1507916054.175397,can0 08FF0001 [8] 00 00 00 00 00 00 00 00
1507916054.176188,can0 0CF00203 [8] 00 00 00 00 00 00 00 00
1507916054.177006,can0 08FF0303 [8] 00 00 00 00 00 00 00 00
1507916054.188498,can0 08FF0001 [8] 00 00 00 00 00 00 00 00
1507916054.189449,can0 0CF00203 [8] 00 00 00 00 00 00 00 00
1507916054.190364,can0 08FF0303 [8] 00 00 00 00 00 00 00 00
1507916054.191122,can0 18F00503 [8] 00 00 00 00 00 00 00 00
1507916054.196375,can0 08FF0001 [8] 00 00 00 00 00 00 00 00
1507916054.197157,can0 0CF00203 [8] 00 00 00 00 00 00 00 00
1507916054.197821,can0 08FF0303 [8] 00 00 00 00 00 00 00 00
1507916054.205489,can0 08FF0001 [8] 00 00 00 00 00 00 00 00
1507916054.20649,can0 0CF00203 [8] 00 00 00 00 00 00 00 00
1507916054.207181,can0 08FF0303 [8] 00 00 00 00 00 00 00 00
1507916054.21544,can0 08FF0001 [8] 00 00 00 00 00 00 00 00
1507916054.216426,can0 0CF00203 [8] 00 00 00 00 00 00 00 00
1507916054.217108,can0 08FF0303 [8] 00 00 00 00 00 00 00 00
1507916053.9946,can1 18FEF017 [8] 00 00 00 00 00 00 00 00
1507916053.997177,can1 18FEF021 [8] 00 00 00 00 00 00 00 00
1507916053.9977,can1 18FEF028 [8] 00 00 00 00 00 00 00 00
1507916053.998132,can1 18FEF031 [8] 00 00 00 00 00 00 00 00
1507916054.007108,can1 0CFE6E0B [8] 00 00 00 00 00 00 00 00
