1507577533.569633,can0 08FF0001 [8] 00 00 00 00 00 00 00 00
1507577533.582443,can0 0CF00203 [8] 00 00 00 00 00 00 00 00
1507577533.584326,can0 08FF0303 [8] 00 00 00 00 00 00 00 00
1507577533.602709,can0 08FF0001 [8] 00 00 00 00 00 00 00 00
1507577533.604897,can0 0CF00203 [8] 00 00 00 00 00 00 00 00
1507577533.618889,can0 08FF0303 [8] 00 00 00 00 00 00 00 00
1507577533.620933,can0 08FF0001 [8] 00 00 00 00 00 00 00 00
1507577533.630372,can0 0CF00203 [8] 00 00 00 00 00 00 00 00
1507577533.632201,can0 08FF0303 [8] 00 00 00 00 00 00 00 00
1507577533.639631,can0 08FF0001 [8] 00 00 00 00 00 00 00 00
1507577533.641257,can0 0CF00203 [8] 00 00 00 00 00 00 00 00
1507577533.649848,can0 08FF0303 [8] 00 00 00 00 00 00 00 00
1507577533.655338,can0 08FF0001 [8] 00 00 00 00 00 00 00 00
1507577533.656715,can0 0CF00203 [8] 00 00 00 00 00 00 00 00
1507577533.658291,can0 08FF0303 [8] 00 00 00 00 00 00 00 00
1507577533.663828,can0 08FF0001 [8] 00 00 00 00 00 00 00 00
1507577533.665245,can0 0CF00203 [8] 00 00 00 00 00 00 00 00
1507577533.666488,can0 08FF0303 [8] 00 00 00 00 00 00 00 00
1507577533.671891,can0 18F00503 [8] 00 00 00 00 00 00 00 00
1507577533.67329,can0 08FF0001 [8] 00 00 00 00 00 00 00 00
1507577533.67867,can0 0CF00203 [8] 00 00 00 00 00 00 00 00
1507577533.680198,can0 08FF0303 [8] 00 00 00 00 00 00 00 00
1507577533.681579,can0 08FF0001 [8] 00 00 00 00 00 00 00 00
1507577533.686905,can0 0CF00203 [8] 00 00 00 00 00 00 00 00
1507577533.688713,can0 08FF0303 [8] 00 00 00 00 00 00 00 00
1507577533.694605,can0 08FF0001 [8] 00 00 00 00 00 00 00 00
1507577533.696429,can0 0CF00203 [8] 00 00 00 00 00 00 00 00
1507577533.697827,can0 08FF0303 [8] 00 00 00 00 00 00 00 00
1507577533.703437,can0 08FF0001 [8] 00 00 00 00 00 00 00 00
1507577533.704834,can0 0CF00203 [8] 00 00 00 00 00 00 00 00
1507577533.718406,can0 08FF0303 [8] 00 00 00 00 00 00 00 00
1507577533.720461,can0 08FF0001 [8] 00 00 00 00 00 00 00 00
1507577533.731436,can0 0CF00203 [8] 00 00 00 00 00 00 00 00
1507577533.732019,can0 08FF0303 [8] 00 00 00 00 00 00 00 00
1507577533.732464,can0 08FF0001 [8] 00 00 00 00 00 00 00 00
1507577533.732875,can0 0CF00203 [8] 00 00 00 00 00 00 00 00
1507577533.733351,can0 08FF0303 [8] 00 00 00 00 00 00 00 00
1507577533.73377,can0 08FF0001 [8] 00 00 00 00 00 00 00 00
1507577533.734169,can0 0CF00203 [8] 00 00 00 00 00 00 00 00
1507577533.734559,can0 08FF0303 [8] 00 00 00 00 00 00 00 00
1507577533.734937,can0 08FF0001 [8] 00 00 00 00 00 00 00 00
1507577533.740099,can0 0CF00203 [8] 00 00 00 00 00 00 00 00
1507577533.740682,can0 08FF0303 [8] 00 00 00 00 00 00 00 00
1507577533.741231,can0 08FF0001 [8] 00 00 00 00 00 00 00 00
1507577533.741671,can0 0CF00203 [8] 00 00 00 00 00 00 00 00
1507577533.742075,can0 08FF0303 [8] 00 00 00 00 00 00 00 00
1507577533.742462,can0 08FF0001 [8] 00 00 00 00 00 00 00 00
1507577533.749029,can0 0CF00203 [8] 00 00 00 00 00 00 00 00
1507577533.749756,can0 08FF0303 [8] 00 00 00 00 00 00 00 00
1507577533.75024,can0 18F00503 [8] 00 00 00 00 00 00 00 00
1507577533.750735,can0 08FF0001 [8] 00 00 00 00 00 00 00 00
1507577533.751183,can0 0CF00203 [8] 00 00 00 00 00 00 00 00
1507577533.751584,can0 08FF0303 [8] 00 00 00 00 00 00 00 00
1507577533.751975,can0 08FF0001 [8] 00 00 00 00 00 00 00 00
1507577533.752353,can0 0CF00203 [8] 00 00 00 00 00 00 00 00
1507577533.756992,can0 08FF0303 [8] 00 00 00 00 00 00 00 00
1507577533.757648,can0 08FF0001 [8] 00 00 00 00 00 00 00 00
1507577533.758228,can0 0CF00203 [8] 00 00 00 00 00 00 00 00
1507577533.758815,can0 08FF0303 [8] 00 00 00 00 00 00 00 00
1507577533.759325,can0 08FF0001 [8] 00 00 00 00 00 00 00 00
1507577533.759745,can0 0CF00203 [8] 00 00 00 00 00 00 00 00
1507577533.760137,can0 08FF0303 [8] 00 00 00 00 00 00 00 00
1507577533.764637,can0 08FF0001 [8] 00 00 00 00 00 00 00 00
1507577533.765323,can0 0CF00203 [8] 00 00 00 00 00 00 00 00
1507577533.765798,can0 08FF0303 [8] 00 00 00 00 00 00 00 00
1507577533.766209,can0 08FF0001 [8] 00 00 00 00 00 00 00 00
1507577533.76672,can0 0CF00203 [8] 00 00 00 00 00 00 00 00
1507577533.767131,can0 08FF0303 [8] 00 00 00 00 00 00 00 00
1507577533.767517,can0 08FF0001 [8] 00 00 00 00 00 00 00 00
1507577533.77236,can0 0CF00203 [8] 00 00 00 00 00 00 00 00
1507577533.773107,can0 08FF0303 [8] 00 00 00 00 00 00 00 00
1507577533.773613,can0 08FF0001 [8] 00 00 00 00 00 00 00 00
1507577533.774039,can0 0CF00203 [8] 00 00 00 00 00 00 00 00
1507577533.774568,can0 08FF0303 [8] 00 00 00 00 00 00 00 00
1507577533.778335,can0 08FF0001 [8] 00 00 00 00 00 00 00 00
1507577533.779154,can0 0CF00203 [8] 00 00 00 00 00 00 00 00
1507577533.779643,can0 08FF0303 [8] 00 00 00 00 00 00 00 00
1507577533.792022,can0 08FF0001 [8] 00 00 00 00 00 00 00 00
1507577533.792677,can0 0CF00203 [8] 00 00 00 00 00 00 00 00
1507577533.793198,can0 08FF0303 [8] 00 00 00 00 00 00 00 00
1507577533.793688,can0 18F00503 [8] 00 00 00 00 00 00 00 00
1507577533.798264,can0 08FF0001 [8] 00 00 00 00 00 00 00 00
1507577533.798999,can0 0CF00203 [8] 00 00 00 00 00 00 00 00
1507577533.799635,can0 08FF0303 [8] 00 00 00 00 00 00 00 00
1507577533.808269,can0 08FF0001 [8] 00 00 00 00 00 00 00 00
1507577533.808943,can0 0CF00203 [8] 00 00 00 00 00 00 00 00
1507577533.809548,can0 08FF0303 [8] 00 00 00 00 00 00 00 00
1507577533.818173,can0 08FF0001 [8] 00 00 00 00 00 00 00 00
1507577533.818792,can0 0CF00203 [8] 00 00 00 00 00 00 00 00
1507577533.819385,can0 08FF0303 [8] 00 00 00 00 00 00 00 00
1507577533.828157,can0 08FF0001 [8] 00 00 00 00 00 00 00 00
1507577533.828698,can0 0CF00203 [8] 00 00 00 00 00 00 00 00
1507577533.829277,can0 08FF0303 [8] 00 00 00 00 00 00 00 00
1507577533.838184,can0 08FF0001 [8] 00 00 00 00 00 00 00 00
1507577533.838845,can0 0CF00203 [8] 00 00 00 00 00 00 00 00
1507577533.839371,can0 08FF0303 [8] 00 00 00 00 00 00 00 00
1507577533.848997,can0 08FF0001 [8] 00 00 00 00 00 00 00 00
1507577533.849608,can0 0CF00203 [8] 00 00 00 00 00 00 00 00
1507577533.85004,can0 08FF0303 [8] 00 00 00 00 00 00 00 00
1507577533.858167,can0 08FF0001 [8] 00 00 00 00 00 00 00 00
1507577533.85873,can0 0CF00203 [8] 00 00 00 00 00 00 00 00
1507577533.859263,can0 08FF0303 [8] 00 00 00 00 00 00 00 00
1507577533.868902,can0 08FF0001 [8] 00 00 00 00 00 00 00 00
1507577533.869482,can0 0CF00203 [8] 00 00 00 00 00 00 00 00
1507577533.869996,can0 08FF0303 [8] 00 00 00 00 00 00 00 00
1507577533.878147,can0 08FF0001 [8] 00 00 00 00 00 00 00 00
1507577533.878703,can0 0CF00203 [8] 00 00 00 00 00 00 00 00
1507577533.879269,can0 08FF0303 [8] 00 00 00 00 00 00 00 00
1507577533.891601,can0 08FF0001 [8] 00 00 00 00 00 00 00 00
1507577533.892214,can0 0CF00203 [8] 00 00 00 00 00 00 00 00
1507577533.892719,can0 08FF0303 [8] 00 00 00 00 00 00 00 00
1507577533.893204,can0 18F00503 [8] 00 00 00 00 00 00 00 00
1507577533.898159,can0 08FF0001 [8] 00 00 00 00 00 00 00 00
1507577533.898753,can0 0CF00203 [8] 00 00 00 00 00 00 00 00
1507577533.899325,can0 08FF0303 [8] 00 00 00 00 00 00 00 00
1507577533.908198,can0 08FF0001 [8] 00 00 00 00 00 00 00 00
1507577533.908801,can0 0CF00203 [8] 00 00 00 00 00 00 00 00
1507577533.909389,can0 08FF0303 [8] 00 00 00 00 00 00 00 00
1507577533.918171,can0 08FF0001 [8] 00 00 00 00 00 00 00 00
1507577533.918822,can0 0CF00203 [8] 00 00 00 00 00 00 00 00
1507577533.919354,can0 08FF0303 [8] 00 00 00 00 00 00 00 00
1507577533.928921,can0 08FF0001 [8] 00 00 00 00 00 00 00 00
1507577533.929508,can0 0CF00203 [8] 00 00 00 00 00 00 00 00
1507577533.929942,can0 08FF0303 [8] 00 00 00 00 00 00 00 00
1507577533.93814,can0 08FF0001 [8] 00 00 00 00 00 00 00 00
1507577533.938714,can0 0CF00203 [8] 00 00 00 00 00 00 00 00
1507577533.939276,can0 08FF0303 [8] 00 00 00 00 00 00 00 00
1507577533.948925,can0 08FF0001 [8] 00 00 00 00 00 00 00 00
1507577533.949533,can0 0CF00203 [8] 00 00 00 00 00 00 00 00
1507577533.950036,can0 08FF0303 [8] 00 00 00 00 00 00 00 00
1507577533.958136,can0 08FF0001 [8] 00 00 00 00 00 00 00 00
1507577533.958664,can0 0CF00203 [8] 00 00 00 00 00 00 00 00
1507577533.959289,can0 08FF0303 [8] 00 00 00 00 00 00 00 00
1507577533.968905,can0 08FF0001 [8] 00 00 00 00 00 00 00 00
1507577533.969555,can0 0CF00203 [8] 00 00 00 00 00 00 00 00
1507577533.616659,can1 18FEF121 [8] 00 00 00 00 00 00 00 00
1507577533.637601,can1 18FEF131 [8] 00 00 00 00 00 00 00 00
1507577533.642264,can1 18E00017 [8] 00 00 00 00 00 00 00 00
1507577533.643862,can1 18E00019 [8] 00 00 00 00 00 00 00 00
1507577533.651368,can1 18E00021 [8] 00 00 00 00 00 00 00 00
1507577533.653205,can1 18E00028 [8] 00 00 00 00 00 00 00 00
1507577533.654584,can1 18E00031 [8] 00 00 00 00 00 00 00 00
1507577533.660123,can1 18FEF017 [8] 00 00 00 00 00 00 00 00
1507577533.661748,can1 18FEF021 [8] 00 00 00 00 00 00 00 00
1507577533.6671,can1 18FEF028 [8] 00 00 00 00 00 00 00 00
1507577533.668912,can1 18FEF031 [8] 00 00 00 00 00 00 00 00
1507577533.670346,can1 18F0010B [8] CF FF F0 FF FF DC FF FF
1507577533.675857,can1 0CFE6E0B [8] 00 00 00 00 00 00 00 00
1507577533.677271,can1 18FEBF0B [8] 00 00 7D 7D FE FE FF FF
1507577533.68278,can1 0CFE6E0B [8] 00 00 00 00 00 00 00 00
1507577533.684108,can1 0CFE6E0B [8] 00 00 00 00 00 00 00 00
1507577533.685485,can1 0CFE6E0B [8] 00 00 00 00 00 00 00 00
1507577533.691009,can1 0CFE6E0B [8] 00 00 00 00 00 00 00 00
1507577533.692805,can1 18F00131 [8] 00 00 00 00 00 00 00 00
1507577533.698438,can1 18F0010B [8] 00 00 00 00 00 00 00 00
1507577533.700153,can1 18FEF117 [8] 00 00 00 00 00 00 00 00
1507577533.701431,can1 18FEF128 [8] 00 00 00 00 00 00 00 00
1507577533.710293,can1 18FEF121 [8] 00 00 00 00 00 00 00 00
1507577533.712115,can1 18FEF131 [8] 00 00 00 00 00 00 00 00
1507577533.727332,can1 18E00017 [8] 00 00 00 00 00 00 00 00
1507577533.728329,can1 18E00019 [8] 00 00 00 00 00 00 00 00
1507577533.728973,can1 18E00021 [8] 00 00 00 00 00 00 00 00
1507577533.729598,can1 18E00028 [8] 00 00 00 00 00 00 00 00
1507577533.730034,can1 18E00031 [8] 00 00 00 00 00 00 00 00
1507577533.730427,can1 18FEF017 [8] 00 00 00 00 00 00 00 00
1507577533.730808,can1 18FEF021 [8] 00 00 00 00 00 00 00 00
1507577533.742934,can1 18FEF028 [8] 00 00 00 00 00 00 00 00
1507577533.743562,can1 18FEF031 [8] 00 00 00 00 00 00 00 00
1507577533.744023,can1 18F0010B [8] CF FF F0 FF FF DC FF FF
1507577533.744441,can1 0CFE6E0B [8] 00 00 00 00 00 00 00 00
1507577533.744909,can1 18FEBF0B [8] 00 00 7D 7D FE FE FF FF
1507577533.745336,can1 0CFE6E0B [8] 00 00 00 00 00 00 00 00
1507577533.748291,can1 0CFE6E0B [8] 00 00 00 00 00 00 00 00
1507577533.768303,can1 0CFE6E0B [8] 00 00 00 00 00 00 00 00
1507577533.788351,can1 0CFE6E0B [8] 00 00 00 00 00 00 00 00
1507577533.789298,can1 18F00131 [8] 00 00 00 00 00 00 00 00
1507577533.789982,can1 18F0010B [8] 00 00 00 00 00 00 00 00
1507577533.790527,can1 18FEF117 [8] 00 00 00 00 00 00 00 00
1507577533.791016,can1 18FEF128 [8] 00 00 00 00 00 00 00 00
1507577533.791486,can1 18FEF121 [8] 00 00 00 00 00 00 00 00
1507577533.800239,can1 18FEF131 [8] 00 00 00 00 00 00 00 00
1507577533.800808,can1 18E00017 [8] 00 00 00 00 00 00 00 00
1507577533.801266,can1 18E00019 [8] 00 00 00 00 00 00 00 00
1507577533.801774,can1 18E00021 [8] 00 00 00 00 00 00 00 00
1507577533.802201,can1 18E00028 [8] 00 00 00 00 00 00 00 00
1507577533.8026,can1 18E00031 [8] 00 00 00 00 00 00 00 00
1507577533.802984,can1 18FEF017 [8] 00 00 00 00 00 00 00 00
1507577533.804051,can1 18FEF021 [8] 00 00 00 00 00 00 00 00
1507577533.804673,can1 18FEF028 [8] 00 00 00 00 00 00 00 00
1507577533.805142,can1 18FEF031 [8] 00 00 00 00 00 00 00 00
1507577533.805704,can1 18F0010B [8] CF FF F0 FF FF DC FF FF
1507577533.810108,can1 0CFE6E0B [8] 00 00 00 00 00 00 00 00
1507577533.813655,can1 18FEBF0B [8] 00 00 7D 7D FE FE FF FF
1507577533.829811,can1 0CFE6E0B [8] 00 00 00 00 00 00 00 00
1507577533.848216,can1 0CFE6E0B [8] 00 00 00 00 00 00 00 00
1507577533.868203,can1 0CFE6E0B [8] 00 00 00 00 00 00 00 00
1507577533.88821,can1 0CFE6E0B [8] 00 00 00 00 00 00 00 00
1507577533.88887,can1 18F00131 [8] 00 00 00 00 00 00 00 00
1507577533.889485,can1 18F0010B [8] 00 00 00 00 00 00 00 00
1507577533.890031,can1 18FEF117 [8] 00 00 00 00 00 00 00 00
1507577533.890512,can1 18FEF128 [8] 00 00 00 00 00 00 00 00
1507577533.890967,can1 18FEF121 [8] 00 00 00 00 00 00 00 00
1507577533.893854,can1 18FEF131 [8] 00 00 00 00 00 00 00 00
1507577533.894439,can1 18E00017 [8] 00 00 00 00 00 00 00 00
1507577533.894938,can1 18E00019 [8] 00 00 00 00 00 00 00 00
1507577533.895424,can1 18E00021 [8] 00 00 00 00 00 00 00 00
1507577533.895913,can1 18E00028 [8] 00 00 00 00 00 00 00 00
1507577533.896386,can1 18E00031 [8] 00 00 00 00 00 00 00 00
1507577533.896864,can1 18FEF017 [8] 00 00 00 00 00 00 00 00
1507577533.897336,can1 18FEF021 [8] 00 00 00 00 00 00 00 00
1507577533.89775,can1 18FEF028 [8] 00 00 00 00 00 00 00 00
1507577533.900068,can1 18FEF031 [8] 00 00 00 00 00 00 00 00
1507577533.90374,can1 18F0010B [8] CF FF F0 FF FF DC FF FF
1507577533.909916,can1 0CFE6E0B [8] 00 00 00 00 00 00 00 00
1507577533.913764,can1 18FEBF0B [8] 00 00 7D 7D FE FE FF FF
1507577533.92819,can1 0CFE6E0B [8] 00 00 00 00 00 00 00 00
1507577533.948204,can1 0CFE6E0B [8] 00 00 00 00 00 00 00 00
1507577533.968203,can1 0CFE6E0B [8] 00 00 00 00 00 00 00 00
1507577533.988244,can1 0CFE6E0B [8] 00 00 00 00 00 00 00 00
1507577533.989006,can1 18F00131 [8] 00 00 00 00 00 00 00 00
1507577533.989615,can1 18F0010B [8] 00 00 00 00 00 00 00 00
1507577533.990154,can1 18FEF117 [8] 00 00 00 00 00 00 00 00
1507577533.990634,can1 18FEF128 [8] 00 00 00 00 00 00 00 00
1507577533.991161,can1 18FEF121 [8] 00 00 00 00 00 00 00 00
1507577533.991645,can1 18FEF131 [8] 00 00 00 00 00 00 00 00
1507577533.994555,can1 18E00017 [8] 00 00 00 00 00 00 00 00
1507577533.995205,can1 18E00019 [8] 00 00 00 00 00 00 00 00
1507577533.99572,can1 18E00021 [8] 00 00 00 00 00 00 00 00
1507577533.996203,can1 18E00028 [8] 00 00 00 00 00 00 00 00
1507577533.996608,can1 18E00031 [8] 00 00 00 00 00 00 00 00
1507577533.997132,can1 18FEF017 [8] 00 00 00 00 00 00 00 00
1507577533.997541,can1 18FEF021 [8] 00 00 00 00 00 00 00 00
1507577533.999796,can1 18FEF028 [8] 00 00 00 00 00 00 00 00
1507577534.000309,can1 18FEF031 [8] 00 00 00 00 00 00 00 00
1507577534.003863,can1 18F0010B [8] CF FF F0 FF FF DC FF FF
1507577534.009924,can1 0CFE6E0B [8] 00 00 00 00 00 00 00 00
1507577534.013886,can1 18FEBF0B [8] 00 00 7D 7D FE FE FF FF
1507577534.032593,can1 0CFE6E0B [8] 00 00 00 00 00 00 00 00
1507577534.048367,can1 0CFE6E0B [8] 00 00 00 00 00 00 00 00
1507577534.068343,can1 0CFE6E0B [8] 00 00 00 00 00 00 00 00
1507577534.088337,can1 0CFE6E0B [8] 00 00 00 00 00 00 00 00
1507577534.09033,can1 18F00131 [8] 00 00 00 00 00 00 00 00
1507577534.091484,can1 18F0010B [8] 00 00 00 00 00 00 00 00
1507577534.092304,can1 18FEF117 [8] 00 00 00 00 00 00 00 00
1507577534.093211,can1 18FEF128 [8] 00 00 00 00 00 00 00 00
1507577534.093955,can1 18FEF121 [8] 00 00 00 00 00 00 00 00
1507577534.098299,can1 18FEF131 [8] 00 00 00 00 00 00 00 00
1507577534.099309,can1 18E00017 [8] 00 00 00 00 00 00 00 00
1507577534.099997,can1 18E00019 [8] 00 00 00 00 00 00 00 00
1507577534.100708,can1 18E00021 [8] 00 00 00 00 00 00 00 00
1507577534.101344,can1 18E00028 [8] 00 00 00 00 00 00 00 00
1507577534.101951,can1 18E00031 [8] 00 00 00 00 00 00 00 00
1507577534.105106,can1 18FEF017 [8] 00 00 00 00 00 00 00 00
1507577534.105821,can1 18FEF021 [8] 00 00 00 00 00 00 00 00
1507577534.106554,can1 18FEF028 [8] 00 00 00 00 00 00 00 00
1507577534.107192,can1 18FEF031 [8] 00 00 00 00 00 00 00 00
1507577534.107803,can1 18F0010B [8] CF FF F0 FF FF DC FF FF
1507577534.111252,can1 0CFE6E0B [8] 00 00 00 00 00 00 00 00
1507577534.114268,can1 18FEBF0B [8] 00 00 7D 7D FE FE FF FF
1507577534.130687,can1 0CFE6E0B [8] 00 00 00 00 00 00 00 00
1507577534.148368,can1 0CFE6E0B [8] 00 00 00 00 00 00 00 00
1507577534.168327,can1 0CFE6E0B [8] 00 00 00 00 00 00 00 00
1507577534.188383,can1 0CFE6E0B [8] 00 00 00 00 00 00 00 00
1507577534.18942,can1 18F00131 [8] 00 00 00 00 00 00 00 00
1507577534.190391,can1 18F0010B [8] 00 00 00 00 00 00 00 00
1507577534.19115,can1 18FEF117 [8] 00 00 00 00 00 00 00 00
1507577534.191872,can1 18FEF128 [8] 00 00 00 00 00 00 00 00
1507577534.196351,can1 18FEF121 [8] 00 00 00 00 00 00 00 00
1507577534.197143,can1 18FEF131 [8] 00 00 00 00 00 00 00 00
1507577534.19779,can1 18E00017 [8] 00 00 00 00 00 00 00 00
1507577533.970749,can0 08FF0303 [8] 00 00 00 00 00 00 00 00
1507577533.9782,can0 08FF0001 [8] 00 00 00 00 00 00 00 00
1507577533.978795,can0 0CF00203 [8] 00 00 00 00 00 00 00 00
1507577533.979363,can0 08FF0303 [8] 00 00 00 00 00 00 00 00
1507577533.992246,can0 08FF0001 [8] 00 00 00 00 00 00 00 00
1507577533.992929,can0 0CF00203 [8] 00 00 00 00 00 00 00 00
1507577533.993474,can0 08FF0303 [8] 00 00 00 00 00 00 00 00
1507577533.993972,can0 18F00503 [8] 00 00 00 00 00 00 00 00
1507577533.998164,can0 08FF0001 [8] 00 00 00 00 00 00 00 00
1507577533.998808,can0 0CF00203 [8] 00 00 00 00 00 00 00 00
1507577533.999351,can0 08FF0303 [8] 00 00 00 00 00 00 00 00
1507577534.008204,can0 08FF0001 [8] 00 00 00 00 00 00 00 00
1507577534.008864,can0 0CF00203 [8] 00 00 00 00 00 00 00 00
1507577534.009393,can0 08FF0303 [8] 00 00 00 00 00 00 00 00
1507577534.01817,can0 08FF0001 [8] 00 00 00 00 00 00 00 00
1507577534.018819,can0 0CF00203 [8] 00 00 00 00 00 00 00 00
1507577534.01933,can0 08FF0303 [8] 00 00 00 00 00 00 00 00
1507577534.030411,can0 08FF0001 [8] 00 00 00 00 00 00 00 00
1507577534.03129,can0 0CF00203 [8] 00 00 00 00 00 00 00 00
1507577534.032067,can0 08FF0303 [8] 00 00 00 00 00 00 00 00
1507577534.038334,can0 08FF0001 [8] 00 00 00 00 00 00 00 00
1507577534.039278,can0 0CF00203 [8] 00 00 00 00 00 00 00 00
1507577534.040283,can0 08FF0303 [8] 00 00 00 00 00 00 00 00
1507577534.049448,can0 08FF0001 [8] 00 00 00 00 00 00 00 00
1507577534.050303,can0 0CF00203 [8] 00 00 00 00 00 00 00 00
1507577534.050967,can0 08FF0303 [8] 00 00 00 00 00 00 00 00
1507577534.058254,can0 08FF0001 [8] 00 00 00 00 00 00 00 00
1507577534.059053,can0 0CF00203 [8] 00 00 00 00 00 00 00 00
1507577534.059866,can0 08FF0303 [8] 00 00 00 00 00 00 00 00
1507577534.069533,can0 08FF0001 [8] 00 00 00 00 00 00 00 00
1507577534.070313,can0 0CF00203 [8] 00 00 00 00 00 00 00 00
1507577534.071052,can0 08FF0303 [8] 00 00 00 00 00 00 00 00
1507577534.078259,can0 08FF0001 [8] 00 00 00 00 00 00 00 00
1507577534.079185,can0 0CF00203 [8] 00 00 00 00 00 00 00 00
1507577534.079862,can0 08FF0303 [8] 00 00 00 00 00 00 00 00
1507577534.094791,can0 08FF0001 [8] 00 00 00 00 00 00 00 00
1507577534.095761,can0 0CF00203 [8] 00 00 00 00 00 00 00 00
1507577534.096611,can0 08FF0303 [8] 00 00 00 00 00 00 00 00
1507577534.097361,can0 18F00503 [8] 00 00 00 00 00 00 00 00
1507577534.102565,can0 08FF0001 [8] 00 00 00 00 00 00 00 00
1507577534.1033,can0 0CF00203 [8] 00 00 00 00 00 00 00 00
1507577534.104062,can0 08FF0303 [8] 00 00 00 00 00 00 00 00
1507577534.10836,can0 08FF0001 [8] 00 00 00 00 00 00 00 00
1507577534.109285,can0 0CF00203 [8] 00 00 00 00 00 00 00 00
1507577534.109961,can0 08FF0303 [8] 00 00 00 00 00 00 00 00
1507577534.118319,can0 08FF0001 [8] 00 00 00 00 00 00 00 00
1507577534.11927,can0 0CF00203 [8] 00 00 00 00 00 00 00 00
1507577534.12005,can0 08FF0303 [8] 00 00 00 00 00 00 00 00
1507577534.128298,can0 08FF0001 [8] 00 00 00 00 00 00 00 00
1507577534.129176,can0 0CF00203 [8] 00 00 00 00 00 00 00 00
1507577534.129917,can0 08FF0303 [8] 00 00 00 00 00 00 00 00
1507577534.138308,can0 08FF0001 [8] 00 00 00 00 00 00 00 00
1507577534.139238,can0 0CF00203 [8] 00 00 00 00 00 00 00 00
1507577534.140011,can0 08FF0303 [8] 00 00 00 00 00 00 00 00
1507577534.149487,can0 08FF0001 [8] 00 00 00 00 00 00 00 00
1507577534.150278,can0 0CF00203 [8] 00 00 00 00 00 00 00 00
1507577534.150954,can0 08FF0303 [8] 00 00 00 00 00 00 00 00
1507577534.158261,can0 08FF0001 [8] 00 00 00 00 00 00 00 00
1507577534.15917,can0 0CF00203 [8] 00 00 00 00 00 00 00 00
1507577534.159855,can0 08FF0303 [8] 00 00 00 00 00 00 00 00
1507577534.169485,can0 08FF0001 [8] 00 00 00 00 00 00 00 00
1507577534.170251,can0 0CF00203 [8] 00 00 00 00 00 00 00 00
1507577534.171009,can0 08FF0303 [8] 00 00 00 00 00 00 00 00
1507577534.178256,can0 08FF0001 [8] 00 00 00 00 00 00 00 00
1507577534.179171,can0 0CF00203 [8] 00 00 00 00 00 00 00 00
1507577534.179836,can0 08FF0303 [8] 00 00 00 00 00 00 00 00
1507577534.192406,can0 08FF0001 [8] 00 00 00 00 00 00 00 00
1507577534.193341,can0 0CF00203 [8] 00 00 00 00 00 00 00 00
1507577534.19417,can0 08FF0303 [8] 00 00 00 00 00 00 00 00
1507577534.194993,can0 18F00503 [8] 00 00 00 00 00 00 00 00
1507577534.200305,can0 08FF0001 [8] 00 00 00 00 00 00 00 00
1507577534.201129,can0 0CF00203 [8] 00 00 00 00 00 00 00 00
1507577534.20181,can0 08FF0303 [8] 00 00 00 00 00 00 00 00
1507577534.210088,can0 08FF0001 [8] 00 00 00 00 00 00 00 00
1507577534.210998,can0 0CF00203 [8] 00 00 00 00 00 00 00 00
1507577534.211785,can0 08FF0303 [8] 00 00 00 00 00 00 00 00
1507577534.218322,can0 08FF0001 [8] 00 00 00 00 00 00 00 00
1507577534.21933,can0 0CF00203 [8] 00 00 00 00 00 00 00 00
1507577534.220137,can0 08FF0303 [8] 00 00 00 00 00 00 00 00
1507577534.229679,can0 08FF0001 [8] 00 00 00 00 00 00 00 00
1507577534.230521,can0 0CF00203 [8] 00 00 00 00 00 00 00 00
1507577534.231276,can0 08FF0303 [8] 00 00 00 00 00 00 00 00
1507577534.238364,can0 08FF0001 [8] 00 00 00 00 00 00 00 00
1507577534.239505,can0 0CF00203 [8] 00 00 00 00 00 00 00 00
1507577534.240212,can0 08FF0303 [8] 00 00 00 00 00 00 00 00
1507577534.253011,can0 08FF0001 [8] 00 00 00 00 00 00 00 00
1507577534.253835,can0 0CF00203 [8] 00 00 00 00 00 00 00 00
1507577534.254501,can0 08FF0303 [8] 00 00 00 00 00 00 00 00
1507577534.258908,can0 08FF0001 [8] 00 00 00 00 00 00 00 00
1507577534.259815,can0 0CF00203 [8] 00 00 00 00 00 00 00 00
1507577534.260574,can0 08FF0303 [8] 00 00 00 00 00 00 00 00
1507577534.269777,can0 08FF0001 [8] 00 00 00 00 00 00 00 00
1507577534.270695,can0 0CF00203 [8] 00 00 00 00 00 00 00 00
1507577534.271385,can0 08FF0303 [8] 00 00 00 00 00 00 00 00
1507577534.278414,can0 08FF0001 [8] 00 00 00 00 00 00 00 00
1507577534.279455,can0 0CF00203 [8] 00 00 00 00 00 00 00 00
1507577534.280266,can0 08FF0303 [8] 00 00 00 00 00 00 00 00
1507577534.292139,can0 08FF0001 [8] 00 00 00 00 00 00 00 00
1507577534.29304,can0 0CF00203 [8] 00 00 00 00 00 00 00 00
1507577534.293965,can0 08FF0303 [8] 00 00 00 00 00 00 00 00
1507577534.294736,can0 18F00503 [8] 00 00 00 00 00 00 00 00
1507577534.298301,can0 08FF0001 [8] 00 00 00 00 00 00 00 00
1507577534.299279,can0 0CF00203 [8] 00 00 00 00 00 00 00 00
1507577534.30007,can0 08FF0303 [8] 00 00 00 00 00 00 00 00
1507577534.308429,can0 08FF0001 [8] 00 00 00 00 00 00 00 00
1507577534.309607,can0 0CF00203 [8] 00 00 00 00 00 00 00 00
1507577534.310357,can0 08FF0303 [8] 00 00 00 00 00 00 00 00
1507577534.318325,can0 08FF0001 [8] 00 00 00 00 00 00 00 00
1507577534.319368,can0 0CF00203 [8] 00 00 00 00 00 00 00 00
1507577534.320075,can0 08FF0303 [8] 00 00 00 00 00 00 00 00
1507577534.32831,can0 08FF0001 [8] 00 00 00 00 00 00 00 00
1507577534.329244,can0 0CF00203 [8] 00 00 00 00 00 00 00 00
1507577534.329919,can0 08FF0303 [8] 00 00 00 00 00 00 00 00
1507577534.338337,can0 08FF0001 [8] 00 00 00 00 00 00 00 00
1507577534.339349,can0 0CF00203 [8] 00 00 00 00 00 00 00 00
1507577534.340039,can0 08FF0303 [8] 00 00 00 00 00 00 00 00
1507577534.349534,can0 08FF0001 [8] 00 00 00 00 00 00 00 00
1507577534.350398,can0 0CF00203 [8] 00 00 00 00 00 00 00 00
1507577534.351097,can0 08FF0303 [8] 00 00 00 00 00 00 00 00
1507577534.358328,can0 08FF0001 [8] 00 00 00 00 00 00 00 00
1507577534.359188,can0 0CF00203 [8] 00 00 00 00 00 00 00 00
1507577534.359851,can0 08FF0303 [8] 00 00 00 00 00 00 00 00
1507577534.369468,can0 08FF0001 [8] 00 00 00 00 00 00 00 00
1507577534.370327,can0 0CF00203 [8] 00 00 00 00 00 00 00 00
1507577534.371007,can0 08FF0303 [8] 00 00 00 00 00 00 00 00
1507577534.378277,can0 08FF0001 [8] 00 00 00 00 00 00 00 00
1507577534.379058,can0 0CF00203 [8] 00 00 00 00 00 00 00 00
1507577534.379881,can0 08FF0303 [8] 00 00 00 00 00 00 00 00
1507577534.391693,can0 08FF0001 [8] 00 00 00 00 00 00 00 00
1507577534.392543,can0 0CF00203 [8] 00 00 00 00 00 00 00 00
1507577534.393446,can0 08FF0303 [8] 00 00 00 00 00 00 00 00
1507577534.394194,can0 18F00503 [8] 00 00 00 00 00 00 00 00
1507577534.399481,can0 08FF0001 [8] 00 00 00 00 00 00 00 00
1507577534.400245,can0 0CF00203 [8] 00 00 00 00 00 00 00 00
1507577534.400907,can0 08FF0303 [8] 00 00 00 00 00 00 00 00
1507577534.19955,can1 18E00019 [8] 00 00 00 00 00 00 00 00
1507577534.202941,can1 18E00021 [8] 00 00 00 00 00 00 00 00
1507577534.203682,can1 18E00028 [8] 00 00 00 00 00 00 00 00
1507577534.204578,can1 18E00031 [8] 00 00 00 00 00 00 00 00
1507577534.205231,can1 18FEF017 [8] 00 00 00 00 00 00 00 00
