1526919068.572026,can1 18FEF121 [8] 00 00 00 00 00 00 00 00
1526919068.581271,can1 18FEF128 [8] 00 00 00 00 00 00 00 00
1526919068.58299,can1 18FEF131 [8] 00 00 00 00 00 00 00 00
1526919068.592778,can1 18E00017 [8] 00 00 00 00 00 00 00 00
1526919068.594446,can1 0CF00400 [8] 38 FE FE FE FE 00 FF FE
1526919068.607111,can1 18E00019 [8] 00 00 00 00 00 00 00 00
1526919068.617166,can1 0CF00203 [8] FF 00 00 FF FF AD 47 03
1526919068.619109,can1 18E00021 [8] 00 00 00 00 00 00 00 00
1526919068.628848,can1 18E00028 [8] 00 00 00 00 00 00 00 00
1526919068.637295,can1 18E00031 [8] 00 00 00 00 00 00 00 00
1526919068.639359,can1 18F00100 [8] FF FF FF FF FA FF FF FF
1526919068.649132,can1 18FEF017 [8] 00 00 00 00 00 00 00 00
1526919068.655466,can1 18FEF021 [8] 00 00 00 00 00 00 00 00
1526919068.657131,can1 18FEF028 [8] 00 00 00 00 00 00 00 00
1526919068.666846,can1 18FEF031 [8] 00 00 00 00 00 00 00 00
1526919068.668764,can1 0CF00400 [8] 38 FE FE FE FE 00 FF FE
1526919068.67862,can1 0CF00203 [8] FF 00 00 FF FF AD 47 03
1526919068.680126,can1 18F0000F [8] 00 7D FF FF 0F 7D FF FF
1526919068.689693,can1 0CFE6E0B [8] 00 00 00 00 00 00 00 00
1526919068.691168,can1 0CFE6E0B [8] 00 00 00 00 00 00 00 00
1526919068.702862,can1 0CF00400 [8] 38 FE FE FE FE 00 FF FE
1526919068.708905,can1 0CF00203 [8] FF 00 00 FF FF AD 47 03
1526919068.713851,can1 18FF3000 [8] 00 00 FF FF FF FF FF FF
1526919068.715835,can1 0CF00400 [8] 38 FE FE FE FE 00 FF FE
1526919068.726534,can1 0CF00203 [8] FF 00 00 FF FF AD 47 03
1526919068.736841,can1 0CF00300 [8] D1 00 FE FF FF FF 00 FF
1526919068.739063,can1 14FFA000 [8] FC FF FF FF FF FF FF FF
1526919068.748882,can1 18FEF200 [8] 00 00 00 00 00 00 FF FF
1526919068.750413,can1 0CFE6E0B [8] 00 00 00 00 00 00 00 00
1526919068.764079,can1 0CFE6E0B [8] 00 00 00 00 00 00 00 00
1526919068.766248,can1 18F0010B [8] CF FF F0 FF FF DC FF FF
1526919068.776144,can1 0CF00400 [8] 38 FE FE FE FE 00 FF FE
1526919068.777959,can1 0CF00203 [8] FF 00 00 FF FF AD 47 03
1526919068.787935,can1 18FEDF00 [8] FE FE FE FF FE FF BF FF
1526919068.789592,can1 18FEBF0B [8] 00 00 7D 7D 7D 7D FF FF
1526919068.799192,can1 0CF00400 [8] 38 FE FE FE FE 00 FF FE
1526919068.808323,can1 0CF00203 [8] FF 00 00 FF FF AD 47 03
1526919068.82358,can1 0CFE6E0B [8] 00 00 00 00 00 00 00 00
1526919068.824394,can1 0CFE6E0B [8] 00 00 00 00 00 00 00 00
1526919068.825096,can1 0CF00400 [8] 38 FE FE FE FE 00 FF FE
1526919068.825801,can1 0CF00203 [8] FF 00 00 FF FF AD 47 03
1526919068.826298,can1 18FEF000 [8] FF FF FF 00 00 FC 00 FF
1526919068.826847,can1 0CF00400 [8] 38 FE FE FE FE 00 FF FE
1526919068.831369,can1 0CF00203 [8] FF 00 00 FF FF AD 47 03
1526919068.831983,can1 18FEE000 [8] A2 01 00 00 A2 01 00 00
1526919068.832505,can1 0CFE6E0B [8] 00 00 00 00 00 00 00 00
1526919068.832992,can1 0CFE6E0B [8] 00 00 00 00 00 00 00 00
1526919068.833549,can1 0CF00400 [8] 38 FE FE FE FE 00 FF FE
1526919068.834024,can1 0CF00203 [8] FF 00 00 FF FF AD 47 03
1526919068.834483,can1 0CF00300 [8] D1 00 FE FF FF FF 00 FF
1526919068.842861,can1 18FEF100 [8] C3 00 00 D0 00 00 00 30
1526919068.843587,can1 0CF00400 [8] 38 FE FE FE FE 00 FF FE
1526919068.84407,can1 0CF00203 [8] FF 00 00 FF FF AD 47 03
1526919068.84449,can1 18FEDF00 [8] FE FE FE FF FE FF BF FF
1526919068.845104,can1 18FE4A03 [8] FF FF F3 FF F0 F7 FF FF
1526919068.845649,can1 18F00503 [8] FF 57 9E FF 20 2D 2D 2D
1526919068.846141,can1 0CFE6E0B [8] 00 00 00 00 00 00 00 00
1526919068.84654,can1 18F00131 [8] 00 00 00 00 00 00 00 00
1526919068.855027,can1 18F0010B [8] 00 00 00 00 00 00 00 00
1526919068.85566,can1 18FEF117 [8] 00 00 00 00 00 00 00 00
1526919068.856184,can1 0CFE6E0B [8] 00 00 00 00 00 00 00 00
1526919068.856674,can1 18F00131 [8] 00 00 00 00 00 00 00 00
1526919068.857178,can1 18F0010B [8] 00 00 00 00 00 00 00 00
1526919068.857649,can1 18FEF117 [8] 00 00 00 00 00 00 00 00
1526919068.858058,can1 18FEF121 [8] 00 00 00 00 00 00 00 00
1526919068.866485,can1 18FEF121 [8] 00 00 00 00 00 00 00 00
1526919068.867174,can1 18FEF128 [8] 00 00 00 00 00 00 00 00
1526919068.86771,can1 18FEF131 [8] 00 00 00 00 00 00 00 00
1526919068.868245,can1 18E00017 [8] 00 00 00 00 00 00 00 00
1526919068.868696,can1 0CF00400 [8] 38 FE FE FE FE 00 FF FE
1526919068.869104,can1 18E00019 [8] 00 00 00 00 00 00 00 00
1526919068.869491,can1 0CF00203 [8] FF 00 00 FF FF AD 47 03
1526919068.869871,can1 18E00021 [8] 00 00 00 00 00 00 00 00
1526919068.878297,can1 18E00028 [8] 00 00 00 00 00 00 00 00
1526919068.878883,can1 18E00031 [8] 00 00 00 00 00 00 00 00
1526919068.879323,can1 18F00100 [8] FF FF FF FF FA FF FF FF
1526919068.879723,can1 18FEF017 [8] 00 00 00 00 00 00 00 00
1526919068.880204,can1 18FEF021 [8] 00 00 00 00 00 00 00 00
1526919068.880698,can1 18FEF028 [8] 00 00 00 00 00 00 00 00
1526919068.881115,can1 18FEF031 [8] 00 00 00 00 00 00 00 00
1526919068.881512,can1 0CF00400 [8] 38 FE FE FE FE 00 FF FE
1526919068.887876,can1 0CF00203 [8] FF 00 00 FF FF AD 47 03
1526919068.888526,can1 18F0000F [8] 00 7D FF FF 0F 7D FF FF
1526919068.88899,can1 0CFE6E0B [8] 00 00 00 00 00 00 00 00
1526919068.889405,can1 0CFE6E0B [8] 00 00 00 00 00 00 00 00
1526919068.889874,can1 0CF00400 [8] 38 FE FE FE FE 00 FF FE
1526919068.890294,can1 0CF00203 [8] FF 00 00 FF FF AD 47 03
1526919068.890691,can1 18FF3000 [8] 00 00 FF FF FF FF FF FF
1526919068.891081,can1 0CF00400 [8] 38 FE FE FE FE 00 FF FE
1526919068.891465,can1 0CF00203 [8] FF 00 00 FF FF AD 47 03
1526919068.891927,can1 0CF00300 [8] D1 00 FE FF FF FF 00 FF
1526919068.892423,can1 14FFA000 [8] FC FF FF FF FF FF FF FF
1526919068.892886,can1 18FEF200 [8] 00 00 00 00 00 00 FF FF
1526919068.893356,can1 0CFE6E0B [8] 00 00 00 00 00 00 00 00
1526919068.89388,can1 0CFE6E0B [8] 00 00 00 00 00 00 00 00
1526919068.894303,can1 18F0010B [8] CF FF F0 FF FF DC FF FF
1526919068.894818,can1 0CF00400 [8] 38 FE FE FE FE 00 FF FE
1526919068.895267,can1 0CF00203 [8] FF 00 00 FF FF AD 47 03
1526919068.899693,can1 18FEDF00 [8] FE FE FE FF FE FF BF FF
1526919068.900214,can1 18FEBF0B [8] 00 00 7D 7D 7D 7D FF FF
1526919068.900641,can1 0CF00400 [8] 38 FE FE FE FE 00 FF FE
1526919068.901051,can1 0CF00203 [8] FF 00 00 FF FF AD 47 03
1526919068.901509,can1 0CFE6E0B [8] 00 00 00 00 00 00 00 00
1526919068.901932,can1 0CFE6E0B [8] 00 00 00 00 00 00 00 00
1526919068.902419,can1 0CF00400 [8] 38 FE FE FE FE 00 FF FE
1526919068.902938,can1 0CF00203 [8] FF 00 00 FF FF AD 47 03
1526919068.907443,can1 18FEF000 [8] FF FF FF 00 00 FC 00 FF
1526919068.90806,can1 0CF00400 [8] 38 FE FE FE FE 00 FF FE
1526919068.908589,can1 0CF00203 [8] FF 00 00 FF FF AD 47 03
1526919068.908999,can1 18FEE000 [8] A2 01 00 00 A2 01 00 00
1526919068.913957,can1 0CFE6E0B [8] 00 00 00 00 00 00 00 00
1526919068.914639,can1 0CFE6E0B [8] 00 00 00 00 00 00 00 00
1526919068.915324,can1 0CF00400 [8] 38 FE FE FE FE 00 FF FE
1526919068.915855,can1 0CF00203 [8] FF 00 00 FF FF AD 47 03
1526919068.916288,can1 0CF00300 [8] D1 00 FE FF FF FF 00 FF
1526919068.916686,can1 18FEF100 [8] C3 00 00 D0 00 00 00 30
1526919068.92912,can1 0CF00400 [8] 38 FE FE FE FE 00 FF FE
1526919068.929867,can1 0CF00203 [8] FF 00 00 FF FF AD 47 03
1526919068.930426,can1 18FEDF00 [8] FE FE FE FF FE FF BF FF
1526919068.931003,can1 18FE4A03 [8] FF FF F3 FF F0 F7 FF FF
1526919068.931511,can1 18F00503 [8] FF 57 9E FF 20 2D 2D 2D
1526919068.931937,can1 0CFE6E0B [8] 00 00 00 00 00 00 00 00
1526919068.932408,can1 18F00131 [8] 00 00 00 00 00 00 00 00
1526919068.939096,can1 18F0010B [8] 00 00 00 00 00 00 00 00
1526919068.939742,can1 18FEF117 [8] 00 00 00 00 00 00 00 00
1526919068.940212,can1 0CFE6E0B [8] 00 00 00 00 00 00 00 00
1526919068.940725,can1 18F00131 [8] 00 00 00 00 00 00 00 00
1526919068.941173,can1 18F0010B [8] 00 00 00 00 00 00 00 00
1526919068.941568,can1 18FEF117 [8] 00 00 00 00 00 00 00 00
1526919068.941953,can1 18FEF121 [8] 00 00 00 00 00 00 00 00
1526919068.950319,can1 18FEF121 [8] 00 00 00 00 00 00 00 00
1526919068.95093,can1 18FEF128 [8] 00 00 00 00 00 00 00 00
1526919068.951385,can1 18FEF131 [8] 00 00 00 00 00 00 00 00
1526919068.951794,can1 18E00017 [8] 00 00 00 00 00 00 00 00
1526919068.952345,can1 0CF00400 [8] 38 FE FE FE FE 00 FF FE
1526919068.51395,can0 08FF0001 [8] 00 00 00 00 00 00 00 00
1526919068.537307,can0 0CF00203 [8] 00 00 00 00 00 00 00 00
1526919068.551683,can0 08FF0303 [8] 00 00 00 00 00 00 00 00
1526919068.563928,can0 08FF0001 [8] 00 00 00 00 00 00 00 00
1526919068.566432,can0 0CF00203 [8] 00 00 00 00 00 00 00 00
1526919068.57645,can0 08FF0303 [8] 00 00 00 00 00 00 00 00
1526919068.578599,can0 08FF0001 [8] 00 00 00 00 00 00 00 00
1526919068.588726,can0 0CF00203 [8] 00 00 00 00 00 00 00 00
1526919068.590387,can0 08FF0303 [8] 00 00 00 00 00 00 00 00
1526919068.600203,can0 08FF0001 [8] 00 00 00 00 00 00 00 00
1526919068.610559,can0 0CF00203 [8] 00 00 00 00 00 00 00 00
1526919068.611936,can0 08FF0303 [8] 00 00 00 00 00 00 00 00
1526919068.621428,can0 08FF0001 [8] 00 00 00 00 00 00 00 00
1526919068.623195,can0 0CF00203 [8] 00 00 00 00 00 00 00 00
1526919068.631318,can0 08FF0303 [8] 00 00 00 00 00 00 00 00
1526919068.640986,can0 08FF0001 [8] 00 00 00 00 00 00 00 00
1526919068.642625,can0 0CF00203 [8] 00 00 00 00 00 00 00 00
1526919068.650501,can0 08FF0303 [8] 00 00 00 00 00 00 00 00
1526919068.652234,can0 08FF0001 [8] 00 00 00 00 00 00 00 00
1526919068.661943,can0 0CF00203 [8] 00 00 00 00 00 00 00 00
1526919068.664149,can0 08FF0303 [8] 00 00 00 00 00 00 00 00
1526919068.67408,can0 08FF0001 [8] 00 00 00 00 00 00 00 00
1526919068.67607,can0 0CF00203 [8] 00 00 00 00 00 00 00 00
1526919068.685909,can0 08FF0303 [8] 00 00 00 00 00 00 00 00
1526919068.687877,can0 08FF0001 [8] 00 00 00 00 00 00 00 00
1526919068.697749,can0 0CF00203 [8] 00 00 00 00 00 00 00 00
1526919068.699473,can0 08FF0303 [8] 00 00 00 00 00 00 00 00
1526919068.710455,can0 08FF0001 [8] 00 00 00 00 00 00 00 00
1526919068.716015,can0 0CF00203 [8] 00 00 00 00 00 00 00 00
1526919068.717731,can0 08FF0303 [8] 00 00 00 00 00 00 00 00
1526919068.719273,can0 18F00503 [8] 00 00 00 00 00 00 00 00
1526919068.729215,can0 08FF0001 [8] 00 00 00 00 00 00 00 00
1526919068.731102,can0 0CF00203 [8] 00 00 00 00 00 00 00 00
1526919068.740639,can0 08FF0303 [8] 00 00 00 00 00 00 00 00
1526919068.742247,can0 18F00503 [8] 00 00 00 00 00 00 00 00
1526919068.751738,can0 08FF0001 [8] 00 00 00 00 00 00 00 00
1526919068.767343,can0 0CF00203 [8] 00 00 00 00 00 00 00 00
1526919068.769209,can0 08FF0303 [8] 00 00 00 00 00 00 00 00
1526919068.778645,can0 08FF0001 [8] 00 00 00 00 00 00 00 00
1526919068.780108,can0 0CF00203 [8] 00 00 00 00 00 00 00 00
1526919068.78174,can0 08FF0303 [8] 00 00 00 00 00 00 00 00
1526919068.79131,can0 08FF0001 [8] 00 00 00 00 00 00 00 00
1526919068.793062,can0 0CF00203 [8] 00 00 00 00 00 00 00 00
1526919068.803464,can0 08FF0303 [8] 00 00 00 00 00 00 00 00
1526919068.805648,can0 08FF0001 [8] 00 00 00 00 00 00 00 00
1526919068.816527,can0 0CF00203 [8] 00 00 00 00 00 00 00 00
1526919068.817254,can0 08FF0303 [8] 00 00 00 00 00 00 00 00
1526919068.817894,can0 08FF0001 [8] 00 00 00 00 00 00 00 00
1526919068.81842,can0 0CF00203 [8] 00 00 00 00 00 00 00 00
1526919068.818844,can0 08FF0303 [8] 00 00 00 00 00 00 00 00
1526919068.819243,can0 08FF0001 [8] 00 00 00 00 00 00 00 00
1526919068.827813,can0 0CF00203 [8] 00 00 00 00 00 00 00 00
1526919068.828472,can0 08FF0303 [8] 00 00 00 00 00 00 00 00
1526919068.829031,can0 08FF0001 [8] 00 00 00 00 00 00 00 00
1526919068.829609,can0 0CF00203 [8] 00 00 00 00 00 00 00 00
1526919068.830156,can0 08FF0303 [8] 00 00 00 00 00 00 00 00
1526919068.830643,can0 08FF0001 [8] 00 00 00 00 00 00 00 00
1526919068.839123,can0 0CF00203 [8] 00 00 00 00 00 00 00 00
1526919068.839876,can0 08FF0303 [8] 00 00 00 00 00 00 00 00
1526919068.84038,can0 08FF0001 [8] 00 00 00 00 00 00 00 00
1526919068.840811,can0 0CF00203 [8] 00 00 00 00 00 00 00 00
1526919068.841339,can0 08FF0303 [8] 00 00 00 00 00 00 00 00
1526919068.841765,can0 08FF0001 [8] 00 00 00 00 00 00 00 00
1526919068.842237,can0 0CF00203 [8] 00 00 00 00 00 00 00 00
1526919068.84267,can0 08FF0303 [8] 00 00 00 00 00 00 00 00
1526919068.85139,can0 08FF0001 [8] 00 00 00 00 00 00 00 00
1526919068.851954,can0 0CF00203 [8] 00 00 00 00 00 00 00 00
1526919068.852526,can0 08FF0303 [8] 00 00 00 00 00 00 00 00
1526919068.853128,can0 08FF0001 [8] 00 00 00 00 00 00 00 00
1526919068.853631,can0 0CF00203 [8] 00 00 00 00 00 00 00 00
1526919068.854042,can0 08FF0303 [8] 00 00 00 00 00 00 00 00
1526919068.854435,can0 08FF0001 [8] 00 00 00 00 00 00 00 00
1526919068.863115,can0 0CF00203 [8] 00 00 00 00 00 00 00 00
1526919068.863765,can0 08FF0303 [8] 00 00 00 00 00 00 00 00
1526919068.864377,can0 08FF0001 [8] 00 00 00 00 00 00 00 00
1526919068.864958,can0 0CF00203 [8] 00 00 00 00 00 00 00 00
1526919068.86552,can0 08FF0303 [8] 00 00 00 00 00 00 00 00
1526919068.866053,can0 08FF0001 [8] 00 00 00 00 00 00 00 00
1526919068.874808,can0 0CF00203 [8] 00 00 00 00 00 00 00 00
1526919068.875558,can0 08FF0303 [8] 00 00 00 00 00 00 00 00
1526919068.876194,can0 08FF0001 [8] 00 00 00 00 00 00 00 00
1526919068.876663,can0 0CF00203 [8] 00 00 00 00 00 00 00 00
1526919068.877147,can0 08FF0303 [8] 00 00 00 00 00 00 00 00
1526919068.877608,can0 08FF0001 [8] 00 00 00 00 00 00 00 00
1526919068.88346,can0 0CF00203 [8] 00 00 00 00 00 00 00 00
1526919068.884254,can0 08FF0303 [8] 00 00 00 00 00 00 00 00
1526919068.88489,can0 08FF0001 [8] 00 00 00 00 00 00 00 00
1526919068.885411,can0 0CF00203 [8] 00 00 00 00 00 00 00 00
1526919068.885958,can0 08FF0303 [8] 00 00 00 00 00 00 00 00
1526919068.88641,can0 08FF0001 [8] 00 00 00 00 00 00 00 00
1526919068.886824,can0 0CF00203 [8] 00 00 00 00 00 00 00 00
1526919068.887332,can0 08FF0303 [8] 00 00 00 00 00 00 00 00
1526919068.895707,can0 18F00503 [8] 00 00 00 00 00 00 00 00
1526919068.896304,can0 08FF0001 [8] 00 00 00 00 00 00 00 00
1526919068.896755,can0 0CF00203 [8] 00 00 00 00 00 00 00 00
1526919068.897248,can0 08FF0303 [8] 00 00 00 00 00 00 00 00
1526919068.897792,can0 18F00503 [8] 00 00 00 00 00 00 00 00
1526919068.898283,can0 08FF0001 [8] 00 00 00 00 00 00 00 00
1526919068.898695,can0 0CF00203 [8] 00 00 00 00 00 00 00 00
1526919068.899094,can0 08FF0303 [8] 00 00 00 00 00 00 00 00
1526919068.903506,can0 08FF0001 [8] 00 00 00 00 00 00 00 00
1526919068.904113,can0 0CF00203 [8] 00 00 00 00 00 00 00 00
1526919068.904651,can0 08FF0303 [8] 00 00 00 00 00 00 00 00
1526919068.905086,can0 08FF0001 [8] 00 00 00 00 00 00 00 00
1526919068.905637,can0 0CF00203 [8] 00 00 00 00 00 00 00 00
1526919068.906182,can0 08FF0303 [8] 00 00 00 00 00 00 00 00
1526919068.906602,can0 08FF0001 [8] 00 00 00 00 00 00 00 00
1526919068.907109,can0 0CF00203 [8] 00 00 00 00 00 00 00 00
1526919068.910727,can0 08FF0303 [8] 00 00 00 00 00 00 00 00
1526919068.911492,can0 08FF0001 [8] 00 00 00 00 00 00 00 00
1526919068.912016,can0 0CF00203 [8] 00 00 00 00 00 00 00 00
1526919068.912557,can0 08FF0303 [8] 00 00 00 00 00 00 00 00
1526919068.913065,can0 08FF0001 [8] 00 00 00 00 00 00 00 00
1526919068.921584,can0 0CF00203 [8] 00 00 00 00 00 00 00 00
1526919068.922256,can0 08FF0303 [8] 00 00 00 00 00 00 00 00
1526919068.922796,can0 08FF0001 [8] 00 00 00 00 00 00 00 00
1526919068.9234,can0 0CF00203 [8] 00 00 00 00 00 00 00 00
1526919068.923896,can0 08FF0303 [8] 00 00 00 00 00 00 00 00
1526919068.924323,can0 08FF0001 [8] 00 00 00 00 00 00 00 00
1526919068.932741,can0 0CF00203 [8] 00 00 00 00 00 00 00 00
1526919068.933413,can0 08FF0303 [8] 00 00 00 00 00 00 00 00
1526919068.933953,can0 08FF0001 [8] 00 00 00 00 00 00 00 00
1526919068.937608,can0 0CF00203 [8] 00 00 00 00 00 00 00 00
1526919068.938299,can0 08FF0303 [8] 00 00 00 00 00 00 00 00
1526919068.947002,can0 08FF0001 [8] 00 00 00 00 00 00 00 00
1526919068.947655,can0 0CF00203 [8] 00 00 00 00 00 00 00 00
1526919068.948174,can0 08FF0303 [8] 00 00 00 00 00 00 00 00
1526919068.948713,can0 08FF0001 [8] 00 00 00 00 00 00 00 00
1526919068.949144,can0 0CF00203 [8] 00 00 00 00 00 00 00 00
1526919068.949538,can0 08FF0303 [8] 00 00 00 00 00 00 00 00
1526919068.949926,can0 08FF0001 [8] 00 00 00 00 00 00 00 00
1526919068.958356,can0 0CF00203 [8] 00 00 00 00 00 00 00 00
1526919068.960329,can0 08FF0303 [8] 00 00 00 00 00 00 00 00
1526919068.960904,can0 08FF0001 [8] 00 00 00 00 00 00 00 00
1526919068.961364,can0 0CF00203 [8] 00 00 00 00 00 00 00 00
1526919068.953605,can1 18E00019 [8] 00 00 00 00 00 00 00 00
1526919068.966026,can1 0CF00203 [8] FF 00 00 FF FF AD 47 03
1526919068.9668,can1 18E00021 [8] 00 00 00 00 00 00 00 00
1526919068.967445,can1 18E00028 [8] 00 00 00 00 00 00 00 00
1526919068.968054,can1 18E00031 [8] 00 00 00 00 00 00 00 00
1526919068.96859,can1 18F00100 [8] FF FF FF FF FA FF FF FF
1526919068.976253,can1 18FEF017 [8] 00 00 00 00 00 00 00 00
1526919068.980097,can1 18FEF021 [8] 00 00 00 00 00 00 00 00
1526919068.980716,can1 18FEF028 [8] 00 00 00 00 00 00 00 00
1526919068.981298,can1 18FEF031 [8] 00 00 00 00 00 00 00 00
1526919068.98185,can1 0CF00400 [8] 38 FE FE FE FE 00 FF FE
1526919068.982373,can1 0CF00203 [8] FF 00 00 FF FF AD 47 03
1526919068.982857,can1 18F0000F [8] 00 7D FF FF 0F 7D FF FF
1526919068.983321,can1 0CFE6E0B [8] 00 00 00 00 00 00 00 00
1526919068.991786,can1 0CFE6E0B [8] 00 00 00 00 00 00 00 00
1526919068.992381,can1 0CF00400 [8] 38 FE FE FE FE 00 FF FE
1526919068.992895,can1 0CF00203 [8] FF 00 00 FF FF AD 47 03
1526919068.99344,can1 18FF3000 [8] 00 00 FF FF FF FF FF FF
1526919068.993945,can1 0CF00400 [8] 38 FE FE FE FE 00 FF FE
1526919068.994367,can1 0CF00203 [8] FF 00 00 FF FF AD 47 03
1526919068.994831,can1 0CF00300 [8] D1 00 FE FF FF FF 00 FF
1526919069.002824,can1 14FFA000 [8] FC FF FF FF FF FF FF FF
1526919069.003782,can1 18FEF200 [8] 00 00 00 00 00 00 FF FF
1526919069.004372,can1 0CFE6E0B [8] 00 00 00 00 00 00 00 00
1526919069.008919,can1 0CFE6E0B [8] 00 00 00 00 00 00 00 00
1526919069.009501,can1 18F0010B [8] CF FF F0 FF FF DC FF FF
1526919069.009958,can1 0CF00400 [8] 38 FE FE FE FE 00 FF FE
1526919069.01057,can1 0CF00203 [8] FF 00 00 FF FF AD 47 03
1526919069.011105,can1 18FEDF00 [8] FE FE FE FF FE FF BF FF
1526919069.011541,can1 18FEBF0B [8] 00 00 7D 7D 7D 7D FF FF
1526919069.011944,can1 0CF00400 [8] 38 FE FE FE FE 00 FF FE
1526919069.012403,can1 0CF00203 [8] FF 00 00 FF FF AD 47 03
1526919069.012871,can1 0CFE6E0B [8] 00 00 00 00 00 00 00 00
1526919069.013355,can1 0CFE6E0B [8] 00 00 00 00 00 00 00 00
1526919069.01888,can1 0CF00400 [8] 38 FE FE FE FE 00 FF FE
1526919069.019408,can1 0CF00203 [8] FF 00 00 FF FF AD 47 03
1526919069.01984,can1 18FEF000 [8] FF FF FF 00 00 FC 00 FF
1526919069.020242,can1 0CF00400 [8] 38 FE FE FE FE 00 FF FE
1526919069.020698,can1 0CF00203 [8] FF 00 00 FF FF AD 47 03
1526919069.021115,can1 18FEE000 [8] A2 01 00 00 A2 01 00 00
1526919069.021509,can1 0CFE6E0B [8] 00 00 00 00 00 00 00 00
1526919069.021892,can1 0CFE6E0B [8] 00 00 00 00 00 00 00 00
1526919069.022365,can1 0CF00400 [8] 38 FE FE FE FE 00 FF FE
1526919069.026965,can1 0CF00203 [8] FF 00 00 FF FF AD 47 03
1526919069.027569,can1 0CF00300 [8] D1 00 FE FF FF FF 00 FF
1526919069.028078,can1 18FEF100 [8] C3 00 00 D0 00 00 00 30
1526919069.028684,can1 18FDE000 [8] FF FF FF FF FF FF FF FF
1526919069.029232,can1 1CFEAB03 [8] FF FF 7E FF FF FF FF FF
1526919069.029702,can1 0CF00400 [8] 38 FE FE FE FE 00 FF FE
1526919069.030117,can1 0CF00203 [8] FF 00 00 FF FF AD 47 03
1526919069.034756,can1 18FEDF00 [8] FE FE FE FF FE FF BF FF
1526919069.035364,can1 18FE4A03 [8] FF FF F3 FF F0 F7 FF FF
1526919069.035902,can1 18F00503 [8] FF 57 9E FF 20 2D 2D 2D
1526919069.036448,can1 0CFE6E0B [8] 00 00 00 00 00 00 00 00
1526919069.036988,can1 18F00131 [8] 00 00 00 00 00 00 00 00
1526919069.037456,can1 18F0010B [8] 00 00 00 00 00 00 00 00
1526919069.037968,can1 18FEEF00 [8] FF FF FF FF FF FF FF FA
1526919069.042548,can1 0CFE6E0B [8] 00 00 00 00 00 00 00 00
1526919069.043103,can1 18F00131 [8] 00 00 00 00 00 00 00 00
1526919069.043597,can1 18F0010B [8] 00 00 00 00 00 00 00 00
1526919069.044068,can1 18FEF117 [8] 00 00 00 00 00 00 00 00
1526919069.044497,can1 18FEF128 [8] 00 00 00 00 00 00 00 00
1526919069.045019,can1 18FEF121 [8] 00 00 00 00 00 00 00 00
1526919069.045471,can1 18FEF131 [8] 00 00 00 00 00 00 00 00
1526919069.049893,can1 18E00017 [8] 00 00 00 00 00 00 00 00
1526919069.050439,can1 18E00019 [8] 00 00 00 00 00 00 00 00
1526919069.050885,can1 0CF00400 [8] 38 FE FE FE FE 00 FF FE
1526919069.051291,can1 18E00021 [8] 00 00 00 00 00 00 00 00
1526919069.051677,can1 0CF00203 [8] FF 00 00 FF FF AD 47 03
1526919069.052216,can1 18E00028 [8] 00 00 00 00 00 00 00 00
1526919069.052697,can1 18E00031 [8] 00 00 00 00 00 00 00 00
1526919069.053122,can1 18F00100 [8] FF FF FF FF FA FF FF FF
1526919069.053585,can1 18FEF017 [8] 00 00 00 00 00 00 00 00
1526919069.058053,can1 18E0FF00 [8] FF FF FF FF FF F3 FF FF
1526919069.058611,can1 18FEF021 [8] 00 00 00 00 00 00 00 00
1526919069.059028,can1 18FCDC00 [8] E0 FE FE FF FF FF FF FF
1526919069.059418,can1 18FEF028 [8] 00 00 00 00 00 00 00 00
1526919069.059882,can1 18FEF031 [8] 00 00 00 00 00 00 00 00
1526919069.060293,can1 0CF00400 [8] 38 FE FE FE FE 00 FF FE
1526919069.060681,can1 0CF00203 [8] FF 00 00 FF FF AD 47 03
1526919069.061056,can1 18F0000F [8] 00 7D FF FF 0F 7D FF FF
1526919069.061425,can1 0CFE6E0B [8] 00 00 00 00 00 00 00 00
1526919069.065952,can1 0CFE6E0B [8] 00 00 00 00 00 00 00 00
1526919069.06644,can1 0CF00400 [8] 38 FE FE FE FE 00 FF FE
1526919069.066862,can1 0CF00203 [8] FF 00 00 FF FF AD 47 03
1526919069.067377,can1 18FF3000 [8] 00 00 FF FF FF FF FF FF
1526919069.067928,can1 0CF00400 [8] 38 FE FE FE FE 00 FF FE
1526919069.068404,can1 0CF00203 [8] FF 00 00 FF FF AD 47 03
1526919069.068804,can1 0CF00300 [8] D1 00 FE FF FF FF 00 FF
1526919069.069192,can1 14FFA000 [8] FC FF FF FF FF FF FF FF
1526919069.073675,can1 18FEF200 [8] 00 00 00 00 00 00 FF FF
1526919069.074178,can1 0CFE6E0B [8] 00 00 00 00 00 00 00 00
1526919069.074666,can1 18FEF500 [8] FF FF FF FF FF FF FF FF
1526919069.075094,can1 0CFE6E0B [8] 00 00 00 00 00 00 00 00
1526919069.075644,can1 18F0010B [8] CF FF F0 FF FF DC FF FF
1526919069.076128,can1 0CF00400 [8] 38 FE FE FE FE 00 FF FE
1526919069.076525,can1 0CF00203 [8] FF 00 00 FF FF AD 47 03
1526919069.076964,can1 18FEDF00 [8] FE FE FE FF FE FF BF FF
1526919069.084375,can1 18FF6411 [8] F8 FF FF FF FF FF FF FF
1526919069.085252,can1 18FECA11 [8] 03 FF 00 00 00 00 FF FF
1526919069.085821,can1 18FEBF0B [8] 00 00 7D 7D 7D 7D FF FF
1526919069.086259,can1 0CF00400 [8] 38 FE FE FE FE 00 FF FE
1526919069.086667,can1 0CF00203 [8] FF 00 00 FF FF AD 47 03
1526919069.087231,can1 18FEEE00 [8] FF FF FF FF FF FF FF FF
1526919069.087734,can1 0CFE6E0B [8] 00 00 00 00 00 00 00 00
1526919069.088206,can1 0CFE6E0B [8] 00 00 00 00 00 00 00 00
1526919069.088608,can1 0CF00400 [8] 38 FE FE FE FE 00 FF FE
1526919069.089067,can1 0CF00203 [8] FF 00 00 FF FF AD 47 03
1526919069.089479,can1 18FEF000 [8] FF FF FF 00 00 FC 00 FF
1526919069.089867,can1 18FEA400 [8] FF FF FF FF 66 B1 A0 5B
1526919069.09025,can1 18FECA03 [8] 03 FF 00 00 00 00 FF FF
1526919069.090631,can1 0CF00400 [8] 38 FE FE FE FE 00 FF FE
1526919069.095079,can1 0CF00203 [8] FF 00 00 FF FF AD 47 03
1526919069.095666,can1 14FD3E00 [8] FF FF FF FF FF FF FF FF
1526919069.096174,can1 18FEE000 [8] A2 01 00 00 A2 01 00 00
1526919069.096585,can1 0CFE6E0B [8] 00 00 00 00 00 00 00 00
1526919069.097128,can1 0CFE6E0B [8] 00 00 00 00 00 00 00 00
1526919069.097606,can1 0CF00400 [8] 38 FE FE FE FE 00 FF FE
1526919069.098012,can1 0CF00203 [8] FF 00 00 FF FF AD 47 03
1526919069.098472,can1 0CF00300 [8] D1 00 FE FF FF FF 00 FF
1526919069.102918,can1 18FEF100 [8] C3 00 00 D0 00 00 00 30
1526919069.103645,can1 18FEBD00 [8] FF FF FF FF FF FF FF FF
1526919069.104124,can1 18FD0700 [8] 47 F4 C0 FF FF FF FF FF
1526919069.108555,can1 0CF00400 [8] 38 FE FE FE FE 00 FF FE
1526919069.109103,can1 0CF00203 [8] FF 00 00 FF FF AD 47 03
1526919069.109538,can1 18FEDF00 [8] FE FE FE FF FE FF BF FF
1526919069.109928,can1 18FE4A03 [8] FF FF F3 FF F0 F7 FF FF
1526919069.110321,can1 18F00503 [8] FF 57 9E FF 20 2D 2D 2D
1526919069.110981,can1 0CFE6E0B [8] 00 00 00 00 00 00 00 00
1526919069.11142,can1 18F00131 [8] 00 00 00 00 00 00 00 00
1526919069.111814,can1 18F0010B [8] 00 00 00 00 00 00 00 00
1526919069.1122,can1 18FEF117 [8] 00 00 00 00 00 00 00 00
1526919069.112754,can1 0CFE6E0B [8] 00 00 00 00 00 00 00 00
1526919069.11325,can1 18F00131 [8] 00 00 00 00 00 00 00 00
1526919069.113716,can1 18F0010B [8] 00 00 00 00 00 00 00 00
1526919068.970353,can0 08FF0303 [8] 00 00 00 00 00 00 00 00
1526919068.971126,can0 08FF0001 [8] 00 00 00 00 00 00 00 00
1526919068.971626,can0 0CF00203 [8] 00 00 00 00 00 00 00 00
1526919068.972336,can0 08FF0303 [8] 00 00 00 00 00 00 00 00
1526919068.972876,can0 08FF0001 [8] 00 00 00 00 00 00 00 00
1526919068.973376,can0 0CF00203 [8] 00 00 00 00 00 00 00 00
1526919068.973874,can0 08FF0303 [8] 00 00 00 00 00 00 00 00
1526919068.974379,can0 08FF0001 [8] 00 00 00 00 00 00 00 00
1526919068.974866,can0 0CF00203 [8] 00 00 00 00 00 00 00 00
1526919068.975337,can0 08FF0303 [8] 00 00 00 00 00 00 00 00
1526919068.98774,can0 08FF0001 [8] 00 00 00 00 00 00 00 00
1526919068.988491,can0 0CF00203 [8] 00 00 00 00 00 00 00 00
1526919068.988981,can0 08FF0303 [8] 00 00 00 00 00 00 00 00
1526919068.989493,can0 08FF0001 [8] 00 00 00 00 00 00 00 00
1526919068.989947,can0 0CF00203 [8] 00 00 00 00 00 00 00 00
1526919068.990365,can0 08FF0303 [8] 00 00 00 00 00 00 00 00
1526919068.990764,can0 08FF0001 [8] 00 00 00 00 00 00 00 00
1526919068.991161,can0 0CF00203 [8] 00 00 00 00 00 00 00 00
1526919068.999239,can0 08FF0303 [8] 00 00 00 00 00 00 00 00
1526919068.999804,can0 18F00503 [8] 00 00 00 00 00 00 00 00
1526919069.00026,can0 08FF0001 [8] 00 00 00 00 00 00 00 00
1526919069.000677,can0 0CF00203 [8] 00 00 00 00 00 00 00 00
1526919069.001143,can0 08FF0303 [8] 00 00 00 00 00 00 00 00
1526919069.005191,can0 18F00503 [8] 00 00 00 00 00 00 00 00
1526919069.005885,can0 08FF0001 [8] 00 00 00 00 00 00 00 00
1526919069.006373,can0 0CF00203 [8] 00 00 00 00 00 00 00 00
1526919069.006805,can0 08FF0303 [8] 00 00 00 00 00 00 00 00
1526919069.007426,can0 08FF0001 [8] 00 00 00 00 00 00 00 00
1526919069.007912,can0 0CF00203 [8] 00 00 00 00 00 00 00 00
1526919069.008383,can0 08FF0303 [8] 00 00 00 00 00 00 00 00
1526919069.008781,can0 08FF0001 [8] 00 00 00 00 00 00 00 00
1526919069.014423,can0 0CF00203 [8] 00 00 00 00 00 00 00 00
1526919069.015041,can0 08FF0303 [8] 00 00 00 00 00 00 00 00
1526919069.015555,can0 08FF0001 [8] 00 00 00 00 00 00 00 00
1526919069.016039,can0 0CF00203 [8] 00 00 00 00 00 00 00 00
1526919069.016454,can0 08FF0303 [8] 00 00 00 00 00 00 00 00
1526919069.016985,can0 08FF0001 [8] 00 00 00 00 00 00 00 00
1526919069.01742,can0 0CF00203 [8] 00 00 00 00 00 00 00 00
1526919069.017886,can0 08FF0303 [8] 00 00 00 00 00 00 00 00
1526919069.018337,can0 08FF0001 [8] 00 00 00 00 00 00 00 00
1526919069.022847,can0 0CF00203 [8] 00 00 00 00 00 00 00 00
1526919069.023425,can0 08FF0303 [8] 00 00 00 00 00 00 00 00
1526919069.023938,can0 08FF0001 [8] 00 00 00 00 00 00 00 00
1526919069.024369,can0 0CF00203 [8] 00 00 00 00 00 00 00 00
1526919069.025021,can0 08FF0303 [8] 00 00 00 00 00 00 00 00
1526919069.025512,can0 08FF0001 [8] 00 00 00 00 00 00 00 00
1526919069.026033,can0 0CF00203 [8] 00 00 00 00 00 00 00 00
1526919069.030573,can0 08FF0303 [8] 00 00 00 00 00 00 00 00
1526919069.031172,can0 08FF0001 [8] 00 00 00 00 00 00 00 00
1526919069.031688,can0 0CF00203 [8] 00 00 00 00 00 00 00 00
1526919069.032182,can0 08FF0303 [8] 00 00 00 00 00 00 00 00
1526919069.032738,can0 08FF0001 [8] 00 00 00 00 00 00 00 00
1526919069.033215,can0 0CF00203 [8] 00 00 00 00 00 00 00 00
1526919069.033638,can0 08FF0303 [8] 00 00 00 00 00 00 00 00
1526919069.0341,can0 08FF0001 [8] 00 00 00 00 00 00 00 00
1526919069.038676,can0 0CF00203 [8] 00 00 00 00 00 00 00 00
1526919069.039218,can0 08FF0303 [8] 00 00 00 00 00 00 00 00
1526919069.039647,can0 08FF0001 [8] 00 00 00 00 00 00 00 00
1526919069.040058,can0 0CF00203 [8] 00 00 00 00 00 00 00 00
1526919069.040546,can0 08FF0303 [8] 00 00 00 00 00 00 00 00
1526919069.040954,can0 08FF0001 [8] 00 00 00 00 00 00 00 00
1526919069.041346,can0 0CF00203 [8] 00 00 00 00 00 00 00 00
1526919069.041732,can0 08FF0303 [8] 00 00 00 00 00 00 00 00
1526919069.046127,can0 08FF0001 [8] 00 00 00 00 00 00 00 00
1526919069.046645,can0 0CF00203 [8] 00 00 00 00 00 00 00 00
1526919069.04718,can0 08FF0303 [8] 00 00 00 00 00 00 00 00
1526919069.047665,can0 08FF0001 [8] 00 00 00 00 00 00 00 00
1526919069.048209,can0 0CF00203 [8] 00 00 00 00 00 00 00 00
1526919069.048645,can0 08FF0303 [8] 00 00 00 00 00 00 00 00
1526919069.049053,can0 08FF0001 [8] 00 00 00 00 00 00 00 00
1526919069.049446,can0 0CF00203 [8] 00 00 00 00 00 00 00 00
1526919069.053803,can0 08FF0303 [8] 00 00 00 00 00 00 00 00
1526919069.054353,can0 08FF0001 [8] 00 00 00 00 00 00 00 00
1526919069.054884,can0 0CF00203 [8] 00 00 00 00 00 00 00 00
1526919069.055374,can0 08FF0303 [8] 00 00 00 00 00 00 00 00
1526919069.055895,can0 08FF0001 [8] 00 00 00 00 00 00 00 00
1526919069.056331,can0 0CF00203 [8] 00 00 00 00 00 00 00 00
1526919069.056735,can0 08FF0303 [8] 00 00 00 00 00 00 00 00
1526919069.057197,can0 08FF0001 [8] 00 00 00 00 00 00 00 00
1526919069.061633,can0 0CF00203 [8] 00 00 00 00 00 00 00 00
1526919069.062234,can0 08FF0303 [8] 00 00 00 00 00 00 00 00
1526919069.062755,can0 18F00503 [8] 00 00 00 00 00 00 00 00
1526919069.063187,can0 08FF0001 [8] 00 00 00 00 00 00 00 00
1526919069.063731,can0 0CF00203 [8] 00 00 00 00 00 00 00 00
1526919069.064229,can0 08FF0303 [8] 00 00 00 00 00 00 00 00
1526919069.064744,can0 18F00503 [8] 00 00 00 00 00 00 00 00
1526919069.065272,can0 08FF0001 [8] 00 00 00 00 00 00 00 00
1526919069.069743,can0 0CF00203 [8] 00 00 00 00 00 00 00 00
1526919069.070231,can0 08FF0303 [8] 00 00 00 00 00 00 00 00
1526919069.070655,can0 08FF0001 [8] 00 00 00 00 00 00 00 00
1526919069.071134,can0 0CF00203 [8] 00 00 00 00 00 00 00 00
1526919069.07162,can0 08FF0303 [8] 00 00 00 00 00 00 00 00
1526919069.072035,can0 08FF0001 [8] 00 00 00 00 00 00 00 00
1526919069.072517,can0 0CF00203 [8] 00 00 00 00 00 00 00 00
1526919069.072976,can0 08FF0303 [8] 00 00 00 00 00 00 00 00
1526919069.077414,can0 08FF0001 [8] 00 00 00 00 00 00 00 00
1526919069.091075,can0 0CF00203 [8] 00 00 00 00 00 00 00 00
1526919069.091657,can0 08FF0303 [8] 00 00 00 00 00 00 00 00
1526919069.092211,can0 08FF0001 [8] 00 00 00 00 00 00 00 00
1526919069.092718,can0 0CF00203 [8] 00 00 00 00 00 00 00 00
1526919069.093305,can0 08FF0303 [8] 00 00 00 00 00 00 00 00
1526919069.093746,can0 08FF0001 [8] 00 00 00 00 00 00 00 00
1526919069.094151,can0 0CF00203 [8] 00 00 00 00 00 00 00 00
1526919069.094598,can0 08FF0303 [8] 00 00 00 00 00 00 00 00
1526919069.099109,can0 08FF0001 [8] 00 00 00 00 00 00 00 00
1526919069.099593,can0 0CF00203 [8] 00 00 00 00 00 00 00 00
1526919069.100018,can0 08FF0303 [8] 00 00 00 00 00 00 00 00
1526919069.100427,can0 08FF0001 [8] 00 00 00 00 00 00 00 00
1526919069.100906,can0 0CF00203 [8] 00 00 00 00 00 00 00 00
1526919069.104847,can0 08FF0303 [8] 00 00 00 00 00 00 00 00
1526919069.105534,can0 08FF0001 [8] 00 00 00 00 00 00 00 00
1526919069.106094,can0 0CF00203 [8] 00 00 00 00 00 00 00 00
1526919069.106596,can0 08FF0303 [8] 00 00 00 00 00 00 00 00
1526919069.107144,can0 08FF0001 [8] 00 00 00 00 00 00 00 00
1526919069.107637,can0 0CF00203 [8] 00 00 00 00 00 00 00 00
1526919069.108059,can0 08FF0303 [8] 00 00 00 00 00 00 00 00
1526919069.114189,can0 08FF0001 [8] 00 00 00 00 00 00 00 00
1526919069.114871,can0 0CF00203 [8] 00 00 00 00 00 00 00 00
1526919069.115424,can0 08FF0303 [8] 00 00 00 00 00 00 00 00
1526919069.115926,can0 08FF0001 [8] 00 00 00 00 00 00 00 00
1526919069.116522,can0 0CF00203 [8] 00 00 00 00 00 00 00 00
1526919069.117064,can0 08FF0303 [8] 00 00 00 00 00 00 00 00
1526919069.117563,can0 08FF0001 [8] 00 00 00 00 00 00 00 00
1526919069.117985,can0 0CF00203 [8] 00 00 00 00 00 00 00 00
1526919069.118515,can0 08FF0303 [8] 00 00 00 00 00 00 00 00
1526919069.118936,can0 08FF0001 [8] 00 00 00 00 00 00 00 00
1526919069.119336,can0 0CF00203 [8] 00 00 00 00 00 00 00 00
1526919069.119728,can0 08FF0303 [8] 00 00 00 00 00 00 00 00
1526919069.120108,can0 08FF0001 [8] 00 00 00 00 00 00 00 00
1526919069.124808,can0 0CF00203 [8] 00 00 00 00 00 00 00 00
1526919069.125409,can0 08FF0303 [8] 00 00 00 00 00 00 00 00
1526919069.125957,can0 08FF0001 [8] 00 00 00 00 00 00 00 00
1526919069.126573,can0 0CF00203 [8] 00 00 00 00 00 00 00 00
1526919069.127108,can0 08FF0303 [8] 00 00 00 00 00 00 00 00
1526919069.127623,can0 08FF0001 [8] 00 00 00 00 00 00 00 00
1526919069.121067,can1 18FEF117 [8] 00 00 00 00 00 00 00 00
1526919069.121642,can1 18FEF121 [8] 00 00 00 00 00 00 00 00
1526919069.12208,can1 18FEF121 [8] 00 00 00 00 00 00 00 00
1526919069.122801,can1 18FEF128 [8] 00 00 00 00 00 00 00 00
1526919069.123245,can1 18FEF131 [8] 00 00 00 00 00 00 00 00
1526919069.123735,can1 18E00017 [8] 00 00 00 00 00 00 00 00
1526919069.128338,can1 18E00019 [8] 00 00 00 00 00 00 00 00
1526919069.129015,can1 18E00021 [8] 00 00 00 00 00 00 00 00
1526919069.129541,can1 18E00028 [8] 00 00 00 00 00 00 00 00
1526919069.130096,can1 18E00031 [8] 00 00 00 00 00 00 00 00
1526919069.130598,can1 18FEF017 [8] 00 00 00 00 00 00 00 00
1526919069.131092,can1 18FEF021 [8] 00 00 00 00 00 00 00 00
1526919069.131549,can1 18FEF028 [8] 00 00 00 00 00 00 00 00
1526919069.135997,can1 18FEF031 [8] 00 00 00 00 00 00 00 00
1526919069.136616,can1 18FF7400 [8] 7C 03 FF FF FF FF FF FF
1526919069.137211,can1 0CF00400 [8] 38 FE FE FE FE 00 FF FE
1526919069.137819,can1 0CF00203 [8] FF 00 00 FF FF AD 47 03
1526919069.13841,can1 18F00100 [8] FF FF FF FF FA FF FF FF
1526919069.138893,can1 18FD7C00 [8] FF FF D0 34 FD FF FF FF
1526919069.139358,can1 0CF00400 [8] 38 FE FE FE FE 00 FF FE
1526919069.143778,can1 0CF00203 [8] FF 00 00 FF FF AD 47 03
1526919069.144307,can1 18F0000F [8] 00 7D FF FF 0F 7D FF FF
1526919069.144862,can1 18FEF600 [8] FF 00 FF FF FF FF FF FF
1526919069.14535,can1 0CFE6E0B [8] 00 00 00 00 00 00 00 00
1526919069.145884,can1 18FEE400 [8] 00 3F FD FF 00 7F FF FF
1526919069.146311,can1 0CFE6E0B [8] 00 00 00 00 00 00 00 00
1526919069.146724,can1 0CF00400 [8] 38 FE FE FE FE 00 FF FE
1526919069.14723,can1 0CF00203 [8] FF 00 00 FF FF AD 47 03
1526919069.15166,can1 18FF3000 [8] 00 00 FF FF FF FF FF FF
1526919069.152232,can1 0CF00400 [8] 38 FE FE FE FE 00 FF FE
1526919069.152738,can1 0CF00203 [8] FF 00 00 FF FF AD 47 03
1526919069.153168,can1 0CF00300 [8] D1 00 FE FF FF FF 00 FF
1526919069.153707,can1 14FFA000 [8] FC FF FF FF FF FF FF FF
1526919069.154125,can1 18FEF200 [8] 00 00 00 00 00 00 FF FF
1526919069.154518,can1 0CFE6E0B [8] 00 00 00 00 00 00 00 00
1526919069.154985,can1 0CFE6E0B [8] 00 00 00 00 00 00 00 00
1526919069.159463,can1 18F0010B [8] CF FF F0 FF FF DC FF FF
1526919069.159974,can1 0CF00400 [8] 38 FE FE FE FE 00 FF FE
1526919069.160404,can1 0CF00203 [8] FF 00 00 FF FF AD 47 03
1526919069.160797,can1 18FEDF00 [8] FE FE FE FF FE FF BF FF
1526919069.161241,can1 18FE5600 [8] FF FF FF FF FF FF FF FF
1526919069.161657,can1 18FEBF0B [8] 00 00 7D 7D 7D 7D FF FF
1526919069.16205,can1 0CF00400 [8] 38 FE FE FE FE 00 FF FE
1526919069.162541,can1 0CF00203 [8] FF 00 00 FF FF AD 47 03
1526919069.163007,can1 18FEC100 [8] CC 28 00 00 CC 28 00 00
1526919069.167558,can1 0CFE6E0B [8] 00 00 00 00 00 00 00 00
1526919069.168056,can1 0CFE6E0B [8] 00 00 00 00 00 00 00 00
1526919069.168652,can1 0CF00400 [8] 38 FE FE FE FE 00 FF FE
1526919069.169159,can1 0CF00203 [8] FF 00 00 FF FF AD 47 03
1526919069.169593,can1 18FEF000 [8] FF FF FF 00 00 FC 00 FF
1526919069.169995,can1 18FEF700 [8] FF FF FF FF F1 00 F1 00
1526919069.170385,can1 0CF00400 [8] 38 FE FE FE FE 00 FF FE
1526919069.170766,can1 0CF00203 [8] FF 00 00 FF FF AD 47 03
1526919069.175285,can1 18FEE000 [8] A2 01 00 00 A2 01 00 00
1526919069.175853,can1 18FEF803 [8] FF FF FF FF FF FF FF FF
1526919069.176301,can1 0CFE6E0B [8] 00 00 00 00 00 00 00 00
1526919069.176714,can1 0CFE6E0B [8] 00 00 00 00 00 00 00 00
1526919069.177269,can1 0CF00400 [8] 38 FE FE FE FE 00 FF FE
1526919069.177752,can1 0CF00203 [8] FF 00 00 FF FF AD 47 03
1526919069.178224,can1 0CF00300 [8] D1 00 FE FF FF FF 00 FF
1526919069.178643,can1 18FEF100 [8] C3 00 00 D0 00 00 00 30
1526919069.183215,can1 0CF00400 [8] 38 FE FE FE FE 00 FF FE
1526919069.183762,can1 0CF00203 [8] FF 00 00 FF FF AD 47 03
1526919069.184181,can1 18FEDF00 [8] FE FE FE FF FE FF BF FF
1526919069.184751,can1 18FE4A03 [8] FF FF F3 FF F0 F7 FF FF
1526919069.185258,can1 18F00503 [8] FF 57 9E FF 20 2D 2D 2D
1526919069.185685,can1 0CFE6E0B [8] 00 00 00 00 00 00 00 00
1526919069.186148,can1 18F00131 [8] 00 00 00 00 00 00 00 00
1526919069.186539,can1 18F0010B [8] 00 00 00 00 00 00 00 00
1526919069.191059,can1 18FEF117 [8] 00 00 00 00 00 00 00 00
1526919069.191491,can1 0CFE6E0B [8] 00 00 00 00 00 00 00 00
1526919069.191888,can1 18F00131 [8] 00 00 00 00 00 00 00 00
1526919069.192376,can1 18F0010B [8] 00 00 00 00 00 00 00 00
1526919069.192942,can1 18FEF117 [8] 00 00 00 00 00 00 00 00
1526919069.19342,can1 18FEF121 [8] 00 00 00 00 00 00 00 00
1526919069.193827,can1 18FEF121 [8] 00 00 00 00 00 00 00 00
1526919069.194216,can1 18FEF128 [8] 00 00 00 00 00 00 00 00
1526919069.19868,can1 18FEF131 [8] 00 00 00 00 00 00 00 00
1526919069.199166,can1 18E00017 [8] 00 00 00 00 00 00 00 00
1526919069.199593,can1 0CF00400 [8] 38 FE FE FE FE 00 FF FE
1526919069.199981,can1 18E00019 [8] 00 00 00 00 00 00 00 00
1526919069.200435,can1 0CF00203 [8] FF 00 00 FF FF AD 47 03
1526919069.200856,can1 18E00021 [8] 00 00 00 00 00 00 00 00
1526919069.201299,can1 18E00028 [8] 00 00 00 00 00 00 00 00
1526919069.203187,can1 18E00031 [8] 00 00 00 00 00 00 00 00
1526919069.203779,can1 18F00100 [8] FF FF FF FF FA FF FF FF
1526919069.208297,can1 18FEF017 [8] 00 00 00 00 00 00 00 00
1526919069.208854,can1 18FEF021 [8] 00 00 00 00 00 00 00 00
1526919069.209287,can1 18FEF028 [8] 00 00 00 00 00 00 00 00
1526919069.209687,can1 18FEF031 [8] 00 00 00 00 00 00 00 00
1526919069.210146,can1 18FEF521 [8] 00 00 00 00 00 00 00 00
1526919069.210577,can1 0CF00400 [8] 38 FE FE FE FE 00 FF FE
1526919069.214751,can1 0CF00203 [8] FF 00 00 FF FF AD 47 03
1526919069.2153,can1 18F0000F [8] 00 7D FF FF 0F 7D FF FF
1526919069.215797,can1 0CFE6E0B [8] 00 00 00 00 00 00 00 00
1526919069.216416,can1 0CFE6E0B [8] 00 00 00 00 00 00 00 00
1526919069.216846,can1 0CF00400 [8] 38 FE FE FE FE 00 FF FE
1526919069.217335,can1 0CF00203 [8] FF 00 00 FF FF AD 47 03
1526919069.221791,can1 18FF3000 [8] 00 00 FF FF FF FF FF FF
1526919069.222415,can1 0CF00400 [8] 38 FE FE FE FE 00 FF FE
1526919069.222937,can1 0CF00203 [8] FF 00 00 FF FF AD 47 03
1526919069.22342,can1 0CF00300 [8] D1 00 FE FF FF FF 00 FF
1526919069.223957,can1 14FFA000 [8] FC FF FF FF FF FF FF FF
1526919069.224389,can1 18FEF200 [8] 00 00 00 00 00 00 FF FF
1526919069.224918,can1 0CFE6E0B [8] 00 00 00 00 00 00 00 00
1526919069.225433,can1 0CFE6E0B [8] 00 00 00 00 00 00 00 00
1526919069.23001,can1 18F0010B [8] CF FF F0 FF FF DC FF FF
1526919069.230565,can1 0CF00400 [8] 38 FE FE FE FE 00 FF FE
1526919069.231056,can1 0CF00203 [8] FF 00 00 FF FF AD 47 03
1526919069.231579,can1 18FEDF00 [8] FE FE FE FF FE FF BF FF
1526919069.232075,can1 18ECFFFA [8] 20 1C 00 04 FF EB FE 00
1526919069.232489,can1 18EBFFFA [8] 01 53 59 4E 45 52 2A 53
1526919069.232968,can1 18EBFFFA [8] 02 53 53 32 2D 30 32 2A
1526919069.237402,can1 18EBFFFA [8] 03 58 58 58 58 2A 55 4E
1526919069.238071,can1 18FEBF0B [8] 00 00 7D 7D 7D 7D FF FF
1526919069.238654,can1 18EBFFFA [8] 04 49 56 45 52 53 41 4C
1526919069.239132,can1 0CF00400 [8] 38 FE FE FE FE 00 FF FE
1526919069.239628,can1 0CF00203 [8] FF 00 00 FF FF AD 47 03
1526919069.240049,can1 0CFE6E0B [8] 00 00 00 00 00 00 00 00
1526919069.240446,can1 0CFE6E0B [8] 00 00 00 00 00 00 00 00
1526919069.240832,can1 0CF00400 [8] 38 FE FE FE FE 00 FF FE
1526919069.241204,can1 0CF00203 [8] FF 00 00 FF FF AD 47 03
1526919069.245832,can1 18FEF000 [8] FF FF FF 00 00 FC 00 FF
1526919069.246298,can1 0CF00400 [8] 38 FE FE FE FE 00 FF FE
1526919069.246715,can1 0CF00203 [8] FF 00 00 FF FF AD 47 03
1526919069.247269,can1 18FEE000 [8] A2 01 00 00 A2 01 00 00
1526919069.247765,can1 0CFE6E0B [8] 00 00 00 00 00 00 00 00
1526919069.248251,can1 0CFE6E0B [8] 00 00 00 00 00 00 00 00
1526919069.248679,can1 0CF00400 [8] 38 FE FE FE FE 00 FF FE
1526919069.253079,can1 0CF00203 [8] FF 00 00 FF FF AD 47 03
1526919069.253664,can1 0CF00300 [8] D1 00 FE FF FF FF 00 FF
1526919069.254104,can1 18FEF100 [8] C3 00 00 D0 00 00 00 30
1526919069.254516,can1 0CF00400 [8] 38 FE FE FE FE 00 FF FE
1526919069.255058,can1 0CF00203 [8] FF 00 00 FF FF AD 47 03
1526919069.255555,can1 18FEDF00 [8] FE FE FE FF FE FF BF FF
1526919069.132707,can0 0CF00203 [8] 00 00 00 00 00 00 00 00
1526919069.13337,can0 08FF0303 [8] 00 00 00 00 00 00 00 00
1526919069.133973,can0 08FF0001 [8] 00 00 00 00 00 00 00 00
1526919069.134505,can0 0CF00203 [8] 00 00 00 00 00 00 00 00
1526919069.135055,can0 08FF0303 [8] 00 00 00 00 00 00 00 00
1526919069.135578,can0 08FF0001 [8] 00 00 00 00 00 00 00 00
1526919069.140111,can0 0CF00203 [8] 00 00 00 00 00 00 00 00
1526919069.140605,can0 08FF0303 [8] 00 00 00 00 00 00 00 00
1526919069.14103,can0 18F00503 [8] 00 00 00 00 00 00 00 00
1526919069.141435,can0 08FF0001 [8] 00 00 00 00 00 00 00 00
1526919069.141908,can0 0CF00203 [8] 00 00 00 00 00 00 00 00
1526919069.14241,can0 08FF0303 [8] 00 00 00 00 00 00 00 00
1526919069.142888,can0 18F00503 [8] 00 00 00 00 00 00 00 00
1526919069.143301,can0 08FF0001 [8] 00 00 00 00 00 00 00 00
1526919069.147862,can0 0CF00203 [8] 00 00 00 00 00 00 00 00
1526919069.148453,can0 08FF0303 [8] 00 00 00 00 00 00 00 00
1526919069.148903,can0 08FF0001 [8] 00 00 00 00 00 00 00 00
1526919069.149325,can0 0CF00203 [8] 00 00 00 00 00 00 00 00
1526919069.149815,can0 08FF0303 [8] 00 00 00 00 00 00 00 00
1526919069.150232,can0 08FF0001 [8] 00 00 00 00 00 00 00 00
1526919069.150622,can0 0CF00203 [8] 00 00 00 00 00 00 00 00
1526919069.151007,can0 08FF0303 [8] 00 00 00 00 00 00 00 00
1526919069.151384,can0 08FF0001 [8] 00 00 00 00 00 00 00 00
1526919069.155962,can0 0CF00203 [8] 00 00 00 00 00 00 00 00
1526919069.156429,can0 08FF0303 [8] 00 00 00 00 00 00 00 00
1526919069.156842,can0 08FF0001 [8] 00 00 00 00 00 00 00 00
1526919069.157398,can0 0CF00203 [8] 00 00 00 00 00 00 00 00
1526919069.157895,can0 08FF0303 [8] 00 00 00 00 00 00 00 00
1526919069.158366,can0 08FF0001 [8] 00 00 00 00 00 00 00 00
1526919069.158768,can0 0CF00203 [8] 00 00 00 00 00 00 00 00
1526919069.159159,can0 08FF0303 [8] 00 00 00 00 00 00 00 00
1526919069.163728,can0 08FF0001 [8] 00 00 00 00 00 00 00 00
1526919069.164282,can0 0CF00203 [8] 00 00 00 00 00 00 00 00
1526919069.164818,can0 08FF0303 [8] 00 00 00 00 00 00 00 00
1526919069.165405,can0 08FF0001 [8] 00 00 00 00 00 00 00 00
1526919069.165897,can0 0CF00203 [8] 00 00 00 00 00 00 00 00
1526919069.166326,can0 08FF0303 [8] 00 00 00 00 00 00 00 00
1526919069.16672,can0 08FF0001 [8] 00 00 00 00 00 00 00 00
1526919069.171362,can0 0CF00203 [8] 00 00 00 00 00 00 00 00
1526919069.171879,can0 08FF0303 [8] 00 00 00 00 00 00 00 00
1526919069.172394,can0 08FF0001 [8] 00 00 00 00 00 00 00 00
1526919069.17287,can0 0CF00203 [8] 00 00 00 00 00 00 00 00
1526919069.17344,can0 08FF0303 [8] 00 00 00 00 00 00 00 00
1526919069.173866,can0 08FF0001 [8] 00 00 00 00 00 00 00 00
1526919069.174274,can0 0CF00203 [8] 00 00 00 00 00 00 00 00
1526919069.17474,can0 08FF0303 [8] 00 00 00 00 00 00 00 00
1526919069.179241,can0 08FF0001 [8] 00 00 00 00 00 00 00 00
1526919069.179719,can0 0CF00203 [8] 00 00 00 00 00 00 00 00
1526919069.180147,can0 08FF0303 [8] 00 00 00 00 00 00 00 00
1526919069.18055,can0 08FF0001 [8] 00 00 00 00 00 00 00 00
1526919069.181021,can0 0CF00203 [8] 00 00 00 00 00 00 00 00
1526919069.181531,can0 08FF0303 [8] 00 00 00 00 00 00 00 00
1526919069.181933,can0 08FF0001 [8] 00 00 00 00 00 00 00 00
1526919069.182398,can0 0CF00203 [8] 00 00 00 00 00 00 00 00
1526919069.186833,can0 08FF0303 [8] 00 00 00 00 00 00 00 00
1526919069.18746,can0 08FF0001 [8] 00 00 00 00 00 00 00 00
1526919069.187983,can0 0CF00203 [8] 00 00 00 00 00 00 00 00
1526919069.188469,can0 08FF0303 [8] 00 00 00 00 00 00 00 00
1526919069.188965,can0 08FF0001 [8] 00 00 00 00 00 00 00 00
1526919069.189391,can0 0CF00203 [8] 00 00 00 00 00 00 00 00
1526919069.18979,can0 08FF0303 [8] 00 00 00 00 00 00 00 00
1526919069.190172,can0 08FF0001 [8] 00 00 00 00 00 00 00 00
1526919069.194636,can0 0CF00203 [8] 00 00 00 00 00 00 00 00
1526919069.195213,can0 08FF0303 [8] 00 00 00 00 00 00 00 00
1526919069.195668,can0 08FF0001 [8] 00 00 00 00 00 00 00 00
1526919069.19615,can0 0CF00203 [8] 00 00 00 00 00 00 00 00
1526919069.196643,can0 08FF0303 [8] 00 00 00 00 00 00 00 00
1526919069.197125,can0 08FF0001 [8] 00 00 00 00 00 00 00 00
1526919069.197607,can0 0CF00203 [8] 00 00 00 00 00 00 00 00
1526919069.198015,can0 08FF0303 [8] 00 00 00 00 00 00 00 00
1526919069.20471,can0 18F00503 [8] 00 00 00 00 00 00 00 00
1526919069.205357,can0 08FF0001 [8] 00 00 00 00 00 00 00 00
1526919069.20589,can0 0CF00203 [8] 00 00 00 00 00 00 00 00
1526919069.206421,can0 08FF0303 [8] 00 00 00 00 00 00 00 00
1526919069.206856,can0 18F00503 [8] 00 00 00 00 00 00 00 00
1526919069.207381,can0 08FF0001 [8] 00 00 00 00 00 00 00 00
1526919069.207853,can0 0CF00203 [8] 00 00 00 00 00 00 00 00
1526919069.211085,can0 08FF0303 [8] 00 00 00 00 00 00 00 00
1526919069.211595,can0 08FF0001 [8] 00 00 00 00 00 00 00 00
1526919069.212102,can0 0CF00203 [8] 00 00 00 00 00 00 00 00
1526919069.212637,can0 08FF0303 [8] 00 00 00 00 00 00 00 00
1526919069.213134,can0 08FF0001 [8] 00 00 00 00 00 00 00 00
1526919069.213619,can0 0CF00203 [8] 00 00 00 00 00 00 00 00
1526919069.218081,can0 08FF0303 [8] 00 00 00 00 00 00 00 00
1526919069.21869,can0 08FF0001 [8] 00 00 00 00 00 00 00 00
1526919069.219133,can0 0CF00203 [8] 00 00 00 00 00 00 00 00
1526919069.219541,can0 08FF0303 [8] 00 00 00 00 00 00 00 00
1526919069.220018,can0 08FF0001 [8] 00 00 00 00 00 00 00 00
1526919069.220442,can0 0CF00203 [8] 00 00 00 00 00 00 00 00
1526919069.220844,can0 08FF0303 [8] 00 00 00 00 00 00 00 00
1526919069.221234,can0 08FF0001 [8] 00 00 00 00 00 00 00 00
1526919069.221615,can0 0CF00203 [8] 00 00 00 00 00 00 00 00
1526919069.226223,can0 08FF0303 [8] 00 00 00 00 00 00 00 00
1526919069.226816,can0 08FF0001 [8] 00 00 00 00 00 00 00 00
1526919069.227301,can0 0CF00203 [8] 00 00 00 00 00 00 00 00
1526919069.227896,can0 08FF0303 [8] 00 00 00 00 00 00 00 00
1526919069.228439,can0 08FF0001 [8] 00 00 00 00 00 00 00 00
1526919069.228961,can0 0CF00203 [8] 00 00 00 00 00 00 00 00
1526919069.22943,can0 08FF0303 [8] 00 00 00 00 00 00 00 00
1526919069.234001,can0 08FF0001 [8] 00 00 00 00 00 00 00 00
1526919069.234538,can0 0CF00203 [8] 00 00 00 00 00 00 00 00
1526919069.235095,can0 08FF0303 [8] 00 00 00 00 00 00 00 00
1526919069.23568,can0 08FF0001 [8] 00 00 00 00 00 00 00 00
1526919069.236239,can0 0CF00203 [8] 00 00 00 00 00 00 00 00
1526919069.236723,can0 08FF0303 [8] 00 00 00 00 00 00 00 00
1526919069.237195,can0 08FF0001 [8] 00 00 00 00 00 00 00 00
1526919069.241744,can0 0CF00203 [8] 00 00 00 00 00 00 00 00
1526919069.242283,can0 08FF0303 [8] 00 00 00 00 00 00 00 00
1526919069.242728,can0 08FF0001 [8] 00 00 00 00 00 00 00 00
1526919069.243268,can0 0CF00203 [8] 00 00 00 00 00 00 00 00
1526919069.243782,can0 08FF0303 [8] 00 00 00 00 00 00 00 00
1526919069.244203,can0 08FF0001 [8] 00 00 00 00 00 00 00 00
1526919069.244702,can0 0CF00203 [8] 00 00 00 00 00 00 00 00
1526919069.24512,can0 08FF0303 [8] 00 00 00 00 00 00 00 00
1526919069.249636,can0 08FF0001 [8] 00 00 00 00 00 00 00 00
1526919069.250082,can0 0CF00203 [8] 00 00 00 00 00 00 00 00
1526919069.250501,can0 08FF0303 [8] 00 00 00 00 00 00 00 00
1526919069.250894,can0 08FF0001 [8] 00 00 00 00 00 00 00 00
1526919069.251371,can0 0CF00203 [8] 00 00 00 00 00 00 00 00
1526919069.251781,can0 08FF0303 [8] 00 00 00 00 00 00 00 00
1526919069.252241,can0 08FF0001 [8] 00 00 00 00 00 00 00 00
1526919069.252665,can0 0CF00203 [8] 00 00 00 00 00 00 00 00
1526919069.257302,can0 08FF0303 [8] 00 00 00 00 00 00 00 00
1526919069.257937,can0 08FF0001 [8] 00 00 00 00 00 00 00 00
1526919069.258456,can0 0CF00203 [8] 00 00 00 00 00 00 00 00
1526919069.258953,can0 08FF0303 [8] 00 00 00 00 00 00 00 00
1526919069.259394,can0 08FF0001 [8] 00 00 00 00 00 00 00 00
1526919069.259808,can0 0CF00203 [8] 00 00 00 00 00 00 00 00
1526919069.260203,can0 08FF0303 [8] 00 00 00 00 00 00 00 00
1526919069.260586,can0 08FF0001 [8] 00 00 00 00 00 00 00 00
1526919069.26511,can0 0CF00203 [8] 00 00 00 00 00 00 00 00
1526919069.265669,can0 08FF0303 [8] 00 00 00 00 00 00 00 00
1526919069.266173,can0 18F00503 [8] 00 00 00 00 00 00 00 00
1526919069.266588,can0 08FF0001 [8] 00 00 00 00 00 00 00 00
1526919069.267175,can0 0CF00203 [8] 00 00 00 00 00 00 00 00
1526919069.256503,can1 18FE4A03 [8] FF FF F3 FF F0 F7 FF FF
1526919069.261048,can1 18F00503 [8] FF 57 9E FF 20 2D 2D 2D
1526919069.261574,can1 0CFE6E0B [8] 00 00 00 00 00 00 00 00
1526919069.262021,can1 18F00131 [8] 00 00 00 00 00 00 00 00
1526919069.26254,can1 18F0010B [8] 00 00 00 00 00 00 00 00
1526919069.263106,can1 18FEF117 [8] 00 00 00 00 00 00 00 00
1526919069.2636,can1 0CFE6E0B [8] 00 00 00 00 00 00 00 00
1526919069.264068,can1 18F00131 [8] 00 00 00 00 00 00 00 00
1526919069.264523,can1 18F0010B [8] 00 00 00 00 00 00 00 00
1526919069.269149,can1 18FEF117 [8] 00 00 00 00 00 00 00 00
1526919069.26966,can1 18FEF121 [8] 00 00 00 00 00 00 00 00
