1543220693.43484,can1 0CF00400 [8] 38 FE FE FE FE 00 FF FE
1543220693.450646,can1 0CF00203 [8] FF 00 00 FF FF AD 47 03
1543220693.452923,can1 18FEDF00 [8] FE FE FE FF FE FF BF FF
1543220693.45883,can1 18FE4A03 [8] FF FF F3 FF F0 F7 FF FF
1543220693.460645,can1 18F00503 [8] FF 57 9E FF 20 2D 2D 2D
1543220693.466327,can1 0CF00400 [8] 38 FE FE FE FE 00 FF FE
1543220693.468524,can1 0CF00203 [8] FF 00 00 FF FF AD 47 03
1543220693.472147,can1 18F00100 [8] FF FF FF FF 53 FF FF FF
1543220693.473812,can1 18DA00F1 [8] 30 08 00 00 00 00 00 00
1543220693.475212,can1 0CF00400 [8] 38 FE FE FE FE 00 FF FE
1543220693.476914,can1 0CF00203 [8] FF 00 00 FF FF AD 47 03
1543220693.478432,can1 18F0000F [8] 51 7D FF FF 0F 72 FF FF
1543220693.479771,can1 18F0010B [8] CF FF F0 FF FF DC FF FF
1543220693.481,can1 0CF00400 [8] 38 FE FE FE FE 00 FF FE
1543220693.482319,can1 0CF00203 [8] FF 00 00 FF FF AD 47 03
1543220693.483621,can1 18FF3000 [8] 00 00 FF FF FF FF FF FF
1543220693.484839,can1 18FEBF0B [8] 00 00 7D 7D 7D 7D FF FF
1543220693.48628,can1 0CF00400 [8] 38 FE FE FE FE 00 FF FE
1543220693.488077,can1 0CF00203 [8] FF 00 00 FF FF AD 47 03
1543220693.489612,can1 0CF00300 [8] D1 00 FE FF FF FF 00 FF
1543220693.490912,can1 14FFA000 [8] FC FF FF FF FF FF FF FF
1543220693.492272,can1 18FEF200 [8] 00 00 00 00 00 00 FF FF
1543220693.493597,can1 0CF00400 [8] 38 FE FE FE FE 00 FF FE
1543220693.494812,can1 0CF00203 [8] FF 00 00 FF FF AD 47 03
1543220693.496125,can1 18FEDF00 [8] FE FE FE FF FE FF BF FF
1543220693.49828,can1 18DA00F1 [8] 30 08 00 00 00 00 00 00
1543220693.499729,can1 0CF00400 [8] 38 FE FE FE FE 00 FF FE
1543220693.50109,can1 0CF00203 [8] FF 00 00 FF FF AD 47 03
1543220693.50234,can1 0CF00400 [8] 38 FE FE FE FE 00 FF FE
1543220693.503671,can1 0CF00203 [8] FF 00 00 FF FF AD 47 03
1543220693.504976,can1 18FEF000 [8] FF FF FF 00 00 FC 00 FF
1543220693.506192,can1 0CF00400 [8] 38 FE FE FE FE 00 FF FE
1543220693.507795,can1 0CF00203 [8] FF 00 00 FF FF AD 47 03
1543220693.509752,can1 18FEE000 [8] A2 01 00 00 A2 01 00 00
1543220693.511328,can1 0CF00400 [8] 38 FE FE FE FE 00 FF FE
1543220693.512681,can1 0CF00203 [8] FF 00 00 FF FF AD 47 03
1543220693.516289,can1 0CF00300 [8] D1 00 FE FF FF FF 00 FF
1543220693.518539,can1 18FEF100 [8] CF 00 00 D0 FF 00 00 30
1543220693.520218,can1 18FDE000 [8] FF FF FF FF FF FF FF FF
1543220693.521611,can1 1CFEAB03 [8] FF FF 7E FF FF FF FF FF
1543220693.522949,can1 0CF00400 [8] 38 FE FE FE FE 00 FF FE
1543220693.524181,can1 0CF00203 [8] FF 00 00 FF FF AD 47 03
1543220693.525536,can1 18FEDF00 [8] FE FE FE FF FE FF BF FF
1543220693.526969,can1 18FE4A03 [8] FF FF F3 FF F0 F7 FF FF
1543220693.531624,can1 18F00503 [8] FF 57 9E FF 20 2D 2D 2D
1543220693.532259,can1 18FEEF00 [8] FF FF FF FF FF FF FF FA
1543220693.532749,can1 18DA00F1 [8] 30 08 00 00 00 00 00 00
1543220693.533183,can1 0CF00400 [8] 38 FE FE FE FE 00 FF FE
1543220693.533594,can1 0CF00203 [8] FF 00 00 FF FF AD 47 03
1543220693.53398,can1 18F00100 [8] FF FF FF FF 53 FF FF FF
1543220693.534455,can1 18E0FF00 [8] FF FF FF FF FF F3 FF FF
1543220693.534871,can1 18FCDC00 [8] E0 FE FE FF FF FF FF FF
1543220693.536784,can1 0CF00400 [8] 38 FE FE FE FE 00 FF FE
1543220693.537329,can1 0CF00203 [8] FF 00 00 FF FF AD 47 03
1543220693.537899,can1 18F0000F [8] 51 7D FF FF 0F 72 FF FF
1543220693.543007,can1 18F0010B [8] CF FF F0 FF FF DC FF FF
1543220693.546759,can1 0CF00400 [8] 38 FE FE FE FE 00 FF FE
1543220693.547331,can1 0CF00203 [8] FF 00 00 FF FF AD 47 03
1543220693.547947,can1 18FF3000 [8] 00 00 FF FF FF FF FF FF
1543220693.552999,can1 18FEBF0B [8] 00 00 7D 7D 7D 7D FF FF
1543220693.556761,can1 0CF00400 [8] 38 FE FE FE FE 00 FF FE
1543220693.557326,can1 0CF00203 [8] FF 00 00 FF FF AD 47 03
1543220693.557892,can1 0CF00300 [8] D1 00 FE FF FF FF 00 FF
1543220693.558512,can1 14FFA000 [8] FC FF FF FF FF FF FF FF
1543220693.559137,can1 18FEF200 [8] 00 00 00 00 00 00 FF FF
1543220693.559697,can1 18FEF500 [8] FF FF FF FF FF FF FF FF
1543220693.564442,can1 18DA00F1 [8] 30 08 00 00 00 00 00 00
1543220693.566752,can1 0CF00400 [8] 38 FE FE FE FE 00 FF FE
1543220693.567339,can1 0CF00203 [8] FF 00 00 FF FF AD 47 03
1543220693.567927,can1 18FEDF00 [8] FE FE FE FF FE FF BF FF
1543220693.56852,can1 18FF6411 [8] F8 FF FF FF FF FF FF FF
1543220693.569119,can1 18FECA11 [8] 03 FF 00 00 00 00 FF FF
1543220693.576708,can1 0CF00400 [8] 38 FE FE FE FE 00 FF FE
1543220693.577312,can1 0CF00203 [8] FF 00 00 FF FF AD 47 03
1543220693.577825,can1 18FEEE00 [8] FF FF FF FF FF FF FF FF
1543220693.58668,can1 0CF00400 [8] 38 FE FE FE FE 00 FF FE
1543220693.587255,can1 0CF00203 [8] FF 00 00 FF FF AD 47 03
1543220693.587854,can1 18FEF000 [8] FF FF FF 00 00 FC 00 FF
1543220693.588442,can1 18FEA400 [8] FF FF FF FF 66 B1 A0 5B
1543220693.589018,can1 18FECA03 [8] 03 FF 00 00 00 00 FF FF
1543220693.596792,can1 0CF00400 [8] 38 FE FE FE FE 00 FF FE
1543220693.597536,can1 0CF00203 [8] FF 00 00 FF FF AD 47 03
1543220693.598076,can1 14FD3E00 [8] FF FF FF FF FF FF FF FF
1543220693.598613,can1 18FEE000 [8] A2 01 00 00 A2 01 00 00
1543220693.604968,can1 18DA00F1 [8] 02 10 03 00 00 00 00 00
1543220693.60645,can1 18DAF100 [8] 06 50 03 00 14 00 C8 FF
1543220693.60705,can1 0CF00400 [8] 38 FE FE FE FE 00 FF FE
1543220693.607626,can1 0CF00203 [8] FF 00 00 FF FF AD 47 03
1543220693.608222,can1 0CF00300 [8] D1 00 FE FF FF FF 00 FF
1543220693.60879,can1 18DA00F1 [8] 30 08 00 00 00 00 00 00
1543220693.609356,can1 18FEF100 [8] CF 00 00 D0 FF 00 00 30
1543220693.609953,can1 18FEBD00 [8] FF FF FF FF FF FF FF FF
1543220693.610575,can1 18FD0700 [8] 47 F4 C0 FF FF FF FF FF
1543220693.620405,can1 0CF00400 [8] 38 FE FE FE FE 00 FF FE
1543220693.621166,can1 0CF00203 [8] FF 00 00 FF FF AD 47 03
1543220693.621661,can1 18FEDF00 [8] FE FE FE FF FE FF BF FF
1543220693.622196,can1 18FE4A03 [8] FF FF F3 FF F0 F7 FF FF
1543220693.622651,can1 18F00503 [8] FF 57 9E FF 20 2D 2D 2D
1543220693.623063,can1 18FF7400 [8] 5D 01 FF FF FF FF FF FF
1543220693.626983,can1 0CF00400 [8] 38 FE FE FE FE 00 FF FE
1543220693.627909,can1 0CF00203 [8] FF 00 00 FF FF AD 47 03
1543220693.628512,can1 18F00100 [8] FF FF FF FF 53 FF FF FF
1543220693.628966,can1 18FD7C00 [8] FF FF D0 34 FD FF FF FF
1543220693.636976,can1 0CF00400 [8] 38 FE FE FE FE 00 FF FE
1543220693.63793,can1 0CF00203 [8] FF 00 00 FF FF AD 47 03
1543220693.63854,can1 18F0000F [8] 51 7D FF FF 0F 72 FF FF
1543220693.639057,can1 18FEF600 [8] FF 00 FF FF FF FF FF FF
1543220693.6395,can1 18FEE400 [8] 00 3F FD FF 00 7F FF FF
1543220693.641778,can1 18DA00F1 [8] 03 22 02 03 00 00 00 00
1543220693.645743,can1 18F0010B [8] CF FF F0 FF FF DC FF FF
1543220693.646876,can1 0CF00400 [8] 38 FE FE FE FE 00 FF FE
1543220693.647595,can1 0CF00203 [8] FF 00 00 FF FF AD 47 03
1543220693.648159,can1 18FF3000 [8] 00 00 FF FF FF FF FF FF
1543220693.652834,can1 18DA00F1 [8] 30 08 00 00 00 00 00 00
1543220693.653675,can1 18FEBF0B [8] 00 00 7D 7D 7D 7D FF FF
1543220693.656437,can1 18DAF100 [8] 10 52 62 02 03 03 1C 20
1543220693.657296,can1 0CF00400 [8] 38 FE FE FE FE 00 FF FE
1543220693.657888,can1 0CF00203 [8] FF 00 00 FF FF AD 47 03
1543220693.658379,can1 0CF00300 [8] D1 00 FE FF FF FF 00 FF
1543220693.658885,can1 14FFA000 [8] FC FF FF FF FF FF FF FF
1543220693.65944,can1 18FEF200 [8] 00 00 00 00 00 00 FF FF
1543220693.666978,can1 0CF00400 [8] 38 FE FE FE FE 00 FF FE
1543220693.667824,can1 0CF00203 [8] FF 00 00 FF FF AD 47 03
1543220693.668389,can1 18FEDF00 [8] FE FE FE FF FE FF BF FF
1543220693.668897,can1 18FE5600 [8] FF FF FF FF FF FF FF FF
1543220693.676945,can1 0CF00400 [8] 38 FE FE FE FE 00 FF FE
1543220693.677802,can1 0CF00203 [8] FF 00 00 FF FF AD 47 03
1543220693.678322,can1 18FEC100 [8] CC 28 00 00 CC 28 00 00
1543220693.686709,can1 0CF00400 [8] 38 FE FE FE FE 00 FF FE
1543220693.68728,can1 0CF00203 [8] FF 00 00 FF FF AD 47 03
1543220693.687867,can1 18FEF000 [8] FF FF FF 00 00 FC 00 FF
1543220693.688497,can1 18FEF700 [8] FF FF FF FF EF 00 EF 00
1543220693.696763,can1 18DA00F1 [8] 30 08 00 00 00 00 00 00
1543220693.697512,can1 0CF00400 [8] 38 FE FE FE FE 00 FF FE
1543220693.698084,can1 0CF00203 [8] FF 00 00 FF FF AD 47 03
1543220693.699449,can1 18FEE000 [8] A2 01 00 00 A2 01 00 00
1543220693.700257,can1 18FEF803 [8] FF FF FF FF FF FF FF FF
1543220693.700827,can1 18DAF100 [8] 21 00 83 40 1F 40 06 40
1543220693.701346,can1 18DAF100 [8] 22 00 0F 00 A0 00 01 2C
1543220693.701831,can1 18DAF100 [8] 23 16 00 00 0F 38 40 00
1543220693.702409,can1 18DAF100 [8] 24 40 2C 56 24 34 04 00
1543220693.702961,can1 18DAF100 [8] 25 15 E0 7D 00 0F 61 A8
1543220693.70346,can1 18DAF100 [8] 26 4E EC 61 FB 1F 40 05
1543220693.704059,can1 18DAF100 [8] 27 00 12 C0 11 30 03 20
1543220693.704532,can1 18DAF100 [8] 28 01 00 00 80 00 00 00
1543220693.707151,can1 0CF00400 [8] 38 FE FE FE FE 00 FF FE
1543220693.70771,can1 0CF00203 [8] FF 00 00 FF FF AD 47 03
1543220693.708277,can1 0CF00300 [8] D1 00 FE FF FF FF 00 FF
1543220693.708875,can1 18FEF100 [8] CF 00 00 D0 FF 00 00 30
1543220693.716926,can1 0CF00400 [8] 38 FE FE FE FE 00 FF FE
1543220693.717862,can1 0CF00203 [8] FF 00 00 FF FF AD 47 03
1543220693.718477,can1 18FEDF00 [8] FE FE FE FF FE FF BF FF
1543220693.719017,can1 18FE4A03 [8] FF FF F3 FF F0 F7 FF FF
1543220693.719463,can1 18F00503 [8] FF 57 9E FF 20 2D 2D 2D
1543220693.726804,can1 0CF00400 [8] 38 FE FE FE FE 00 FF FE
1543220693.727362,can1 0CF00203 [8] FF 00 00 FF FF AD 47 03
1543220693.727937,can1 18F00100 [8] FF FF FF FF 53 FF FF FF
1543220693.736763,can1 0CF00400 [8] 38 FE FE FE FE 00 FF FE
1543220693.73734,can1 0CF00203 [8] FF 00 00 FF FF AD 47 03
1543220693.737901,can1 18F0000F [8] 51 7D FF FF 0F 72 FF FF
1543220693.740878,can1 18DA00F1 [8] 30 08 00 00 00 00 00 00
1543220693.741456,can1 18DAF100 [8] 29 01 00 04 00 00 01 00
1543220693.742052,can1 18DAF100 [8] 2A 34 80 FF FF FF FF FF
1543220693.742644,can1 18DAF100 [8] 2B FF FF 01 12 C0 00 FF
1543220693.743254,can1 18F0010B [8] CF FF F0 FF FF DC FF FF
1543220693.746806,can1 0CF00400 [8] 38 FE FE FE FE 00 FF FE
1543220693.747372,can1 0CF00203 [8] FF 00 00 FF FF AD 47 03
1543220693.748009,can1 18FF3000 [8] 00 00 FF FF FF FF FF FF
1543220693.753272,can1 18FEBF0B [8] 00 00 7D 7D 7D 7D FF FF
1543220693.756807,can1 0CF00400 [8] 38 FE FE FE FE 00 FF FE
1543220693.757335,can1 0CF00203 [8] FF 00 00 FF FF AD 47 03
1543220693.757931,can1 0CF00300 [8] D1 00 FE FF FF FF 00 FF
1543220693.758533,can1 14FFA000 [8] FC FF FF FF FF FF FF FF
1543220693.759141,can1 18FEF200 [8] 00 00 00 00 00 00 FF FF
1543220693.766735,can1 0CF00400 [8] 38 FE FE FE FE 00 FF FE
1543220693.767298,can1 0CF00203 [8] FF 00 00 FF FF AD 47 03
1543220693.767893,can1 18FEDF00 [8] FE FE FE FF FE FF BF FF
1543220693.77669,can1 0CF00400 [8] 38 FE FE FE FE 00 FF FE
1543220693.777253,can1 0CF00203 [8] FF 00 00 FF FF AD 47 03
1543220693.784997,can1 18DA00F1 [8] 30 08 00 00 00 00 00 00
1543220693.786713,can1 0CF00400 [8] 38 FE FE FE FE 00 FF FE
1543220693.787264,can1 0CF00203 [8] FF 00 00 FF FF AD 47 03
1543220693.787885,can1 18FEF000 [8] FF FF FF 00 00 FC 00 FF
1543220693.7968,can1 0CF00400 [8] 38 FE FE FE FE 00 FF FE
1543220693.797478,can1 0CF00203 [8] FF 00 00 FF FF AD 47 03
1543220693.798167,can1 18FEE000 [8] A2 01 00 00 A2 01 00 00
1543220693.807007,can1 0CF00400 [8] 38 FE FE FE FE 00 FF FE
1543220693.807589,can1 0CF00203 [8] FF 00 00 FF FF AD 47 03
1543220693.808164,can1 0CF00300 [8] D1 00 FE FF FF FF 00 FF
1543220693.808721,can1 18FEF100 [8] CF 00 00 D0 FF 00 00 30
1543220693.816914,can1 0CF00400 [8] 38 FE FE FE FE 00 FF FE
1543220693.817849,can1 0CF00203 [8] FF 00 00 FF FF AD 47 03
1543220693.818421,can1 18FEDF00 [8] FE FE FE FF FE FF BF FF
1543220693.818935,can1 18FE4A03 [8] FF FF F3 FF F0 F7 FF FF
1543220693.819453,can1 18F00503 [8] FF 57 9E FF 20 2D 2D 2D
1543220693.826844,can1 0CF00400 [8] 38 FE FE FE FE 00 FF FE
1543220693.827445,can1 1CECFF00 [8] 20 22 00 05 FF CA FE 00
1543220693.827958,can1 0CF00203 [8] FF 00 00 FF FF AD 47 03
1543220693.828563,can1 18F00100 [8] FF FF FF FF 53 FF FF FF
1543220693.829168,can1 18DA00F1 [8] 30 08 00 00 00 00 00 00
1543220693.836758,can1 0CF00400 [8] 38 FE FE FE FE 00 FF FE
1543220693.839388,can1 0CF00203 [8] FF 00 00 FF FF AD 47 03
1543220693.840122,can1 18F0000F [8] 51 7D FF FF 0F 72 FF FF
1543220693.843511,can1 18F0010B [8] CF FF F0 FF FF DC FF FF
1543220693.846889,can1 0CF00400 [8] 38 FE FE FE FE 00 FF FE
1543220693.847669,can1 0CF00203 [8] FF 00 00 FF FF AD 47 03
1543220693.848573,can1 18FF3000 [8] 00 00 FF FF FF FF FF FF
1543220693.849265,can1 18DA00F1 [8] 02 10 03 00 00 00 00 00
1543220693.853502,can1 18FEBF0B [8] 00 00 7D 7D 7D 7D FF FF
1543220693.85645,can1 18DAF100 [8] 06 50 03 00 14 00 C8 FF
1543220693.857305,can1 0CF00400 [8] 38 FE FE FE FE 00 FF FE
1543220693.858041,can1 0CF00203 [8] FF 00 00 FF FF AD 47 03
1543220693.858847,can1 0CF00300 [8] D1 00 FE FF FF FF 00 FF
1543220693.859581,can1 14FFA000 [8] FC FF FF FF FF FF FF FF
1543220693.860279,can1 18FEF200 [8] 00 00 00 00 00 00 FF FF
1543220693.866848,can1 0CF00400 [8] 38 FE FE FE FE 00 FF FE
1543220693.867623,can1 0CF00203 [8] FF 00 00 FF FF AD 47 03
1543220693.868435,can1 18FEDF00 [8] FE FE FE FF FE FF BF FF
1543220693.873424,can1 18DA00F1 [8] 30 08 00 00 00 00 00 00
1543220693.876823,can1 0CF00400 [8] 38 FE FE FE FE 00 FF FE
1543220693.877609,can1 1CEBFF00 [8] 01 47 FF 71 02 0D 01 3F
1543220693.878429,can1 0CF00203 [8] FF 00 00 FF FF AD 47 03
1543220693.886797,can1 0CF00400 [8] 38 FE FE FE FE 00 FF FE
1543220693.887621,can1 0CF00203 [8] FF 00 00 FF FF AD 47 03
1543220693.888378,can1 18FEF000 [8] FF FF FF 00 00 FC 00 FF
1543220693.896911,can1 0CF00400 [8] 38 FE FE FE FE 00 FF FE
1543220693.898049,can1 0CF00203 [8] FF 00 00 FF FF AD 47 03
1543220693.898775,can1 18FEE000 [8] A2 01 00 00 A2 01 00 00
1543220693.907171,can1 0CF00400 [8] 38 FE FE FE FE 00 FF FE
1543220693.908028,can1 0CF00203 [8] FF 00 00 FF FF AD 47 03
1543220693.908775,can1 0CF00300 [8] D1 00 FE FF FF FF 00 FF
1543220693.909532,can1 18FEF100 [8] CF 00 00 D0 FF 00 00 30
1543220693.916942,can1 0CF00400 [8] 38 FE FE FE FE 00 FF FE
1543220693.917802,can1 0CF00203 [8] FF 00 00 FF FF AD 47 03
1543220693.918537,can1 18DA00F1 [8] 30 08 00 00 00 00 00 00
1543220693.919325,can1 18FEDF00 [8] FE FE FE FF FE FF BF FF
1543220693.920055,can1 18FE4A03 [8] FF FF F3 FF F0 F7 FF FF
1543220693.920685,can1 18F00503 [8] FF 57 9E FF 20 2D 2D 2D
1543220693.927072,can1 0CF00400 [8] 38 FE FE FE FE 00 FF FE
1543220693.928199,can1 1CEBFF00 [8] 02 0A 08 09 5B 00 08 01
1543220693.92913,can1 0CF00203 [8] FF 00 00 FF FF AD 47 03
1543220693.929819,can1 18F00100 [8] FF FF FF FF 53 FF FF FF
1543220693.936918,can1 0CF00400 [8] 38 FE FE FE FE 00 FF FE
1543220693.937793,can1 0CF00203 [8] FF 00 00 FF FF AD 47 03
1543220693.938551,can1 18F0000F [8] 51 7D FF FF 0F 72 FF FF
1543220693.943922,can1 18F0010B [8] CF FF F0 FF FF DC FF FF
1543220693.948344,can1 0CF00400 [8] 38 FE FE FE FE 00 FF FE
1543220693.94931,can1 0CF00203 [8] FF 00 00 FF FF AD 47 03
1543220693.950029,can1 18FF3000 [8] 00 00 FF FF FF FF FF FF
1543220693.953685,can1 18FEBF0B [8] 00 00 7D 7D 7D 7D FF FF
1543220693.956928,can1 0CF00400 [8] 38 FE FE FE FE 00 FF FE
1543220693.957807,can1 0CF00203 [8] FF 00 00 FF FF AD 47 03
1543220693.958652,can1 0CF00300 [8] D1 00 FE FF FF FF 00 FF
1543220693.959392,can1 14FFA000 [8] FC FF FF FF FF FF FF FF
1543220693.960121,can1 18FEF200 [8] 00 00 00 00 00 00 FF FF
1543220693.961758,can1 18DA00F1 [8] 30 08 00 00 00 00 00 00
1543220693.966861,can1 0CF00400 [8] 38 FE FE FE FE 00 FF FE
1543220693.967759,can1 0CF00203 [8] FF 00 00 FF FF AD 47 03
1543220693.968453,can1 18FEDF00 [8] FE FE FE FF FE FF BF FF
1543220693.976964,can1 0CF00400 [8] 38 FE FE FE FE 00 FF FE
1543220693.978167,can1 1CEBFF00 [8] 03 71 02 0E 03 0F 02 09
1543220693.978907,can1 0CF00203 [8] FF 00 00 FF FF AD 47 03
1543220693.986832,can1 0CF00400 [8] 38 FE FE FE FE 00 FF FE
1543220693.987789,can1 0CF00203 [8] FF 00 00 FF FF AD 47 03
1543220693.988481,can1 18FEF000 [8] FF FF FF 00 00 FC 00 FF
1543220693.997108,can1 0CF00400 [8] 38 FE FE FE FE 00 FF FE
1543220693.998439,can1 0CF00203 [8] FF 00 00 FF FF AD 47 03
1543220693.999302,can1 18FEE000 [8] A2 01 00 00 A2 01 00 00
1543220694.005929,can1 18DA00F1 [8] 30 08 00 00 00 00 00 00
1543220694.007174,can1 0CF00400 [8] 38 FE FE FE FE 00 FF FE
1543220694.008784,can1 0CF00203 [8] FF 00 00 FF FF AD 47 03
1543220694.009601,can1 0CF00300 [8] D1 00 FE FF FF FF 00 FF
1543220694.010286,can1 18FEF100 [8] CF 00 00 D0 FF 00 00 30
1543220694.017047,can1 0CF00400 [8] 38 FE FE FE FE 00 FF FE
1543220694.01817,can1 0CF00203 [8] FF 00 00 FF FF AD 47 03
1543220694.019187,can1 18FEDF00 [8] FE FE FE FF FE FF BF FF
1543220694.020025,can1 18FE4A03 [8] FF FF F3 FF F0 F7 FF FF
1543220694.020851,can1 18F00503 [8] FF 57 9E FF 20 2D 2D 2D
1543220694.021582,can1 18FEEF00 [8] FF FF FF FF FF FF FF FA
1543220694.026961,can1 0CF00400 [8] 38 FE FE FE FE 00 FF FE
1543220694.027879,can1 1CEBFF00 [8] 04 03 E7 07 09 03 01 08
1543220694.028733,can1 0CF00203 [8] FF 00 00 FF FF AD 47 03
1543220694.029403,can1 18F00100 [8] FF FF FF FF 53 FF FF FF
1543220694.036883,can1 0CF00400 [8] 38 FE FE FE FE 00 FF FE
1543220694.037661,can1 0CF00203 [8] FF 00 00 FF FF AD 47 03
1543220694.038487,can1 18F0000F [8] 51 7D FF FF 0F 72 FF FF
1543220694.043854,can1 18F0010B [8] CF FF F0 FF FF DC FF FF
1543220694.046886,can1 0CF00400 [8] 38 FE FE FE FE 00 FF FE
1543220694.047661,can1 0CF00203 [8] FF 00 00 FF FF AD 47 03
1543220694.048483,can1 18FF3000 [8] 00 00 FF FF FF FF FF FF
1543220694.050021,can1 18DA00F1 [8] 30 08 00 00 00 00 00 00
1543220694.053827,can1 18FEBF0B [8] 00 00 7D 7D 7D 7D FF FF
1543220694.056894,can1 0CF00400 [8] 38 FE FE FE FE 00 FF FE
1543220694.057718,can1 0CF00203 [8] FF 00 00 FF FF AD 47 03
1543220694.058547,can1 0CF00300 [8] D1 00 FE FF FF FF 00 FF
1543220694.059267,can1 14FFA000 [8] FC FF FF FF FF FF FF FF
1543220694.060007,can1 18FEF200 [8] 00 00 00 00 00 00 FF FF
1543220694.066854,can1 0CF00400 [8] 38 FE FE FE FE 00 FF FE
1543220694.067756,can1 0CF00203 [8] FF 00 00 FF FF AD 47 03
1543220694.068503,can1 18FEDF00 [8] FE FE FE FF FE FF BF FF
1543220694.069161,can1 18FF6411 [8] F8 FF FF FF FF FF FF FF
1543220694.076822,can1 0CF00400 [8] 38 FE FE FE FE 00 FF FE
1543220694.07786,can1 1CEBFF00 [8] 05 09 03 38 06 09 04 FF
1543220694.078545,can1 0CF00203 [8] FF 00 00 FF FF AD 47 03
1543220694.086848,can1 0CF00400 [8] 38 FE FE FE FE 00 FF FE
1543220694.087636,can1 0CF00203 [8] FF 00 00 FF FF AD 47 03
1543220694.088387,can1 18FEF000 [8] FF FF FF 00 00 FC 00 FF
1543220694.091314,can1 18DA00F1 [8] 02 10 03 00 00 00 00 00
1543220694.094119,can1 18DA00F1 [8] 30 08 00 00 00 00 00 00
1543220694.096438,can1 18DAF100 [8] 06 50 03 00 14 00 C8 FF
1543220694.097275,can1 0CF00400 [8] 38 FE FE FE FE 00 FF FE
1543220694.098302,can1 0CF00203 [8] FF 00 00 FF FF AD 47 03
1543220694.099175,can1 14FD3E00 [8] FF FF FF FF FF FF FF FF
1543220694.099851,can1 18FEE000 [8] A2 01 00 00 A2 01 00 00
1543220694.10716,can1 0CF00400 [8] 38 FE FE FE FE 00 FF FE
1543220694.107938,can1 0CF00203 [8] FF 00 00 FF FF AD 47 03
1543220694.108837,can1 0CF00300 [8] D1 00 FE FF FF FF 00 FF
1543220694.109506,can1 18FEF100 [8] CF 00 00 D0 FF 00 00 30
1543220694.122537,can1 0CF00400 [8] 38 FE FE FE FE 00 FF FE
1543220694.123513,can1 0CF00203 [8] FF 00 00 FF FF AD 47 03
1543220694.124357,can1 18FEDF00 [8] FE FE FE FF FE FF BF FF
1543220694.125049,can1 18FE4A03 [8] FF FF F3 FF F0 F7 FF FF
1543220694.125705,can1 18F00503 [8] FF 57 9E FF 20 2D 2D 2D
1543220694.130123,can1 0CF00400 [8] 38 FE FE FE FE 00 FF FE
1543220694.130966,can1 0CF00203 [8] FF 00 00 FF FF AD 47 03
1543220694.131672,can1 18F00100 [8] FF FF FF FF 53 FF FF FF
1543220694.137,can1 0CF00400 [8] 38 FE FE FE FE 00 FF FE
1543220694.138092,can1 0CF00203 [8] FF 00 00 FF FF AD 47 03
1543220694.138979,can1 18F0000F [8] 51 7D FF FF 0F 72 FF FF
1543220694.142862,can1 18DA00F1 [8] 30 08 00 00 00 00 00 00
1543220694.144548,can1 18FEF600 [8] FF 00 FF FF FF FF FF FF
1543220694.145984,can1 18F0010B [8] CF FF F0 FF FF DC FF FF
1543220694.155507,can1 0CF00400 [8] 38 FE FE FE FE 00 FF FE
1543220694.157354,can1 0CF00203 [8] FF 00 00 FF FF AD 47 03
1543220694.163113,can1 18FF3000 [8] 00 00 FF FF FF FF FF FF
1543220694.164602,can1 18FEBF0B [8] 00 00 7D 7D 7D 7D FF FF
1543220694.166037,can1 0CF00400 [8] 38 FE FE FE FE 00 FF FE
1543220694.17159,can1 0CF00203 [8] FF 00 00 FF FF AD 47 03
1543220694.173075,can1 0CF00300 [8] D1 00 FE FF FF FF 00 FF
1543220694.174345,can1 14FFA000 [8] FC FF FF FF FF FF FF FF
1543220694.179777,can1 18FEF200 [8] 00 00 00 00 00 00 FF FF
1543220694.181617,can1 0CF00400 [8] 38 FE FE FE FE 00 FF FE
1543220694.18336,can1 0CF00203 [8] FF 00 00 FF FF AD 47 03
1543220694.184769,can1 18FEDF00 [8] FE FE FE FF FE FF BF FF
1543220694.186032,can1 0CF00400 [8] 38 FE FE FE FE 00 FF FE
1543220694.195411,can1 0CF00203 [8] FF 00 00 FF FF AD 47 03
1543220694.197068,can1 18DA00F1 [8] 30 08 00 00 00 00 00 00
1543220694.202767,can1 0CF00400 [8] 38 FE FE FE FE 00 FF FE
1543220694.204319,can1 0CF00203 [8] FF 00 00 FF FF AD 47 03
1543220694.205633,can1 18FEF000 [8] FF FF FF 00 00 FC 00 FF
1543220694.211091,can1 0CF00400 [8] 38 FE FE FE FE 00 FF FE
1543220694.212552,can1 0CF00203 [8] FF 00 00 FF FF AD 47 03
1543220694.218092,can1 18FEE000 [8] A2 01 00 00 A2 01 00 00
1543220694.220144,can1 0CF00400 [8] 38 FE FE FE FE 00 FF FE
1543220694.221501,can1 0CF00203 [8] FF 00 00 FF FF AD 47 03
1543220694.227306,can1 0CF00300 [8] D1 00 FE FF FF FF 00 FF
1543220694.22899,can1 18FEF100 [8] CF 00 00 D0 FF 00 00 30
1543220694.234409,can1 0CF00400 [8] 38 FE FE FE FE 00 FF FE
1543220694.235865,can1 0CF00203 [8] FF 00 00 FF FF AD 47 03
1543220694.241432,can1 18FEDF00 [8] FE FE FE FF FE FF BF FF
1543220694.242825,can1 18FE4A03 [8] FF FF F3 FF F0 F7 FF FF
1543220694.244396,can1 18F00503 [8] FF 57 9E FF 20 2D 2D 2D
1543220694.249808,can1 18DA00F1 [8] 30 08 00 00 00 00 00 00
1543220694.25129,can1 0CF00400 [8] 38 FE FE FE FE 00 FF FE
1543220694.252563,can1 0CF00203 [8] FF 00 00 FF FF AD 47 03
1543220694.258259,can1 18F00100 [8] FF FF FF FF 53 FF FF FF
1543220694.259966,can1 0CF00400 [8] 38 FE FE FE FE 00 FF FE
1543220694.265366,can1 0CF00203 [8] FF 00 00 FF FF AD 47 03
1543220694.266969,can1 18F0000F [8] 51 7D FF FF 0F 72 FF FF
1543220694.271214,can1 18F0010B [8] CF FF F0 FF FF DC FF FF
1543220694.272909,can1 0CF00400 [8] 38 FE FE FE FE 00 FF FE
1543220694.274244,can1 0CF00203 [8] FF 00 00 FF FF AD 47 03
1543220694.275633,can1 18FF3000 [8] 00 00 FF FF FF FF FF FF
1543220694.277239,can1 18FEBF0B [8] 00 00 7D 7D 7D 7D FF FF
1543220694.278611,can1 0CF00400 [8] 38 FE FE FE FE 00 FF FE
1543220694.279838,can1 0CF00203 [8] FF 00 00 FF FF AD 47 03
1543220694.281164,can1 0CF00300 [8] D1 00 FE FF FF FF 00 FF
1543220694.282474,can1 14FFA000 [8] FC FF FF FF FF FF FF FF
1543220694.283681,can1 18FEF200 [8] 00 00 00 00 00 00 FF FF
1543220694.284989,can1 0CF00400 [8] 38 FE FE FE FE 00 FF FE
1543220694.286281,can1 0CF00203 [8] FF 00 00 FF FF AD 47 03
1543220694.287872,can1 18FEDF00 [8] FE FE FE FF FE FF BF FF
1543220694.289206,can1 18DA00F1 [8] 30 08 00 00 00 00 00 00
1543220694.290511,can1 0CF00400 [8] 38 FE FE FE FE 00 FF FE
1543220694.291718,can1 0CF00203 [8] FF 00 00 FF FF AD 47 03
1543220694.293034,can1 0CF00400 [8] 38 FE FE FE FE 00 FF FE
1543220694.294342,can1 0CF00203 [8] FF 00 00 FF FF AD 47 03
1543220694.295537,can1 18FEF000 [8] FF FF FF 00 00 FC 00 FF
1543220694.297354,can1 0CF00400 [8] 38 FE FE FE FE 00 FF FE
1543220694.299243,can1 0CF00203 [8] FF 00 00 FF FF AD 47 03
1543220694.300694,can1 18FEE000 [8] A2 01 00 00 A2 01 00 00
1543220694.307602,can1 0CF00400 [8] 38 FE FE FE FE 00 FF FE
1543220694.309177,can1 0CF00203 [8] FF 00 00 FF FF AD 47 03
1543220694.310561,can1 0CF00300 [8] D1 00 FE FF FF FF 00 FF
1543220694.311887,can1 18FEF100 [8] CF 00 00 D0 FF 00 00 30
1543220694.316895,can1 18DA00F1 [8] 30 08 00 00 00 00 00 00
1543220694.319422,can1 0CF00400 [8] 38 FE FE FE FE 00 FF FE
1543220694.320836,can1 0CF00203 [8] FF 00 00 FF FF AD 47 03
1543220694.322282,can1 18FEDF00 [8] FE FE FE FF FE FF BF FF
1543220694.323633,can1 18FE4A03 [8] FF FF F3 FF F0 F7 FF FF
1543220694.324869,can1 18F00503 [8] FF 57 9E FF 20 2D 2D 2D
1543220694.327419,can1 0CF00400 [8] 38 FE FE FE FE 00 FF FE
1543220694.328873,can1 0CF00203 [8] FF 00 00 FF FF AD 47 03
1543220694.330242,can1 18F00100 [8] FF FF FF FF 53 FF FF FF
1543220694.33472,can1 18DA00F1 [8] 02 10 03 00 00 00 00 00
1543220694.337486,can1 18DAF100 [8] 06 50 03 00 14 00 C8 FF
1543220694.339152,can1 0CF00400 [8] 08 FE FE FE FE 00 FF FE
1543220694.340441,can1 0CF00203 [8] FF 00 00 FF FF AD 47 03
1543220694.341812,can1 18F0000F [8] 51 7D FF FF 0F 72 FF FF
1543220694.344459,can1 18F0010B [8] CF FF F0 FF FF DC FF FF
1543220694.347412,can1 0CF00400 [8] 08 FE FE FE FE 00 FF FE
1543220694.349087,can1 0CF00203 [8] FF 00 00 FF FF AD 47 03
1543220694.350559,can1 18FF3000 [8] 00 00 FF FF FF FF FF FF
1543220694.35465,can1 18FEBF0B [8] 00 00 7D 7D 7D 7D FF FF
1543220694.357323,can1 0CF00400 [8] 08 FE FE FE FE 00 FF FE
1543220694.35909,can1 0CF00203 [8] FF 00 00 FF FF AD 47 03
1543220694.360583,can1 0CF00300 [8] D1 00 FE FF FF FF 00 FF
1543220694.361836,can1 14FFA000 [8] FC FF FF FF FF FF FF FF
1543220694.363158,can1 18DA00F1 [8] 30 08 00 00 00 00 00 00
1543220694.364468,can1 18FEF200 [8] 00 00 00 00 00 00 FF FF
1543220694.367252,can1 0CF00400 [8] 08 FE FE FE FE 00 FF FE
1543220694.368769,can1 0CF00203 [8] FF 00 00 FF FF AD 47 03
1543220694.37012,can1 18FEDF00 [8] FE FE FE FF FE FF BF FF
1543220694.377211,can1 0CF00400 [8] 08 FE FE FE FE 00 FF FE
1543220694.379322,can1 0CF00203 [8] FF 00 00 FF FF AD 47 03
1543220694.387277,can1 0CF00400 [8] 08 FE FE FE FE 00 FF FE
1543220694.38887,can1 0CF00203 [8] FF 00 00 FF FF AD 47 03
1543220694.390229,can1 18FEF000 [8] FF FF FF 00 00 FC 00 FF
1543220694.397413,can1 0CF00400 [8] 38 FE FE FE FE 00 FF FE
1543220694.398854,can1 0CF00203 [8] FF 00 00 FF FF AD 47 03
1543220694.400635,can1 18FEE000 [8] A2 01 00 00 A2 01 00 00
1543220694.405877,can1 18DA00F1 [8] 30 08 00 00 00 00 00 00
1543220694.408265,can1 0CF00400 [8] 38 FE FE FE FE 00 FF FE
1543220694.409914,can1 0CF00203 [8] FF 00 00 FF FF AD 47 03
1543220694.411298,can1 0CF00300 [8] D1 00 FE FF FF FF 00 FF
1543220694.412533,can1 18FEF100 [8] CF 00 00 D0 FF 00 00 30
1543220694.41741,can1 0CF00400 [8] 38 FE FE FE FE 00 FF FE
1543220694.421134,can1 0CF00203 [8] FF 00 00 FF FF AD 47 03
1543220694.423019,can1 18FEDF00 [8] FE FE FE FF FE FF BF FF
1543220694.424404,can1 18FE4A03 [8] FF FF F3 FF F0 F7 FF FF
1543220694.425822,can1 18F00503 [8] FF 57 9E FF 20 2D 2D 2D
1543220694.427486,can1 0CF00400 [8] 38 FE FE FE FE 00 FF FE
1543220694.428998,can1 0CF00203 [8] FF 00 00 FF FF AD 47 03
1543220694.430241,can1 18F00100 [8] FF FF FF FF 53 FF FF FF
1543220694.437316,can1 0CF00400 [8] 38 FE FE FE FE 00 FF FE
1543220694.438856,can1 0CF00203 [8] FF 00 00 FF FF AD 47 03
1543220694.440093,can1 18F0000F [8] 51 7D FF FF 0F 72 FF FF
1543220694.445508,can1 18F0010B [8] CF FF F0 FF FF DC FF FF
1543220694.447361,can1 0CF00400 [8] 38 FE FE FE FE 00 FF FE
1543220694.449054,can1 18DA00F1 [8] 30 08 00 00 00 00 00 00
1543220694.450433,can1 0CF00203 [8] FF 00 00 FF FF AD 47 03
1543220694.451672,can1 18FF3000 [8] 00 00 FF FF FF FF FF FF
1543220694.454632,can1 18FEBF0B [8] 00 00 7D 7D 7D 7D FF FF
1543220694.457323,can1 0CF00400 [8] 38 FE FE FE FE 00 FF FE
1543220694.459091,can1 0CF00203 [8] FF 00 00 FF FF AD 47 03
1543220694.460467,can1 0CF00300 [8] D1 00 FE FF FF FF 00 FF
1543220694.461693,can1 14FFA000 [8] FC FF FF FF FF FF FF FF
1543220694.463017,can1 18FEF200 [8] 00 00 00 00 00 00 FF FF
1543220694.467258,can1 0CF00400 [8] 38 FE FE FE FE 00 FF FE
1543220694.468769,can1 0CF00203 [8] FF 00 00 FF FF AD 47 03
1543220694.470106,can1 18FEDF00 [8] FE FE FE FF FE FF BF FF
1543220694.477214,can1 0CF00400 [8] 38 FE FE FE FE 00 FF FE
1543220694.478603,can1 0CF00203 [8] FF 00 00 FF FF AD 47 03
1543220694.487262,can1 0CF00400 [8] 38 FE FE FE FE 00 FF FE
1543220694.488695,can1 0CF00203 [8] FF 00 00 FF FF AD 47 03
1543220694.490038,can1 18FEF000 [8] FF FF FF 00 00 FC 00 FF
1543220694.491598,can1 18DA00F1 [8] 30 08 00 00 00 00 00 00
1543220694.497384,can1 0CF00400 [8] 38 FE FE FE FE 00 FF FE
1543220694.498798,can1 0CF00203 [8] FF 00 00 FF FF AD 47 03
1543220694.500549,can1 18FEE000 [8] A2 01 00 00 A2 01 00 00
1543220694.507796,can1 0CF00400 [8] 38 FE FE FE FE 00 FF FE
1543220694.509564,can1 1CECFF0F [8] 20 13 00 03 FF E1 FE 00
1543220694.511634,can1 0CF00203 [8] FF 00 00 FF FF AD 47 03
1543220694.513064,can1 0CF00300 [8] D1 00 FE FF FF FF 00 FF
1543220694.516168,can1 18FEF100 [8] CF 00 00 D0 FF 00 00 30
1543220694.518771,can1 18FDE000 [8] FF FF FF FF FF FF FF FF
1543220694.52069,can1 18FF6000 [8] 36 01 00 C8 1F 0A 3C FC
1543220694.521995,can1 1CFEAB03 [8] FF FF 7E FF FF FF FF FF
1543220694.52338,can1 0CF00400 [8] 38 FE FE FE FE 00 FF FE
1543220694.524694,can1 1CECFF00 [8] 20 27 00 06 FF E3 FE 00
1543220694.525927,can1 0CF00203 [8] FF 00 00 FF FF AD 47 03
1543220694.527491,can1 18FEDF00 [8] FE FE FE FF FE FF BF FF
1543220694.529165,can1 18FE4A03 [8] FF FF F3 FF F0 F7 FF FF
1543220694.530507,can1 18F00503 [8] FF 57 9E FF 20 2D 2D 2D
1543220694.531731,can1 18FEEF00 [8] FF FF FF FF FF FF FF FA
1543220694.533042,can1 0CF00400 [8] 38 FE FE FE FE 00 FF FE
1543220694.53433,can1 0CF00203 [8] FF 00 00 FF FF AD 47 03
1543220694.535667,can1 18F00100 [8] FF FF FF FF 53 FF FF FF
1543220694.537115,can1 18E0FF00 [8] FF FF FF FF FF F3 FF FF
1543220694.538659,can1 18FCDC00 [8] E0 FE FE FF FF FF FF FF
1543220694.539869,can1 18DA00F1 [8] 30 08 00 00 00 00 00 00
1543220694.541193,can1 0CF00400 [8] 38 FE FE FE FE 00 FF FE
1543220694.542491,can1 0CF00203 [8] FF 00 00 FF FF AD 47 03
1543220694.543681,can1 18F0000F [8] 51 7D FF FF 0F 72 FF FF
1543220694.545128,can1 18F0010B [8] CF FF F0 FF FF DC FF FF
1543220694.547294,can1 0CF00400 [8] 38 FE FE FE FE 00 FF FE
1543220694.548811,can1 0CF00203 [8] FF 00 00 FF FF AD 47 03
1543220694.550155,can1 18FF3000 [8] 00 00 FF FF FF FF FF FF
1543220694.554732,can1 18FEBF0B [8] 00 00 7D 7D 7D 7D FF FF
1543220694.557309,can1 0CF00400 [8] 38 FE FE FE FE 00 FF FE
1543220694.559047,can1 1CEBFF0F [8] 01 03 03 60 22 4A 80 4D
1543220694.560631,can1 0CF00203 [8] FF 00 00 FF FF AD 47 03
1543220694.561976,can1 0CF00300 [8] D1 00 FE FF FF FF 00 FF
1543220694.563191,can1 14FFA000 [8] FC FF FF FF FF FF FF FF
1543220694.564518,can1 18FEF200 [8] 00 00 00 00 00 00 FF FF
1543220694.565815,can1 18FEF500 [8] FF FF FF FF FF FF FF FF
1543220694.567358,can1 0CF00400 [8] 38 FE FE FE FE 00 FF FE
1543220694.568835,can1 0CF00203 [8] FF 00 00 FF FF AD 47 03
1543220694.570293,can1 18FEDF00 [8] FE FE FE FF FE FF BF FF
1543220694.571601,can1 18FF6411 [8] F8 FF FF FF FF FF FF FF
1543220694.572806,can1 18FECA11 [8] 03 FF 00 00 00 00 FF FF
1543220694.577327,can1 0CF00400 [8] 38 FE FE FE FE 00 FF FE
1543220694.579071,can1 1CEBFF00 [8] 01 A0 0F B5 00 41 B6 F8
1543220694.580571,can1 18DA00F1 [8] 02 10 03 00 00 00 00 00
1543220694.581926,can1 0CF00203 [8] FF 00 00 FF FF AD 47 03
1543220694.583235,can1 18FEEE00 [8] FF FF FF FF FF FF FF FF
1543220694.584439,can1 18DA00F1 [8] 30 08 00 00 00 00 00 00
1543220694.585757,can1 18FF1703 [8] FC FF FF FF FF FF FF FF
1543220694.587419,can1 18DAF100 [8] 06 50 03 00 14 00 C8 FF
1543220694.589091,can1 0CF00400 [8] 38 FE FE FE FE 00 FF FE
1543220694.590346,can1 0CF00203 [8] FF 00 00 FF FF AD 47 03
1543220694.591667,can1 18FEF000 [8] FF FF FF 00 00 FC 00 FF
1543220694.592969,can1 18FEA400 [8] FF FF FF FF 66 B1 A0 5B
1543220694.594166,can1 18FECA03 [8] 03 FF 00 00 00 00 FF FF
1543220694.597334,can1 0CF00400 [8] 38 FE FE FE FE 00 FF FE
1543220694.598952,can1 0CF00203 [8] FF 00 00 FF FF AD 47 03
1543220694.60071,can1 14FD3E00 [8] FF FF FF FF FF FF FF FF
1543220694.602003,can1 18FEE000 [8] A2 01 00 00 A2 01 00 00
1543220694.607572,can1 0CF00400 [8] 38 FE FE FE FE 00 FF FE
1543220694.609326,can1 1CEBFF0F [8] 02 27 28 2D 2B B8 42 1D
1543220694.61091,can1 0CF00203 [8] FF 00 00 FF FF AD 47 03
1543220694.612148,can1 0CF00300 [8] D1 00 FE FF FF FF 00 FF
1543220694.618648,can1 18FEF100 [8] CF 00 00 D0 FF 00 00 30
1543220694.620689,can1 18FEBD00 [8] FF FF FF FF FF FF FF FF
1543220694.626124,can1 18FD0700 [8] 47 F4 C0 FF FF FF FF FF
1543220694.628132,can1 0CF00400 [8] 38 FE FE FE FE 00 FF FE
1543220694.629723,can1 0CF00203 [8] FF 00 00 FF FF AD 47 03
1543220694.635208,can1 18FEDF00 [8] FE FE FE FF FE FF BF FF
1543220694.636785,can1 18FE4A03 [8] FF FF F3 FF F0 F7 FF FF
1543220694.642416,can1 18F00503 [8] FF 57 9E FF 20 2D 2D 2D
1543220694.644942,can1 18FF7400 [8] 5D 01 FF FF FF FF FF FF
1543220694.650531,can1 18DA00F1 [8] 30 08 00 00 00 00 00 00
1543220694.652048,can1 0CF00400 [8] 38 FE FE FE FE 00 FF FE
1543220694.661278,can1 1CEBFF00 [8] 02 1B C6 C0 26 E1 A8 34
1543220694.663097,can1 0CF00203 [8] FF 00 00 FF FF AD 47 03
1543220694.664714,can1 18F00100 [8] FF FF FF FF 53 FF FF FF
1543220694.670951,can1 18FD7C00 [8] FF FF D0 34 FD FF FF FF
1543220694.676942,can1 0CF00400 [8] 38 FE FE FE FE 00 FF FE
1543220694.67903,can1 0CF00203 [8] FF 00 00 FF FF AD 47 03
1543220694.680385,can1 18F0000F [8] 51 7D FF FF 0F 72 FF FF
1543220694.686022,can1 18FEF600 [8] FF 00 FF FF FF FF FF FF
1543220694.687877,can1 18FEE400 [8] 00 3F FD FF 00 7F FF FF
1543220694.693393,can1 18DA00F1 [8] 03 22 02 03 00 00 00 00
1543220694.694842,can1 18F0010B [8] CF FF F0 FF FF DC FF FF
1543220694.696099,can1 0CF00400 [8] 38 FE FE FE FE 00 FF FE
1543220694.701667,can1 0CF00203 [8] FF 00 00 FF FF AD 47 03
1543220694.70312,can1 18FF3000 [8] 00 00 FF FF FF FF FF FF
1543220694.708719,can1 18FEBF0B [8] 00 00 7D 7D 7D 7D FF FF
1543220694.710251,can1 18DAF100 [8] 10 52 62 02 03 03 1C 20
1543220694.716225,can1 0CF00400 [8] 38 FE FE FE FE 00 FF FE
1543220694.722345,can1 1CEBFF0F [8] 03 60 3B 5D 04 19 FF FF
1543220694.723949,can1 0CF00203 [8] FF 00 00 FF FF AD 47 03
1543220694.725254,can1 0CF00300 [8] D1 00 FE FF FF FF 00 FF
1543220694.730747,can1 14FFA000 [8] FC FF FF FF FF FF FF FF
1543220694.732214,can1 18FEF200 [8] 00 00 00 00 00 00 FF FF
1543220694.737639,can1 0CF00400 [8] 38 FE FE FE FE 00 FF FE
1543220694.739347,can1 0CF00203 [8] FF 00 00 FF FF AD 47 03
1543220694.740663,can1 18DA00F1 [8] 30 08 00 00 00 00 00 00
1543220694.746256,can1 18FEDF00 [8] FE FE FE FF FE FF BF FF
1543220694.748141,can1 18FE5600 [8] FF FF FF FF FF FF FF FF
1543220694.753534,can1 18DAF100 [8] 21 00 83 40 1F 40 06 40
1543220694.755186,can1 18DAF100 [8] 22 00 0F 00 A0 00 01 2C
1543220694.760763,can1 18DAF100 [8] 23 16 00 00 0F 38 40 00
1543220694.76221,can1 18DAF100 [8] 24 40 2C 56 24 34 04 00
1543220694.763628,can1 18DAF100 [8] 25 15 E0 7D 00 0F 61 A8
1543220694.768963,can1 18DAF100 [8] 26 4E EC 61 FB 1F 40 05
1543220694.770474,can1 18DAF100 [8] 27 00 12 C0 11 30 03 20
1543220694.771788,can1 18DAF100 [8] 28 01 00 00 80 00 00 00
1543220694.777458,can1 0CF00400 [8] 38 FE FE FE FE 00 FF FE
1543220694.779075,can1 1CEBFF00 [8] 03 D5 19 43 FF FF 83 09
1543220694.783118,can1 0CF00203 [8] FF 00 00 FF FF AD 47 03
1543220694.78462,can1 18FEC100 [8] CC 28 00 00 CC 28 00 00
1543220694.785912,can1 0CF00400 [8] 38 FE FE FE FE 00 FF FE
1543220694.791401,can1 0CF00203 [8] FF 00 00 FF FF AD 47 03
1543220694.792838,can1 18FEF000 [8] FF FF FF 00 00 FC 00 FF
1543220694.798281,can1 18FEF700 [8] FF FF FF FF EF 00 EF 00
1543220694.799916,can1 0CF00400 [8] 38 FE FE FE FE 00 FF FE
1543220694.801842,can1 0CF00203 [8] FF 00 00 FF FF AD 47 03
1543220694.803149,can1 18FEE000 [8] A2 01 00 00 A2 01 00 00
1543220694.808929,can1 18FEF803 [8] FF FF FF FF FF FF FF FF
1543220694.810492,can1 0CF00400 [8] 38 FE FE FE FE 00 FF FE
1543220694.81268,can1 0CF00203 [8] FF 00 00 FF FF AD 47 03
1543220694.814203,can1 0CF00300 [8] D1 00 FE FF FF FF 00 FF
1543220694.818027,can1 18FEF100 [8] CF 00 00 D0 FF 00 00 30
1543220694.820092,can1 18DA00F1 [8] 30 08 00 00 00 00 00 00
1543220694.82172,can1 18DAF100 [8] 29 01 00 04 00 00 01 00
1543220694.822995,can1 18DAF100 [8] 2A 34 80 FF FF FF FF FF
1543220694.82436,can1 18DAF100 [8] 2B FF FF 01 12 C0 00 FF
1543220694.825685,can1 0CF00400 [8] 38 FE FE FE FE 00 FF FE
1543220694.827275,can1 0CF00203 [8] FF 00 00 FF FF AD 47 03
1543220694.8294,can1 18FEDF00 [8] FE FE FE FF FE FF BF FF
1543220694.830681,can1 18FE4A03 [8] FF FF F3 FF F0 F7 FF FF
1543220694.832032,can1 18F00503 [8] FF 57 9E FF 20 2D 2D 2D
1543220694.833357,can1 0CF00400 [8] 38 FE FE FE FE 00 FF FE
1543220694.834581,can1 1CEBFF00 [8] 04 80 4D 32 FF FF FF FF
1543220694.835915,can1 0CF00203 [8] FF 00 00 FF FF AD 47 03
1543220694.837461,can1 18F00100 [8] FF FF FF FF 53 FF FF FF
1543220694.838919,can1 0CF00400 [8] 38 FE FE FE FE 00 FF FE
1543220694.840161,can1 0CF00203 [8] FF 00 00 FF FF AD 47 03
1543220694.841465,can1 18F0000F [8] 51 7D FF FF 0F 72 FF FF
1543220694.84276,can1 18F0010B [8] CF FF F0 FF FF DC FF FF
1543220694.844124,can1 0CF00400 [8] 38 FE FE FE FE 00 FF FE
1543220694.84557,can1 0CF00203 [8] FF 00 00 FF FF AD 47 03
1543220694.847001,can1 18FF3000 [8] 00 00 FF FF FF FF FF FF
1543220694.848459,can1 18FEBF0B [8] 00 00 7D 7D 7D 7D FF FF
1543220694.849789,can1 18DA00F1 [8] 30 08 00 00 00 00 00 00
1543220694.851095,can1 0CF00400 [8] 38 FE FE FE FE 00 FF FE
1543220694.852299,can1 0CF00203 [8] FF 00 00 FF FF AD 47 03
1543220694.853612,can1 0CF00300 [8] D1 00 FE FF FF FF 00 FF
1543220694.855037,can1 14FFA000 [8] FC FF FF FF FF FF FF FF
1543220694.856266,can1 18FEF200 [8] 00 00 00 00 00 00 FF FF
1543220694.857944,can1 0CF00400 [8] 38 FE FE FE FE 00 FF FE
1543220694.859505,can1 0CF00203 [8] FF 00 00 FF FF AD 47 03
1543220694.860817,can1 18FEDF00 [8] FE FE FE FF FE FF BF FF
1543220694.862035,can1 0CF00400 [8] 38 FE FE FE FE 00 FF FE
1543220694.863354,can1 1CEBFF00 [8] 05 FF FF 04 01 FF FF FF
1543220694.864652,can1 0CF00203 [8] FF 00 00 FF FF AD 47 03
1543220694.865866,can1 0CF00400 [8] 38 FE FE FE FE 00 FF FE
1543220694.867423,can1 0CF00203 [8] FF 00 00 FF FF AD 47 03
1543220694.868881,can1 18FEF000 [8] FF FF FF 00 00 FC 00 FF
1543220694.870213,can1 0CF00400 [8] 38 FE FE FE FE 00 FF FE
1543220694.871448,can1 0CF00203 [8] FF 00 00 FF FF AD 47 03
1543220694.872758,can1 18FEE000 [8] A2 01 00 00 A2 01 00 00
1543220694.874053,can1 18DA00F1 [8] 30 08 00 00 00 00 00 00
1543220694.875263,can1 0CF00400 [8] 38 FE FE FE FE 00 FF FE
1543220694.876685,can1 0CF00203 [8] FF 00 00 FF FF AD 47 03
1543220694.878285,can1 0CF00300 [8] D1 00 FE FF FF FF 00 FF
1543220694.879511,can1 18FEF100 [8] CF 00 00 D0 FF 00 00 30
1543220694.880856,can1 0CF00400 [8] 38 FE FE FE FE 00 FF FE
1543220694.88216,can1 0CF00203 [8] FF 00 00 FF FF AD 47 03
1543220694.88337,can1 18FEDF00 [8] FE FE FE FF FE FF BF FF
1543220694.884669,can1 18FE4A03 [8] FF FF F3 FF F0 F7 FF FF
1543220694.885957,can1 18F00503 [8] FF 57 9E FF 20 2D 2D 2D
1543220694.887413,can1 18DA00F1 [8] 02 10 03 00 00 00 00 00
1543220694.88898,can1 18DAF100 [8] 06 50 03 00 14 00 C8 FF
1543220694.890318,can1 0CF00400 [8] 38 FE FE FE FE 00 FF FE
1543220694.891622,can1 1CEBFF00 [8] 06 FF FF FF FF FF FF FF
1543220694.892849,can1 1CECFF00 [8] 20 22 00 05 FF CA FE 00
1543220694.894164,can1 0CF00203 [8] FF 00 00 FF FF AD 47 03
1543220694.895362,can1 18F00100 [8] FF FF FF FF 53 FF FF FF
1543220694.896808,can1 0CF00400 [8] 38 FE FE FE FE 00 FF FE
1543220694.898357,can1 0CF00203 [8] FF 00 00 FF FF AD 47 03
1543220694.899688,can1 18F0000F [8] 51 7D FF FF 0F 72 FF FF
1543220694.901411,can1 18DA00F1 [8] 30 08 00 00 00 00 00 00
1543220694.902714,can1 18F0010B [8] CF FF F0 FF FF DC FF FF
1543220694.904062,can1 0CF00400 [8] 38 FE FE FE FE 00 FF FE
1543220694.905382,can1 0CF00203 [8] FF 00 00 FF FF AD 47 03
1543220694.90661,can1 18FF3000 [8] 00 00 FF FF FF FF FF FF
1543220694.908294,can1 18FEBF0B [8] 00 00 7D 7D 7D 7D FF FF
1543220694.909754,can1 0CF00400 [8] 38 FE FE FE FE 00 FF FE
1543220694.910967,can1 0CF00203 [8] FF 00 00 FF FF AD 47 03
1543220694.912291,can1 0CF00300 [8] D1 00 FE FF FF FF 00 FF
1543220694.913588,can1 14FFA000 [8] FC FF FF FF FF FF FF FF
1543220694.91479,can1 18FEF200 [8] 00 00 00 00 00 00 FF FF
1543220694.916107,can1 0CF00400 [8] 38 FE FE FE FE 00 FF FE
1543220694.917669,can1 0CF00203 [8] FF 00 00 FF FF AD 47 03
1543220694.919353,can1 18FEDF00 [8] FE FE FE FF FE FF BF FF
1543220694.920605,can1 0CF00400 [8] 38 FE FE FE FE 00 FF FE
1543220694.921929,can1 1CEBFF00 [8] 01 47 FF 71 02 0D 01 3F
1543220694.923238,can1 0CF00203 [8] FF 00 00 FF FF AD 47 03
1543220694.924444,can1 0CF00400 [8] 38 FE FE FE FE 00 FF FE
1543220694.928277,can1 0CF00203 [8] FF 00 00 FF FF AD 47 03
1543220694.930153,can1 18FEF000 [8] FF FF FF 00 00 FC 00 FF
1543220694.931626,can1 18DA00F1 [8] 30 08 00 00 00 00 00 00
1543220694.933175,can1 0CF00400 [8] 38 FE FE FE FE 00 FF FE
1543220694.935486,can1 0CF00203 [8] FF 00 00 FF FF AD 47 03
1543220694.937153,can1 18FEE000 [8] A2 01 00 00 A2 01 00 00
1543220694.938825,can1 0CF00400 [8] 38 FE FE FE FE 00 FF FE
1543220694.940087,can1 0CF00203 [8] FF 00 00 FF FF AD 47 03
1543220694.941799,can1 0CF00300 [8] D1 00 FE FF FF FF 00 FF
1543220694.943321,can1 18FEF100 [8] CF 00 00 D0 FF 00 00 30
1543220694.944947,can1 0CF00400 [8] 38 FE FE FE FE 00 FF FE
1543220694.947753,can1 0CF00203 [8] FF 00 00 FF FF AD 47 03
1543220694.949396,can1 18FEDF00 [8] FE FE FE FF FE FF BF FF
1543220694.950802,can1 18FE4A03 [8] FF FF F3 FF F0 F7 FF FF
1543220694.952133,can1 18F00503 [8] FF 57 9E FF 20 2D 2D 2D
1543220694.953394,can1 0CF00400 [8] 38 FE FE FE FE 00 FF FE
1543220694.954854,can1 1CEBFF00 [8] 02 0A 08 09 5B 00 08 01
1543220694.956208,can1 0CF00203 [8] FF 00 00 FF FF AD 47 03
1543220694.957692,can1 18F00100 [8] FF FF FF FF 53 FF FF FF
1543220694.959406,can1 18DA00F1 [8] 30 08 00 00 00 00 00 00
1543220694.960754,can1 0CF00400 [8] 38 FE FE FE FE 00 FF FE
1543220694.962085,can1 0CF00203 [8] FF 00 00 FF FF AD 47 03
1543220694.963322,can1 18F0000F [8] 51 7D FF FF 0F 72 FF FF
1543220694.964626,can1 18F0010B [8] CF FF F0 FF FF DC FF FF
1543220694.965934,can1 0CF00400 [8] 38 FE FE FE FE 00 FF FE
1543220694.967409,can1 0CF00203 [8] FF 00 00 FF FF AD 47 03
1543220694.968851,can1 18FF3000 [8] 00 00 FF FF FF FF FF FF
1543220694.970167,can1 18FEBF0B [8] 00 00 7D 7D 7D 7D FF FF
1543220694.971382,can1 0CF00400 [8] 38 FE FE FE FE 00 FF FE
1543220694.972721,can1 0CF00203 [8] FF 00 00 FF FF AD 47 03
1543220694.974049,can1 0CF00300 [8] D1 00 FE FF FF FF 00 FF
1543220694.975259,can1 14FFA000 [8] FC FF FF FF FF FF FF FF
1543220694.976708,can1 18FEF200 [8] 00 00 00 00 00 00 FF FF
1543220694.978401,can1 0CF00400 [8] 38 FE FE FE FE 00 FF FE
1543220694.979756,can1 0CF00203 [8] FF 00 00 FF FF AD 47 03
1543220694.980975,can1 18FEDF00 [8] FE FE FE FF FE FF BF FF
1543220694.98229,can1 18DA00F1 [8] 30 08 00 00 00 00 00 00
1543220694.983589,can1 0CF00400 [8] 38 FE FE FE FE 00 FF FE
1543220694.984801,can1 1CEBFF00 [8] 03 71 02 0E 03 0F 02 09
1543220694.9861,can1 0CF00203 [8] FF 00 00 FF FF AD 47 03
1543220694.987656,can1 0CF00400 [8] 38 FE FE FE FE 00 FF FE
1543220694.988998,can1 0CF00203 [8] FF 00 00 FF FF AD 47 03
1543220694.990332,can1 18FEF000 [8] FF FF FF 00 00 FC 00 FF
1543220694.99746,can1 0CF00400 [8] 38 FE FE FE FE 00 FF FE
1543220694.998986,can1 0CF00203 [8] FF 00 00 FF FF AD 47 03
1543220695.00025,can1 18FEE000 [8] A2 01 00 00 A2 01 00 00
1543220695.007622,can1 0CF00400 [8] 38 FE FE FE FE 00 FF FE
1543220695.009308,can1 0CF00203 [8] FF 00 00 FF FF AD 47 03
1543220695.010573,can1 0CF00300 [8] D1 00 FE FF FF FF 00 FF
1543220695.011928,can1 18FEF100 [8] CF 00 00 D0 FF 00 00 30
1543220695.017978,can1 0CF00400 [8] 38 FE FE FE FE 00 FF FE
1543220695.020162,can1 0CF00203 [8] FF 00 00 FF FF AD 47 03
1543220695.021754,can1 18FEDF00 [8] FE FE FE FF FE FF BF FF
1543220695.02315,can1 18FE4A03 [8] FF FF F3 FF F0 F7 FF FF
1543220695.024486,can1 18F00503 [8] FF 57 9E FF 20 2D 2D 2D
1543220695.025716,can1 18FEEF00 [8] FF FF FF FF FF FF FF FA
1543220695.027155,can1 18DA00F1 [8] 30 08 00 00 00 00 00 00
1543220695.028909,can1 0CF00400 [8] 38 FE FE FE FE 00 FF FE
1543220695.030244,can1 1CEBFF00 [8] 04 03 E7 07 09 03 01 08
1543220695.031494,can1 0CF00203 [8] FF 00 00 FF FF AD 47 03
1543220695.032802,can1 18F00100 [8] FF FF FF FF 53 FF FF FF
1543220695.037333,can1 0CF00400 [8] 38 FE FE FE FE 00 FF FE
1543220695.038882,can1 0CF00203 [8] FF 00 00 FF FF AD 47 03
1543220695.040236,can1 18F0000F [8] 51 7D FF FF 0F 72 FF FF
1543220695.04534,can1 18F0010B [8] CF FF F0 FF FF DC FF FF
1543220695.047298,can1 0CF00400 [8] 38 FE FE FE FE 00 FF FE
1543220695.048845,can1 0CF00203 [8] FF 00 00 FF FF AD 47 03
1543220695.050198,can1 18FF3000 [8] 00 00 FF FF FF FF FF FF
1543220695.055357,can1 18FEBF0B [8] 00 00 7D 7D 7D 7D FF FF
1543220695.057293,can1 0CF00400 [8] 38 FE FE FE FE 00 FF FE
1543220695.058916,can1 0CF00203 [8] FF 00 00 FF FF AD 47 03
1543220695.060411,can1 0CF00300 [8] D1 00 FE FF FF FF 00 FF
1543220695.061729,can1 14FFA000 [8] FC FF FF FF FF FF FF FF
1543220695.062952,can1 18FEF200 [8] 00 00 00 00 00 00 FF FF
1543220695.064387,can1 18DA00F1 [8] 02 10 03 00 00 00 00 00
1543220695.065846,can1 18DA00F1 [8] 30 08 00 00 00 00 00 00
1543220695.067508,can1 18DAF100 [8] 06 50 03 00 14 00 C8 FF
1543220695.069035,can1 0CF00400 [8] 38 FE FE FE FE 00 FF FE
1543220695.070382,can1 0CF00203 [8] FF 00 00 FF FF AD 47 03
1543220695.071685,can1 18FEDF00 [8] FE FE FE FF FE FF BF FF
1543220695.07289,can1 18FF6411 [8] F8 FF FF FF FF FF FF FF
1543220695.077474,can1 0CF00400 [8] 38 FE FE FE FE 00 FF FE
1543220695.078935,can1 1CEBFF00 [8] 05 09 03 38 06 09 04 FF
1543220695.080309,can1 0CF00203 [8] FF 00 00 FF FF AD 47 03
1543220695.087302,can1 0CF00400 [8] 38 FE FE FE FE 00 FF FE
1543220695.088815,can1 0CF00203 [8] FF 00 00 FF FF AD 47 03
1543220695.09007,can1 18FEF000 [8] FF FF FF 00 00 FC 00 FF
1543220695.097335,can1 0CF00400 [8] 38 FE FE FE FE 00 FF FE
1543220695.098932,can1 0CF00203 [8] FF 00 00 FF FF AD 47 03
1543220695.100171,can1 14FD3E00 [8] FF FF FF FF FF FF FF FF
1543220695.101873,can1 18FEE000 [8] A2 01 00 00 A2 01 00 00
1543220695.107583,can1 0CF00400 [8] 38 FE FE FE FE 00 FF FE
1543220695.109329,can1 0CF00203 [8] FF 00 00 FF FF AD 47 03
1543220695.110705,can1 0CF00300 [8] D1 00 FE FF FF FF 00 FF
1543220695.111941,can1 18FEF100 [8] CF 00 00 D0 FF 00 00 30
1543220695.113272,can1 18DA00F1 [8] 30 08 00 00 00 00 00 00
1543220695.121764,can1 0CF00400 [8] 38 FE FE FE FE 00 FF FE
1543220695.12338,can1 0CF00203 [8] FF 00 00 FF FF AD 47 03
1543220695.128926,can1 18FEDF00 [8] FE FE FE FF FE FF BF FF
1543220695.130424,can1 18FE4A03 [8] FF FF F3 FF F0 F7 FF FF
1543220695.13169,can1 18F00503 [8] FF 57 9E FF 20 2D 2D 2D
1543220695.137454,can1 0CF00400 [8] 38 FE FE FE FE 00 FF FE
1543220695.13915,can1 0CF00203 [8] FF 00 00 FF FF AD 47 03
1543220695.144577,can1 18F00100 [8] FF FF FF FF 53 FF FF FF
1543220695.146221,can1 0CF00400 [8] 38 FE FE FE FE 00 FF FE
1543220695.151878,can1 0CF00203 [8] FF 00 00 FF FF AD 47 03
1543220695.153533,can1 18F0000F [8] 51 7D FF FF 0F 72 FF FF
1543220695.154827,can1 18FEF600 [8] FF 00 FF FF FF FF FF FF
1543220695.160495,can1 18F0010B [8] CF FF F0 FF FF DC FF FF
1543220695.161948,can1 0CF00400 [8] 38 FE FE FE FE 00 FF FE
1543220695.167585,can1 0CF00203 [8] FF 00 00 FF FF AD 47 03
1543220695.169285,can1 18FF3000 [8] 00 00 FF FF FF FF FF FF
1543220695.170606,can1 18DA00F1 [8] 30 08 00 00 00 00 00 00
1543220695.176055,can1 18FEBF0B [8] 00 00 7D 7D 7D 7D FF FF
1543220695.177751,can1 0CF00400 [8] 38 FE FE FE FE 00 FF FE
1543220695.182158,can1 0CF00203 [8] FF 00 00 FF FF AD 47 03
1543220695.183724,can1 0CF00300 [8] D1 00 FE FF FF FF 00 FF
1543220695.185126,can1 14FFA000 [8] FC FF FF FF FF FF FF FF
1543220695.186364,can1 18FEF200 [8] 00 00 00 00 00 00 FF FF
1543220695.195813,can1 0CF00400 [8] 38 FE FE FE FE 00 FF FE
1543220695.197546,can1 0CF00203 [8] FF 00 00 FF FF AD 47 03
1543220695.202875,can1 18FEDF00 [8] FE FE FE FF FE FF BF FF
1543220695.204364,can1 0CF00400 [8] 38 FE FE FE FE 00 FF FE
1543220695.20565,can1 0CF00203 [8] FF 00 00 FF FF AD 47 03
1543220695.211102,can1 0CF00400 [8] 38 FE FE FE FE 00 FF FE
1543220695.212542,can1 0CF00203 [8] FF 00 00 FF FF AD 47 03
1543220695.218122,can1 18FEF000 [8] FF FF FF 00 00 FC 00 FF
1543220695.224201,can1 0CF00400 [8] 38 FE FE FE FE 00 FF FE
1543220695.225782,can1 18DA00F1 [8] 30 08 00 00 00 00 00 00
1543220695.227366,can1 0CF00203 [8] FF 00 00 FF FF AD 47 03
1543220695.232878,can1 18FEE000 [8] A2 01 00 00 A2 01 00 00
1543220695.234325,can1 0CF00400 [8] 38 FE FE FE FE 00 FF FE
1543220695.239685,can1 0CF00203 [8] FF 00 00 FF FF AD 47 03
1543220695.241336,can1 0CF00300 [8] D1 00 FE FF FF FF 00 FF
1543220695.242655,can1 18FEF100 [8] CF 00 00 D0 FF 00 00 30
1543220695.248331,can1 0CF00400 [8] 38 FE FE FE FE 00 FF FE
1543220695.249824,can1 0CF00203 [8] FF 00 00 FF FF AD 47 03
1543220695.255315,can1 18FEDF00 [8] FE FE FE FF FE FF BF FF
1543220695.256957,can1 18FE4A03 [8] FF FF F3 FF F0 F7 FF FF
1543220695.263698,can1 18F00503 [8] FF 57 9E FF 20 2D 2D 2D
1543220695.265329,can1 0CF00400 [8] 38 FE FE FE FE 00 FF FE
1543220695.270715,can1 0CF00203 [8] FF 00 00 FF FF AD 47 03
1543220695.272163,can1 18F00100 [8] FF FF FF FF 53 FF FF FF
1543220695.273607,can1 0CF00400 [8] 38 FE FE FE FE 00 FF FE
1543220695.279124,can1 0CF00203 [8] FF 00 00 FF FF AD 47 03
1543220695.280742,can1 18F0000F [8] 51 7D FF FF 0F 72 FF FF
1543220695.286164,can1 18DA00F1 [8] 30 08 00 00 00 00 00 00
1543220695.28821,can1 18F0010B [8] CF FF F0 FF FF DC FF FF
1543220695.289592,can1 0CF00400 [8] 38 FE FE FE FE 00 FF FE
1543220695.295055,can1 0CF00203 [8] FF 00 00 FF FF AD 47 03
