1538623598.985529,can1 0CF00203 [8] FF 00 00 FF FF AD 47 03
1538623598.999069,can1 18FEF000 [8] FF FF FF 00 00 FC 00 FF
1538623599.001133,can1 0CF00400 [8] 38 FE FE FE FE 00 FF FE
1538623599.006959,can1 0CF00203 [8] FF 00 00 FF FF AD 47 03
1538623599.008795,can1 18FEE000 [8] A2 01 00 00 A2 01 00 00
1538623599.01421,can1 18F0010B [8] CF FF F0 FF FF DC FF FF
1538623599.015899,can1 0CF00400 [8] 38 FE FE FE FE 00 FF FE
1538623599.017396,can1 18DA00F1 [8] 30 08 00 00 00 00 00 00
1538623599.023565,can1 0CF00203 [8] FF 00 00 FF FF AD 47 03
1538623599.025304,can1 0CF00300 [8] D1 00 FE FF FF FF 00 FF
1538623599.030922,can1 18FEF100 [8] CF 00 00 D0 FF 00 00 30
1538623599.032644,can1 18FEBF0B [8] 00 00 7D 7D 7D 7D FF FF
1538623599.038325,can1 0CF00400 [8] 38 FE FE FE FE 00 FF FE
1538623599.039951,can1 0CF00203 [8] FF 00 00 FF FF AD 47 03
1538623599.041247,can1 18FEDF00 [8] FE FE FE FF FE FF BF FF
1538623599.046868,can1 18FE4A03 [8] FF FF F3 FF F0 F7 FF FF
1538623599.050404,can1 18F00503 [8] FF 57 9E FF 20 2D 2D 2D
1538623599.056208,can1 0CF00400 [8] 38 FE FE FE FE 00 FF FE
1538623599.057817,can1 0CF00203 [8] FF 00 00 FF FF AD 47 03
1538623599.063338,can1 18F00100 [8] FF FF FF FF 53 FF FF FF
1538623599.065105,can1 0CF00400 [8] 38 FE FE FE FE 00 FF FE
1538623599.066435,can1 0CF00203 [8] FF 00 00 FF FF AD 47 03
1538623599.071963,can1 18F0000F [8] 51 7D FF FF 0F 72 FF FF
1538623599.073879,can1 0CF00400 [8] 38 FE FE FE FE 00 FF FE
1538623599.079593,can1 0CF00203 [8] FF 00 00 FF FF AD 47 03
1538623599.081158,can1 18FF3000 [8] 00 00 FF FF FF FF FF FF
1538623599.086559,can1 18DA00F1 [8] 30 08 00 00 00 00 00 00
1538623599.088231,can1 0CF00400 [8] 38 FE FE FE FE 00 FF FE
1538623599.08969,can1 0CF00203 [8] FF 00 00 FF FF AD 47 03
1538623599.095414,can1 0CF00300 [8] D1 00 FE FF FF FF 00 FF
1538623599.096916,can1 14FFA000 [8] FC FF FF FF FF FF FF FF
1538623599.102291,can1 18FEF200 [8] 00 00 00 00 00 00 FF FF
1538623599.104312,can1 0CF00400 [8] 38 FE FE FE FE 00 FF FE
1538623599.105647,can1 0CF00203 [8] FF 00 00 FF FF AD 47 03
1538623599.111263,can1 18FEDF00 [8] FE FE FE FF FE FF BF FF
1538623599.112912,can1 0CF00400 [8] 38 FE FE FE FE 00 FF FE
1538623599.118764,can1 0CF00203 [8] FF 00 00 FF FF AD 47 03
1538623599.120353,can1 0CF00400 [8] 38 FE FE FE FE 00 FF FE
1538623599.127714,can1 0CF00203 [8] FF 00 00 FF FF AD 47 03
1538623599.129406,can1 18FEF000 [8] FF FF FF 00 00 FC 00 FF
1538623599.130762,can1 0CF00400 [8] 38 FE FE FE FE 00 FF FE
1538623599.136269,can1 0CF00203 [8] FF 00 00 FF FF AD 47 03
1538623599.137767,can1 18DA00F1 [8] 30 08 00 00 00 00 00 00
1538623599.143173,can1 18FEE000 [8] A2 01 00 00 A2 01 00 00
1538623599.14484,can1 18F0010B [8] CF FF F0 FF FF DC FF FF
1538623599.146291,can1 0CF00400 [8] 38 FE FE FE FE 00 FF FE
1538623599.15331,can1 0CF00203 [8] FF 00 00 FF FF AD 47 03
1538623599.155059,can1 0CF00300 [8] D1 00 FE FF FF FF 00 FF
1538623599.1564,can1 18FEF100 [8] CF 00 00 D0 FF 00 00 30
1538623599.162166,can1 18FEBF0B [8] 00 00 7D 7D 7D 7D FF FF
1538623599.16402,can1 0CF00400 [8] 38 FE FE FE FE 00 FF FE
1538623599.169521,can1 0CF00203 [8] FF 00 00 FF FF AD 47 03
1538623599.170988,can1 18FEDF00 [8] FE FE FE FF FE FF BF FF
1538623599.176266,can1 18FE4A03 [8] FF FF F3 FF F0 F7 FF FF
1538623599.177815,can1 18F00503 [8] FF 57 9E FF 20 2D 2D 2D
1538623599.179681,can1 0CF00400 [8] 38 FE FE FE FE 00 FF FE
1538623599.185423,can1 0CF00203 [8] FF 00 00 FF FF AD 47 03
1538623599.186902,can1 18F00100 [8] FF FF FF FF 53 FF FF FF
1538623599.19242,can1 0CF00400 [8] 38 FE FE FE FE 00 FF FE
1538623599.194576,can1 0CF00203 [8] FF 00 00 FF FF AD 47 03
1538623599.20035,can1 18F0000F [8] 51 7D FF FF 0F 72 FF FF
1538623599.201943,can1 18DA00F1 [8] 30 08 00 00 00 00 00 00
1538623599.207845,can1 0CF00400 [8] 38 FE FE FE FE 00 FF FE
1538623599.209312,can1 0CF00203 [8] FF 00 00 FF FF AD 47 03
1538623599.210735,can1 18FF3000 [8] 00 00 FF FF FF FF FF FF
1538623599.216163,can1 0CF00400 [8] 38 FE FE FE FE 00 FF FE
1538623599.217835,can1 0CF00203 [8] FF 00 00 FF FF AD 47 03
1538623599.223548,can1 0CF00300 [8] D1 00 FE FF FF FF 00 FF
1538623599.225508,can1 14FFA000 [8] FC FF FF FF FF FF FF FF
1538623599.226858,can1 18FEF200 [8] 00 00 00 00 00 00 FF FF
1538623599.233039,can1 0CF00400 [8] 38 FE FE FE FE 00 FF FE
1538623599.23824,can1 0CF00203 [8] FF 00 00 FF FF AD 47 03
1538623599.240023,can1 18FEDF00 [8] FE FE FE FF FE FF BF FF
1538623599.241518,can1 0CF00400 [8] 38 FE FE FE FE 00 FF FE
1538623599.243173,can1 0CF00203 [8] FF 00 00 FF FF AD 47 03
1538623599.244673,can1 18DA00F1 [8] 30 08 00 00 00 00 00 00
1538623599.245926,can1 0CF00400 [8] 38 FE FE FE FE 00 FF FE
1538623599.247252,can1 0CF00203 [8] FF 00 00 FF FF AD 47 03
1538623599.24855,can1 18FEF000 [8] FF FF FF 00 00 FC 00 FF
1538623599.249767,can1 0CF00400 [8] 38 FE FE FE FE 00 FF FE
1538623599.251206,can1 0CF00203 [8] FF 00 00 FF FF AD 47 03
1538623599.252622,can1 18FEE000 [8] A2 01 00 00 A2 01 00 00
1538623599.256105,can1 18F0010B [8] CF FF F0 FF FF DC FF FF
1538623599.257956,can1 0CF00400 [8] 38 FE FE FE FE 00 FF FE
1538623599.25954,can1 0CF00203 [8] FF 00 00 FF FF AD 47 03
1538623599.260931,can1 0CF00300 [8] D1 00 FE FF FF FF 00 FF
1538623599.262249,can1 18FEF100 [8] CF 00 00 D0 FF 00 00 30
1538623599.263905,can1 18FEBF0B [8] 00 00 7D 7D 7D 7D FF FF
1538623599.265244,can1 0CF00400 [8] 38 FE FE FE FE 00 FF FE
1538623599.266565,can1 0CF00203 [8] FF 00 00 FF FF AD 47 03
1538623599.267765,can1 18DA00F1 [8] 02 10 03 00 00 00 00 00
1538623599.269049,can1 18FEDF00 [8] FE FE FE FF FE FF BF FF
1538623599.270329,can1 18FE4A03 [8] FF FF F3 FF F0 F7 FF FF
1538623599.271524,can1 18F00503 [8] FF 57 9E FF 20 2D 2D 2D
1538623599.272936,can1 18DAF100 [8] 06 50 03 00 14 00 C8 20
1538623599.274489,can1 0CF00400 [8] 38 FE FE FE FE 00 FF FE
1538623599.275697,can1 1CECFF00 [8] 20 22 00 05 FF CA FE 00
1538623599.276996,can1 0CF00203 [8] FF 00 00 FF FF AD 47 03
1538623599.278273,can1 18F00100 [8] FF FF FF FF 53 FF FF FF
1538623599.279783,can1 18DA00F1 [8] 30 08 00 00 00 00 00 00
1538623599.28102,can1 0CF00400 [8] 38 FE FE FE FE 00 FF FE
1538623599.282323,can1 0CF00203 [8] FF 00 00 FF FF AD 47 03
1538623599.283867,can1 18F0000F [8] 51 7D FF FF 0F 72 FF FF
1538623599.285443,can1 0CF00400 [8] 38 FE FE FE FE 00 FF FE
1538623599.28692,can1 0CF00203 [8] FF 00 00 FF FF AD 47 03
1538623599.288221,can1 18FF3000 [8] 00 00 FF FF FF FF FF FF
1538623599.289665,can1 0CF00400 [8] 38 FE FE FE FE 00 FF FE
1538623599.290885,can1 0CF00203 [8] FF 00 00 FF FF AD 47 03
1538623599.292179,can1 0CF00300 [8] D1 00 FE FF FF FF 00 FF
1538623599.29382,can1 14FFA000 [8] FC FF FF FF FF FF FF FF
1538623599.295363,can1 18FEF200 [8] 00 00 00 00 00 00 FF FF
1538623599.296835,can1 0CF00400 [8] 38 FE FE FE FE 00 FF FE
1538623599.298153,can1 0CF00203 [8] FF 00 00 FF FF AD 47 03
1538623599.299442,can1 18FEDF00 [8] FE FE FE FF FE FF BF FF
1538623599.30063,can1 18DA00F1 [8] 30 08 00 00 00 00 00 00
1538623599.301911,can1 0CF00400 [8] 38 FE FE FE FE 00 FF FE
1538623599.30346,can1 1CEBFF00 [8] 01 47 FF 71 02 0D 01 3F
1538623599.305125,can1 0CF00203 [8] FF 00 00 FF FF AD 47 03
1538623599.306482,can1 0CF00400 [8] 38 FE FE FE FE 00 FF FE
1538623599.307775,can1 0CF00203 [8] FF 00 00 FF FF AD 47 03
1538623599.314514,can1 18FEF000 [8] FF FF FF 00 00 FC 00 FF
1538623599.316041,can1 0CF00400 [8] 38 FE FE FE FE 00 FF FE
1538623599.321419,can1 0CF00203 [8] FF 00 00 FF FF AD 47 03
1538623599.323021,can1 18FEE000 [8] A2 01 00 00 A2 01 00 00
1538623599.32985,can1 18F0010B [8] CF FF F0 FF FF DC FF FF
1538623599.331326,can1 0CF00400 [8] 38 FE FE FE FE 00 FF FE
1538623599.336682,can1 0CF00203 [8] FF 00 00 FF FF AD 47 03
1538623599.338127,can1 0CF00300 [8] D1 00 FE FF FF FF 00 FF
1538623599.339691,can1 18FEF100 [8] CF 00 00 D0 FF 00 00 30
1538623599.345329,can1 18FDE000 [8] FF FF FF FF FF FF FF FF
1538623599.346793,can1 1CFEAB03 [8] FF FF 7E FF FF FF FF FF
1538623599.350374,can1 18FEBF0B [8] 00 00 7D 7D 7D 7D FF FF
1538623599.359915,can1 0CF00400 [8] 38 FE FE FE FE 00 FF FE
1538623599.360654,can1 0CF00203 [8] FF 00 00 FF FF AD 47 03
1538623599.361164,can1 18FEDF00 [8] FE FE FE FF FE FF BF FF
1538623599.362331,can1 18FE4A03 [8] FF FF F3 FF F0 F7 FF FF
1538623599.363074,can1 18DA00F1 [8] 30 08 00 00 00 00 00 00
1538623599.363559,can1 18F00503 [8] FF 57 9E FF 20 2D 2D 2D
1538623599.368237,can1 18FEEF00 [8] FF FF FF FF FF FF FF FA
1538623599.368749,can1 0CF00400 [8] 38 FE FE FE FE 00 FF FE
1538623599.369185,can1 1CEBFF00 [8] 02 0A 08 01 5B 00 08 01
1538623599.369669,can1 0CF00203 [8] FF 00 00 FF FF AD 47 03
1538623599.370096,can1 18F00100 [8] FF FF FF FF 53 FF FF FF
1538623599.370498,can1 18E0FF00 [8] FF FF FF FF FF F3 FF FF
1538623599.370898,can1 18FCDC00 [8] E0 FE FE FF FF FF FF FF
1538623599.371289,can1 0CF00400 [8] 38 FE FE FE FE 00 FF FE
1538623599.375847,can1 0CF00203 [8] FF 00 00 FF FF AD 47 03
1538623599.376408,can1 18F0000F [8] 51 7D FF FF 0F 72 FF FF
1538623599.376854,can1 0CF00400 [8] 38 FE FE FE FE 00 FF FE
1538623599.377274,can1 0CF00203 [8] FF 00 00 FF FF AD 47 03
1538623599.378058,can1 18FF3000 [8] 00 00 FF FF FF FF FF FF
1538623599.378622,can1 0CF00400 [8] 38 FE FE FE FE 00 FF FE
1538623599.379089,can1 0CF00203 [8] FF 00 00 FF FF AD 47 03
1538623599.379598,can1 0CF00300 [8] D1 00 FE FF FF FF 00 FF
1538623599.380027,can1 14FFA000 [8] FC FF FF FF FF FF FF FF
1538623599.380435,can1 18FEF200 [8] 00 00 00 00 00 00 FF FF
1538623599.380832,can1 18FEF500 [8] FF FF FF FF FF FF FF FF
1538623599.385239,can1 18DA00F1 [8] 30 08 00 00 00 00 00 00
1538623599.385961,can1 0CF00400 [8] 38 FE FE FE FE 00 FF FE
1538623599.386546,can1 0CF00203 [8] FF 00 00 FF FF AD 47 03
1538623599.386995,can1 18FEDF00 [8] FE FE FE FF FE FF BF FF
1538623599.387518,can1 18FF6411 [8] F8 FF FF FF FF FF FF FF
1538623599.387945,can1 18FECA11 [8] 03 FF 00 00 00 00 FF FF
1538623599.388354,can1 0CF00400 [8] 38 FE FE FE FE 00 FF FE
1538623599.388834,can1 1CEBFF00 [8] 03 0F 02 09 01 E7 07 09
1538623599.393432,can1 0CF00203 [8] FF 00 00 FF FF AD 47 03
1538623599.394082,can1 18FEEE00 [8] FF FF FF FF FF FF FF FF
1538623599.394618,can1 0CF00400 [8] 38 FE FE FE FE 00 FF FE
1538623599.395189,can1 0CF00203 [8] FF 00 00 FF FF AD 47 03
1538623599.395692,can1 18FEF000 [8] FF FF FF 00 00 FC 00 FF
1538623599.396114,can1 18FEA400 [8] FF FF FF FF 66 B1 A0 5B
1538623599.396522,can1 18FECA03 [8] 03 FF 00 00 00 00 FF FF
1538623599.397968,can1 0CF00400 [8] 38 FE FE FE FE 00 FF FE
1538623599.398612,can1 0CF00203 [8] FF 00 00 FF FF AD 47 03
1538623599.399187,can1 14FD3E00 [8] FF FF FF FF FF FF FF FF
1538623599.399637,can1 18FEE000 [8] A2 01 00 00 A2 01 00 00
1538623599.400052,can1 18F0010B [8] CF FF F0 FF FF DC FF FF
1538623599.400455,can1 18DA00F1 [8] 30 08 00 00 00 00 00 00
1538623599.400913,can1 0CF00400 [8] 38 FE FE FE FE 00 FF FE
1538623599.40133,can1 0CF00203 [8] FF 00 00 FF FF AD 47 03
1538623599.401729,can1 0CF00300 [8] D1 00 FE FF FF FF 00 FF
1538623599.402116,can1 18FEF100 [8] CF 00 00 D0 FF 00 00 30
1538623599.402506,can1 18FEBD00 [8] FF FF FF FF FF FF FF FF
1538623599.403072,can1 18FD0700 [8] 47 F4 C0 FF FF FF FF FF
1538623599.403571,can1 18FEBF0B [8] 00 00 7D 7D 7D 7D FF FF
1538623599.404052,can1 0CF00400 [8] 38 FE FE FE FE 00 FF FE
1538623599.40452,can1 0CF00203 [8] FF 00 00 FF FF AD 47 03
1538623599.405038,can1 18FEDF00 [8] FE FE FE FF FE FF BF FF
1538623599.405458,can1 18FE4A03 [8] FF FF F3 FF F0 F7 FF FF
1538623599.405857,can1 18F00503 [8] FF 57 9E FF 20 2D 2D 2D
1538623599.406249,can1 18FF7400 [8] 5F 01 FF FF FF FF FF FF
1538623599.406686,can1 0CF00400 [8] 38 FE FE FE FE 00 FF FE
1538623599.407091,can1 1CEBFF00 [8] 04 01 01 08 09 01 38 06
1538623599.407493,can1 0CF00203 [8] FF 00 00 FF FF AD 47 03
1538623599.40789,can1 18F00100 [8] FF FF FF FF 53 FF FF FF
1538623599.40828,can1 18FD7C00 [8] FF FF D0 34 FD FF FF FF
1538623599.412762,can1 0CF00400 [8] 38 FE FE FE FE 00 FF FE
1538623599.413307,can1 0CF00203 [8] FF 00 00 FF FF AD 47 03
1538623599.413891,can1 18F0000F [8] 51 7D FF FF 0F 72 FF FF
1538623599.414505,can1 18FEF600 [8] FF 00 FF FF FF FF FF FF
1538623599.415069,can1 18FEE400 [8] 00 3F FD FF 00 7F FF FF
1538623599.42272,can1 0CF00400 [8] 38 FE FE FE FE 00 FF FE
1538623599.423295,can1 0CF00203 [8] FF 00 00 FF FF AD 47 03
1538623599.424078,can1 18FF3000 [8] 00 00 FF FF FF FF FF FF
1538623599.427022,can1 18DA00F1 [8] 30 08 00 00 00 00 00 00
1538623599.432734,can1 0CF00400 [8] 38 FE FE FE FE 00 FF FE
1538623599.433294,can1 0CF00203 [8] FF 00 00 FF FF AD 47 03
1538623599.433898,can1 0CF00300 [8] D1 00 FE FF FF FF 00 FF
1538623599.434474,can1 14FFA000 [8] FC FF FF FF FF FF FF FF
1538623599.435093,can1 18FEF200 [8] 00 00 00 00 00 00 FF FF
1538623599.436798,can1 18DA00F1 [8] 02 10 03 00 00 00 00 00
1538623599.44223,can1 18DAF100 [8] 06 50 03 00 14 00 C8 20
1538623599.442811,can1 0CF00400 [8] 38 FE FE FE FE 00 FF FE
1538623599.443388,can1 0CF00203 [8] FF 00 00 FF FF AD 47 03
1538623599.44398,can1 18FEDF00 [8] FE FE FE FF FE FF BF FF
1538623599.444596,can1 18FE5600 [8] FF FF FF FF FF FF FF FF
1538623599.452826,can1 0CF00400 [8] 38 FE FE FE FE 00 FF FE
1538623599.453816,can1 1CEBFF00 [8] 05 09 01 71 02 0E 01 FF
1538623599.454693,can1 0CF00203 [8] FF 00 00 FF FF AD 47 03
1538623599.455572,can1 18FEC100 [8] CC 28 00 00 CC 28 00 00
1538623599.46273,can1 0CF00400 [8] 38 FE FE FE FE 00 FF FE
1538623599.463349,can1 0CF00203 [8] FF 00 00 FF FF AD 47 03
1538623599.463879,can1 18FEF000 [8] FF FF FF 00 00 FC 00 FF
1538623599.464436,can1 18FEF700 [8] FF FF FF FF F0 00 F0 00
1538623599.471187,can1 18DA00F1 [8] 30 08 00 00 00 00 00 00
1538623599.472792,can1 0CF00400 [8] 38 FE FE FE FE 00 FF FE
1538623599.47335,can1 0CF00203 [8] FF 00 00 FF FF AD 47 03
1538623599.473945,can1 18FEE000 [8] A2 01 00 00 A2 01 00 00
1538623599.474556,can1 18FEF803 [8] FF FF FF FF FF FF FF FF
1538623599.478806,can1 18F0010B [8] CF FF F0 FF FF DC FF FF
1538623599.483002,can1 0CF00400 [8] 38 FE FE FE FE 00 FF FE
1538623599.483575,can1 0CF00203 [8] FF 00 00 FF FF AD 47 03
1538623599.484182,can1 0CF00300 [8] D1 00 FE FF FF FF 00 FF
1538623599.484784,can1 18FEF100 [8] CF 00 00 D0 FF 00 00 30
1538623599.488834,can1 18FEBF0B [8] 00 00 7D 7D 7D 7D FF FF
1538623599.492764,can1 0CF00400 [8] 38 FE FE FE FE 00 FF FE
1538623599.493335,can1 0CF00203 [8] FF 00 00 FF FF AD 47 03
1538623599.493928,can1 18FEDF00 [8] FE FE FE FF FE FF BF FF
1538623599.494549,can1 18FE4A03 [8] FF FF F3 FF F0 F7 FF FF
1538623599.495051,can1 18F00503 [8] FF 57 9E FF 20 2D 2D 2D
1538623599.502753,can1 0CF00400 [8] 38 FE FE FE FE 00 FF FE
1538623599.503327,can1 0CF00203 [8] FF 00 00 FF FF AD 47 03
1538623599.503919,can1 18F00100 [8] FF FF FF FF 53 FF FF FF
1538623599.512718,can1 0CF00400 [8] 38 FE FE FE FE 00 FF FE
1538623599.513297,can1 0CF00203 [8] FF 00 00 FF FF AD 47 03
1538623599.513871,can1 18F0000F [8] 51 7D FF FF 0F 72 FF FF
1538623599.515254,can1 18DA00F1 [8] 30 08 00 00 00 00 00 00
1538623599.52272,can1 0CF00400 [8] 38 FE FE FE FE 00 FF FE
1538623599.523291,can1 0CF00203 [8] FF 00 00 FF FF AD 47 03
1538623599.524029,can1 18FF3000 [8] 00 00 FF FF FF FF FF FF
1538623599.532752,can1 0CF00400 [8] 38 FE FE FE FE 00 FF FE
1538623599.533286,can1 0CF00203 [8] FF 00 00 FF FF AD 47 03
1538623599.533881,can1 0CF00300 [8] D1 00 FE FF FF FF 00 FF
1538623599.534492,can1 14FFA000 [8] FC FF FF FF FF FF FF FF
1538623599.535094,can1 18FEF200 [8] 00 00 00 00 00 00 FF FF
1538623599.542514,can1 18DA00F1 [8] 03 22 F1 A0 00 00 00 00
1538623599.543082,can1 0CF00400 [8] 38 FE FE FE FE 00 FF FE
1538623599.543663,can1 0CF00203 [8] FF 00 00 FF FF AD 47 03
1538623599.544255,can1 18FEDF00 [8] FE FE FE FF FE FF BF FF
1538623599.552343,can1 18DAF100 [8] 10 14 62 F1 A0 49 44 4B
1538623599.553262,can1 0CF00400 [8] 38 FE FE FE FE 00 FF FE
1538623599.553805,can1 0CF00203 [8] FF 00 00 FF FF AD 47 03
1538623599.559409,can1 18DA00F1 [8] 30 08 00 00 00 00 00 00
1538623599.559966,can1 18DAF100 [8] 21 20 4D 41 4E 20 20 20
1538623599.560551,can1 18DAF100 [8] 22 20 20 20 20 20 20 20
1538623599.562754,can1 0CF00400 [8] 38 FE FE FE FE 00 FF FE
1538623599.563314,can1 0CF00203 [8] FF 00 00 FF FF AD 47 03
1538623599.563933,can1 18FEF000 [8] FF FF FF 00 00 FC 00 FF
1538623599.572783,can1 0CF00400 [8] 38 FE FE FE FE 00 FF FE
1538623599.573351,can1 0CF00203 [8] FF 00 00 FF FF AD 47 03
1538623599.574312,can1 18FEE000 [8] A2 01 00 00 A2 01 00 00
1538623599.578995,can1 18F0010B [8] CF FF F0 FF FF DC FF FF
1538623599.583016,can1 0CF00400 [8] 38 FE FE FE FE 00 FF FE
1538623599.583563,can1 0CF00203 [8] FF 00 00 FF FF AD 47 03
1538623599.584164,can1 0CF00300 [8] D1 00 FE FF FF FF 00 FF
1538623599.584732,can1 18FEF100 [8] CF 00 00 D0 FF 00 00 30
1538623599.588948,can1 18FEBF0B [8] 00 00 7D 7D 7D 7D FF FF
1538623599.592787,can1 0CF00400 [8] 38 FE FE FE FE 00 FF FE
1538623599.593364,can1 0CF00203 [8] FF 00 00 FF FF AD 47 03
1538623599.593943,can1 18FEDF00 [8] FE FE FE FF FE FF BF FF
1538623599.594505,can1 18FE4A03 [8] FF FF F3 FF F0 F7 FF FF
1538623599.595083,can1 18F00503 [8] FF 57 9E FF 20 2D 2D 2D
1538623599.603984,can1 18ECFFFA [8] 20 1D 00 05 FF EB FE 00
1538623599.604771,can1 18EBFFFA [8] 01 20 53 59 4E 45 52 2A
1538623599.605266,can1 18EBFFFA [8] 02 53 53 53 32 2D 30 35
1538623599.605696,can1 18EBFFFA [8] 03 2A 30 30 38 31 2A 55
1538623599.606503,can1 18EBFFFA [8] 04 4E 49 56 45 52 53 41
1538623599.607213,can1 18EBFFFA [8] 05 4C FF FF FF FF FF FF
1538623599.607689,can1 0CF00400 [8] 38 FE FE FE FE 00 FF FE
1538623599.608195,can1 0CF00203 [8] FF 00 00 FF FF AD 47 03
1538623599.608613,can1 18DA00F1 [8] 30 08 00 00 00 00 00 00
1538623599.609009,can1 18F00100 [8] FF FF FF FF 53 FF FF FF
1538623599.612783,can1 0CF00400 [8] 38 FE FE FE FE 00 FF FE
1538623599.613313,can1 0CF00203 [8] FF 00 00 FF FF AD 47 03
1538623599.613901,can1 18F0000F [8] 51 7D FF FF 0F 72 FF FF
1538623599.62274,can1 0CF00400 [8] 38 FE FE FE FE 00 FF FE
1538623599.623315,can1 0CF00203 [8] FF 00 00 FF FF AD 47 03
1538623599.623912,can1 18FF3000 [8] 00 00 FF FF FF FF FF FF
1538623599.632762,can1 0CF00400 [8] 38 FE FE FE FE 00 FF FE
1538623599.633352,can1 0CF00203 [8] FF 00 00 FF FF AD 47 03
1538623599.633914,can1 0CF00300 [8] D1 00 FE FF FF FF 00 FF
1538623599.634513,can1 14FFA000 [8] FC FF FF FF FF FF FF FF
1538623599.635144,can1 18FEF200 [8] 00 00 00 00 00 00 FF FF
1538623599.642718,can1 0CF00400 [8] 38 FE FE FE FE 00 FF FE
1538623599.643259,can1 0CF00203 [8] FF 00 00 FF FF AD 47 03
1538623599.643873,can1 18FEDF00 [8] FE FE FE FF FE FF BF FF
1538623599.647837,can1 18DA00F1 [8] 30 08 00 00 00 00 00 00
1538623599.652919,can1 0CF00400 [8] 38 FE FE FE FE 00 FF FE
1538623599.653667,can1 0CF00203 [8] FF 00 00 FF FF AD 47 03
1538623599.662877,can1 0CF00400 [8] 38 FE FE FE FE 00 FF FE
1538623599.663874,can1 0CF00203 [8] FF 00 00 FF FF AD 47 03
1538623599.664654,can1 18FEF000 [8] FF FF FF 00 00 FC 00 FF
1538623599.672908,can1 0CF00400 [8] 38 FE FE FE FE 00 FF FE
1538623599.673688,can1 0CF00203 [8] FF 00 00 FF FF AD 47 03
1538623599.674504,can1 18FEE000 [8] A2 01 00 00 A2 01 00 00
1538623599.679175,can1 18F0010B [8] CF FF F0 FF FF DC FF FF
1538623599.679966,can1 18DA00F1 [8] 02 10 03 00 00 00 00 00
1538623599.682547,can1 18DAF100 [8] 06 50 03 00 14 00 C8 20
1538623599.683318,can1 0CF00400 [8] 38 FE FE FE FE 00 FF FE
1538623599.684192,can1 0CF00203 [8] FF 00 00 FF FF AD 47 03
1538623599.68494,can1 0CF00300 [8] D1 00 FE FF FF FF 00 FF
1538623599.685581,can1 18FEF100 [8] CF 00 00 D0 FF 00 00 30
1538623599.689196,can1 18FEBF0B [8] 00 00 7D 7D 7D 7D FF FF
1538623599.692059,can1 18DA00F1 [8] 30 08 00 00 00 00 00 00
1538623599.692887,can1 0CF00400 [8] 38 FE FE FE FE 00 FF FE
1538623599.693624,can1 0CF00203 [8] FF 00 00 FF FF AD 47 03
1538623599.694497,can1 18FEDF00 [8] FE FE FE FF FE FF BF FF
1538623599.695213,can1 18FE4A03 [8] FF FF F3 FF F0 F7 FF FF
1538623599.695908,can1 18F00503 [8] FF 57 9E FF 20 2D 2D 2D
1538623599.702883,can1 0CF00400 [8] 38 FE FE FE FE 00 FF FE
1538623599.703689,can1 0CF00203 [8] FF 00 00 FF FF AD 47 03
1538623599.704429,can1 18F00100 [8] FF FF FF FF 53 FF FF FF
1538623599.712853,can1 0CF00400 [8] 38 FE FE FE FE 00 FF FE
1538623599.713784,can1 0CF00203 [8] FF 00 00 FF FF AD 47 03
1538623599.714456,can1 18F0000F [8] 51 7D FF FF 0F 72 FF FF
1538623599.722848,can1 0CF00400 [8] 38 FE FE FE FE 00 FF FE
1538623599.723675,can1 0CF00203 [8] FF 00 00 FF FF AD 47 03
1538623599.724635,can1 18FF3000 [8] 00 00 FF FF FF FF FF FF
1538623599.732908,can1 0CF00400 [8] 38 FE FE FE FE 00 FF FE
1538623599.733775,can1 0CF00203 [8] FF 00 00 FF FF AD 47 03
1538623599.734522,can1 0CF00300 [8] D1 00 FE FF FF FF 00 FF
1538623599.735325,can1 14FFA000 [8] FC FF FF FF FF FF FF FF
1538623599.736048,can1 18FEF200 [8] 00 00 00 00 00 00 FF FF
1538623599.736748,can1 18DA00F1 [8] 30 08 00 00 00 00 00 00
1538623599.742831,can1 0CF00400 [8] 38 FE FE FE FE 00 FF FE
1538623599.743589,can1 0CF00203 [8] FF 00 00 FF FF AD 47 03
1538623599.744314,can1 18FEDF00 [8] FE FE FE FF FE FF BF FF
1538623599.75281,can1 0CF00400 [8] 38 FE FE FE FE 00 FF FE
1538623599.753597,can1 0CF00203 [8] FF 00 00 FF FF AD 47 03
1538623599.762944,can1 0CF00400 [8] 38 FE FE FE FE 00 FF FE
1538623599.76413,can1 0CF00203 [8] FF 00 00 FF FF AD 47 03
1538623599.764877,can1 18FEF000 [8] FF FF FF 00 00 FC 00 FF
1538623599.772941,can1 0CF00400 [8] 38 FE FE FE FE 00 FF FE
1538623599.773867,can1 0CF00203 [8] FF 00 00 FF FF AD 47 03
1538623599.774568,can1 18FEE000 [8] A2 01 00 00 A2 01 00 00
1538623599.779318,can1 18F0010B [8] CF FF F0 FF FF DC FF FF
1538623599.780274,can1 18DA00F1 [8] 30 08 00 00 00 00 00 00
1538623599.783511,can1 0CF00400 [8] 38 FE FE FE FE 00 FF FE
1538623599.784769,can1 0CF00203 [8] FF 00 00 FF FF AD 47 03
1538623599.785655,can1 0CF00300 [8] D1 00 FE FF FF FF 00 FF
1538623599.786376,can1 18FEF100 [8] CF 00 00 D0 FF 00 00 30
1538623599.789354,can1 18FEBF0B [8] 00 00 7D 7D 7D 7D FF FF
1538623599.792915,can1 0CF00400 [8] 38 FE FE FE FE 00 FF FE
1538623599.79382,can1 0CF00203 [8] FF 00 00 FF FF AD 47 03
1538623599.794552,can1 18FEDF00 [8] FE FE FE FF FE FF BF FF
1538623599.79533,can1 18FE4A03 [8] FF FF F3 FF F0 F7 FF FF
1538623599.796068,can1 18F00503 [8] FF 57 9E FF 20 2D 2D 2D
1538623599.79671,can1 18FEEF00 [8] FF FF FF FF FF FF FF FA
1538623599.80289,can1 0CF00400 [8] 38 FE FE FE FE 00 FF FE
1538623599.803702,can1 0CF00203 [8] FF 00 00 FF FF AD 47 03
1538623599.804438,can1 18F00100 [8] FF FF FF FF 53 FF FF FF
1538623599.813182,can1 0CF00400 [8] 38 FE FE FE FE 00 FF FE
1538623599.814259,can1 0CF00203 [8] FF 00 00 FF FF AD 47 03
1538623599.815083,can1 18F0000F [8] 51 7D FF FF 0F 72 FF FF
1538623599.823175,can1 0CF00400 [8] 38 FE FE FE FE 00 FF FE
1538623599.825696,can1 0CF00203 [8] FF 00 00 FF FF AD 47 03
1538623599.826822,can1 18FF3000 [8] 00 00 FF FF FF FF FF FF
1538623599.8276,can1 18DA00F1 [8] 30 08 00 00 00 00 00 00
1538623599.83298,can1 0CF00400 [8] 38 FE FE FE FE 00 FF FE
1538623599.834018,can1 0CF00203 [8] FF 00 00 FF FF AD 47 03
1538623599.834974,can1 0CF00300 [8] D1 00 FE FF FF FF 00 FF
1538623599.835675,can1 14FFA000 [8] FC FF FF FF FF FF FF FF
1538623599.840321,can1 18FEF200 [8] 00 00 00 00 00 00 FF FF
1538623599.841822,can1 18DA00F1 [8] 02 27 05 00 00 00 00 00
1538623599.842842,can1 18DAF100 [8] 04 67 05 9A ED 00 C8 20
1538623599.843626,can1 0CF00400 [8] 38 FE FE FE FE 00 FF FE
1538623599.84452,can1 0CF00203 [8] FF 00 00 FF FF AD 47 03
1538623599.845191,can1 18FEDF00 [8] FE FE FE FF FE FF BF FF
1538623599.845821,can1 18FF6411 [8] F8 FF FF FF FF FF FF FF
1538623599.85294,can1 0CF00400 [8] 38 FE FE FE FE 00 FF FE
1538623599.85412,can1 0CF00203 [8] FF 00 00 FF FF AD 47 03
1538623599.862948,can1 0CF00400 [8] 38 FE FE FE FE 00 FF FE
1538623599.864104,can1 0CF00203 [8] FF 00 00 FF FF AD 47 03
1538623599.864842,can1 18FEF000 [8] FF FF FF 00 00 FC 00 FF
1538623599.868912,can1 18DA00F1 [8] 30 08 00 00 00 00 00 00
1538623599.873009,can1 0CF00400 [8] 38 FE FE FE FE 00 FF FE
1538623599.874078,can1 0CF00203 [8] FF 00 00 FF FF AD 47 03
1538623599.874895,can1 14FD3E00 [8] FF FF FF FF FF FF FF FF
1538623599.875645,can1 18FEE000 [8] A2 01 00 00 A2 01 00 00
1538623599.879619,can1 18F0010B [8] CF FF F0 FF FF DC FF FF
1538623599.883441,can1 0CF00400 [8] 38 FE FE FE FE 00 FF FE
1538623599.884459,can1 0CF00203 [8] FF 00 00 FF FF AD 47 03
1538623599.88536,can1 0CF00300 [8] D1 00 FE FF FF FF 00 FF
1538623599.88605,can1 18FEF100 [8] CF 00 00 D0 FF 00 00 30
1538623599.889558,can1 18FEBF0B [8] 00 00 7D 7D 7D 7D FF FF
1538623599.893056,can1 0CF00400 [8] 38 FE FE FE FE 00 FF FE
1538623599.894051,can1 0CF00203 [8] FF 00 00 FF FF AD 47 03
1538623599.894842,can1 18FEDF00 [8] FE FE FE FF FE FF BF FF
1538623599.895671,can1 18FE4A03 [8] FF FF F3 FF F0 F7 FF FF
1538623599.89632,can1 18F00503 [8] FF 57 9E FF 20 2D 2D 2D
