1506532860.572724,can0 08FF0001 [8] 00 00 00 00 00 00 00 00
1506532860.60039,can0 0CF00203 [8] 00 00 00 00 00 00 00 00
1506532860.614678,can0 08FF0303 [8] 00 00 00 00 00 00 00 00
1506532860.634028,can0 08FF0001 [8] 00 00 00 00 00 00 00 00
1506532860.636035,can0 0CF00203 [8] 00 00 00 00 00 00 00 00
1506532860.647431,can0 08FF0303 [8] 00 00 00 00 00 00 00 00
1506532860.651019,can0 08FF0001 [8] 00 00 00 00 00 00 00 00
1506532860.652653,can0 0CF00203 [8] 00 00 00 00 00 00 00 00
1506532860.661662,can0 08FF0303 [8] 00 00 00 00 00 00 00 00
1506532860.670421,can0 08FF0001 [8] 00 00 00 00 00 00 00 00
1506532860.672161,can0 0CF00203 [8] 00 00 00 00 00 00 00 00
1506532860.681633,can0 08FF0303 [8] 00 00 00 00 00 00 00 00
1506532860.690926,can0 08FF0001 [8] 00 00 00 00 00 00 00 00
1506532860.700485,can0 0CF00203 [8] 00 00 00 00 00 00 00 00
1506532860.702798,can0 08FF0303 [8] 00 00 00 00 00 00 00 00
1506532860.71066,can0 08FF0001 [8] 00 00 00 00 00 00 00 00
1506532860.71697,can0 0CF00203 [8] 00 00 00 00 00 00 00 00
1506532860.729538,can0 08FF0303 [8] 00 00 00 00 00 00 00 00
1506532860.734888,can0 08FF0001 [8] 00 00 00 00 00 00 00 00
1506532860.736421,can0 0CF00203 [8] 00 00 00 00 00 00 00 00
1506532860.747846,can0 08FF0303 [8] 00 00 00 00 00 00 00 00
1506532860.751098,can0 08FF0001 [8] 00 00 00 00 00 00 00 00
1506532860.752476,can0 0CF00203 [8] 00 00 00 00 00 00 00 00
1506532860.761678,can0 08FF0303 [8] 00 00 00 00 00 00 00 00
1506532860.770783,can0 18F00503 [8] 00 00 00 00 00 00 00 00
1506532860.780246,can0 08FF0001 [8] 00 00 00 00 00 00 00 00
1506532860.782475,can0 0CF00203 [8] 00 00 00 00 00 00 00 00
1506532860.783853,can0 08FF0303 [8] 00 00 00 00 00 00 00 00
1506532860.795314,can0 08FF0001 [8] 00 00 00 00 00 00 00 00
1506532860.796777,can0 0CF00203 [8] 00 00 00 00 00 00 00 00
1506532860.810836,can0 08FF0303 [8] 00 00 00 00 00 00 00 00
1506532860.814569,can0 08FF0001 [8] 00 00 00 00 00 00 00 00
1506532860.825769,can0 0CF00203 [8] 00 00 00 00 00 00 00 00
1506532860.837568,can0 08FF0303 [8] 00 00 00 00 00 00 00 00
1506532860.843345,can0 08FF0001 [8] 00 00 00 00 00 00 00 00
1506532860.844876,can0 0CF00203 [8] 00 00 00 00 00 00 00 00
1506532860.846171,can0 08FF0303 [8] 00 00 00 00 00 00 00 00
1506532860.857685,can0 08FF0001 [8] 00 00 00 00 00 00 00 00
1506532860.863067,can0 0CF00203 [8] 00 00 00 00 00 00 00 00
1506532860.871469,can0 08FF0303 [8] 00 00 00 00 00 00 00 00
1506532860.87299,can0 08FF0001 [8] 00 00 00 00 00 00 00 00
1506532860.884286,can0 0CF00203 [8] 00 00 00 00 00 00 00 00
1506532860.885849,can0 08FF0303 [8] 00 00 00 00 00 00 00 00
1506532860.887145,can0 08FF0001 [8] 00 00 00 00 00 00 00 00
1506532860.901892,can0 0CF00203 [8] 00 00 00 00 00 00 00 00
1506532860.903586,can0 08FF0303 [8] 00 00 00 00 00 00 00 00
1506532860.90494,can0 08FF0001 [8] 00 00 00 00 00 00 00 00
1506532860.930845,can0 0CF00203 [8] 00 00 00 00 00 00 00 00
1506532860.931677,can0 08FF0303 [8] 00 00 00 00 00 00 00 00
1506532860.932193,can0 08FF0001 [8] 00 00 00 00 00 00 00 00
1506532860.932756,can0 0CF00203 [8] 00 00 00 00 00 00 00 00
1506532860.933207,can0 08FF0303 [8] 00 00 00 00 00 00 00 00
1506532860.933618,can0 08FF0001 [8] 00 00 00 00 00 00 00 00
1506532860.934016,can0 0CF00203 [8] 00 00 00 00 00 00 00 00
1506532860.942505,can0 08FF0303 [8] 00 00 00 00 00 00 00 00
1506532860.943236,can0 18F00503 [8] 00 00 00 00 00 00 00 00
1506532860.943732,can0 08FF0001 [8] 00 00 00 00 00 00 00 00
1506532860.944257,can0 0CF00203 [8] 00 00 00 00 00 00 00 00
1506532860.944721,can0 08FF0303 [8] 00 00 00 00 00 00 00 00
1506532860.945167,can0 08FF0001 [8] 00 00 00 00 00 00 00 00
1506532860.945578,can0 0CF00203 [8] 00 00 00 00 00 00 00 00
1506532860.951947,can0 08FF0303 [8] 00 00 00 00 00 00 00 00
1506532860.952746,can0 08FF0001 [8] 00 00 00 00 00 00 00 00
1506532860.953273,can0 0CF00203 [8] 00 00 00 00 00 00 00 00
1506532860.953727,can0 08FF0303 [8] 00 00 00 00 00 00 00 00
1506532860.954272,can0 08FF0001 [8] 00 00 00 00 00 00 00 00
1506532860.954702,can0 0CF00203 [8] 00 00 00 00 00 00 00 00
1506532860.955115,can0 08FF0303 [8] 00 00 00 00 00 00 00 00
1506532860.955516,can0 08FF0001 [8] 00 00 00 00 00 00 00 00
1506532860.967828,can0 0CF00203 [8] 00 00 00 00 00 00 00 00
1506532860.968411,can0 08FF0303 [8] 00 00 00 00 00 00 00 00
1506532860.969924,can0 08FF0001 [8] 00 00 00 00 00 00 00 00
1506532860.970481,can0 0CF00203 [8] 00 00 00 00 00 00 00 00
1506532860.970944,can0 08FF0303 [8] 00 00 00 00 00 00 00 00
1506532860.971427,can0 08FF0001 [8] 00 00 00 00 00 00 00 00
1506532860.971881,can0 0CF00203 [8] 00 00 00 00 00 00 00 00
1506532860.972307,can0 08FF0303 [8] 00 00 00 00 00 00 00 00
1506532860.972714,can0 08FF0001 [8] 00 00 00 00 00 00 00 00
1506532860.973108,can0 0CF00203 [8] 00 00 00 00 00 00 00 00
1506532860.980211,can0 08FF0303 [8] 00 00 00 00 00 00 00 00
1506532860.980804,can0 08FF0001 [8] 00 00 00 00 00 00 00 00
1506532860.981357,can0 0CF00203 [8] 00 00 00 00 00 00 00 00
1506532860.981839,can0 08FF0303 [8] 00 00 00 00 00 00 00 00
1506532860.982262,can0 08FF0001 [8] 00 00 00 00 00 00 00 00
1506532860.982666,can0 0CF00203 [8] 00 00 00 00 00 00 00 00
1506532860.983063,can0 08FF0303 [8] 00 00 00 00 00 00 00 00
1506532860.987599,can0 18F00503 [8] 00 00 00 00 00 00 00 00
1506532860.988048,can0 08FF0001 [8] 00 00 00 00 00 00 00 00
1506532860.989906,can0 0CF00203 [8] 00 00 00 00 00 00 00 00
1506532860.990521,can0 08FF0303 [8] 00 00 00 00 00 00 00 00
1506532860.991073,can0 08FF0001 [8] 00 00 00 00 00 00 00 00
1506532860.99155,can0 0CF00203 [8] 00 00 00 00 00 00 00 00
1506532860.991973,can0 08FF0303 [8] 00 00 00 00 00 00 00 00
1506532860.992378,can0 08FF0001 [8] 00 00 00 00 00 00 00 00
1506532860.992781,can0 0CF00203 [8] 00 00 00 00 00 00 00 00
1506532860.995629,can0 08FF0303 [8] 00 00 00 00 00 00 00 00
1506532860.996093,can0 08FF0001 [8] 00 00 00 00 00 00 00 00
1506532860.996518,can0 0CF00203 [8] 00 00 00 00 00 00 00 00
1506532860.997011,can0 08FF0303 [8] 00 00 00 00 00 00 00 00
1506532860.997449,can0 08FF0001 [8] 00 00 00 00 00 00 00 00
1506532860.997856,can0 0CF00203 [8] 00 00 00 00 00 00 00 00
1506532860.99825,can0 08FF0303 [8] 00 00 00 00 00 00 00 00
1506532861.000348,can0 08FF0001 [8] 00 00 00 00 00 00 00 00
1506532861.000974,can0 0CF00203 [8] 00 00 00 00 00 00 00 00
1506532861.002416,can0 08FF0303 [8] 00 00 00 00 00 00 00 00
1506532861.00312,can0 08FF0001 [8] 00 00 00 00 00 00 00 00
1506532861.003605,can0 0CF00203 [8] 00 00 00 00 00 00 00 00
1506532861.00406,can0 08FF0303 [8] 00 00 00 00 00 00 00 00
1506532861.004468,can0 08FF0001 [8] 00 00 00 00 00 00 00 00
1506532861.004978,can0 0CF00203 [8] 00 00 00 00 00 00 00 00
1506532861.005407,can0 08FF0303 [8] 00 00 00 00 00 00 00 00
1506532861.005813,can0 08FF0001 [8] 00 00 00 00 00 00 00 00
1506532861.006202,can0 0CF00203 [8] 00 00 00 00 00 00 00 00
1506532861.006655,can0 08FF0303 [8] 00 00 00 00 00 00 00 00
1506532861.007085,can0 08FF0001 [8] 00 00 00 00 00 00 00 00
1506532861.00749,can0 0CF00203 [8] 00 00 00 00 00 00 00 00
1506532861.007883,can0 08FF0303 [8] 00 00 00 00 00 00 00 00
1506532861.008268,can0 18F00503 [8] 00 00 00 00 00 00 00 00
1506532861.009327,can0 08FF0001 [8] 00 00 00 00 00 00 00 00
1506532861.010283,can0 0CF00203 [8] 00 00 00 00 00 00 00 00
1506532861.010896,can0 08FF0303 [8] 00 00 00 00 00 00 00 00
1506532861.013136,can0 08FF0001 [8] 00 00 00 00 00 00 00 00
1506532861.030085,can0 0CF00203 [8] 00 00 00 00 00 00 00 00
1506532861.030832,can0 08FF0303 [8] 00 00 00 00 00 00 00 00
1506532861.031407,can0 08FF0001 [8] 00 00 00 00 00 00 00 00
1506532861.068404,can0 0CF00203 [8] 00 00 00 00 00 00 00 00
1506532861.071882,can0 08FF0303 [8] 00 00 00 00 00 00 00 00
1506532861.072624,can0 08FF0001 [8] 00 00 00 00 00 00 00 00
1506532861.087249,can0 0CF00203 [8] 00 00 00 00 00 00 00 00
1506532861.087995,can0 08FF0303 [8] 00 00 00 00 00 00 00 00
1506532861.107891,can0 08FF0001 [8] 00 00 00 00 00 00 00 00
1506532861.10892,can0 0CF00203 [8] 00 00 00 00 00 00 00 00
1506532861.109588,can0 08FF0303 [8] 00 00 00 00 00 00 00 00
1506532861.127,can0 08FF0001 [8] 00 00 00 00 00 00 00 00
1506532861.145403,can0 0CF00203 [8] 00 00 00 00 00 00 00 00
1506532860.62698,can1 0CFE6E0B [8] 00 00 00 00 00 00 00 00
1506532860.653487,can1 18F0010B [8] CF FF F0 FF FF DC FF FF
1506532860.655205,can1 18FEBF0B [8] 00 00 7D 7D FE FE FF FF
1506532860.656566,can1 0CFE6E0B [8] 00 00 00 00 00 00 00 00
1506532860.668384,can1 18F00131 [8] 00 00 00 00 00 00 00 00
1506532860.674188,can1 18F0010B [8] 00 00 00 00 00 00 00 00
1506532860.675758,can1 18FEF117 [8] 00 00 00 00 00 00 00 00
1506532860.687207,can1 18FEF128 [8] 00 00 00 00 00 00 00 00
1506532860.692748,can1 18FEF121 [8] 00 00 00 00 00 00 00 00
1506532860.694295,can1 18FEF131 [8] 00 00 00 00 00 00 00 00
1506532860.695591,can1 18E00017 [8] 00 00 00 00 00 00 00 00
1506532860.713793,can1 18E00019 [8] 00 00 00 00 00 00 00 00
1506532860.715357,can1 18E00021 [8] 00 00 00 00 00 00 00 00
1506532860.727004,can1 18E00028 [8] 00 00 00 00 00 00 00 00
1506532860.74017,can1 18E00031 [8] 00 00 00 00 00 00 00 00
1506532860.741766,can1 18FEF017 [8] 00 00 00 00 00 00 00 00
1506532860.753098,can1 18FEF021 [8] 00 00 00 00 00 00 00 00
1506532860.754668,can1 18FEF028 [8] 00 00 00 00 00 00 00 00
1506532860.755995,can1 18FEF031 [8] 00 00 00 00 00 00 00 00
1506532860.76745,can1 0CFE6E0B [8] 00 00 00 00 00 00 00 00
1506532860.772993,can1 0CFE6E0B [8] 00 00 00 00 00 00 00 00
1506532860.774517,can1 0CFE6E0B [8] 00 00 00 00 00 00 00 00
1506532860.775819,can1 0CFE6E0B [8] 00 00 00 00 00 00 00 00
1506532860.790913,can1 18F0010B [8] CF FF F0 FF FF DC FF FF
1506532860.792498,can1 18FEBF0B [8] 00 00 7D 7D FE FE FF FF
1506532860.801881,can1 0CFE6E0B [8] 00 00 00 00 00 00 00 00
1506532860.80361,can1 18F00131 [8] 00 00 00 00 00 00 00 00
1506532860.804953,can1 18F0010B [8] 00 00 00 00 00 00 00 00
1506532860.830149,can1 18FEF117 [8] 00 00 00 00 00 00 00 00
1506532860.831819,can1 18FEF128 [8] 00 00 00 00 00 00 00 00
1506532860.840798,can1 18FEF121 [8] 00 00 00 00 00 00 00 00
1506532860.842318,can1 18FEF131 [8] 00 00 00 00 00 00 00 00
1506532860.851515,can1 18E00017 [8] 00 00 00 00 00 00 00 00
1506532860.860893,can1 18E00019 [8] 00 00 00 00 00 00 00 00
1506532860.864585,can1 18E00021 [8] 00 00 00 00 00 00 00 00
1506532860.866222,can1 18E00028 [8] 00 00 00 00 00 00 00 00
1506532860.867591,can1 18E00031 [8] 00 00 00 00 00 00 00 00
1506532860.880823,can1 18FEF017 [8] 00 00 00 00 00 00 00 00
1506532860.882436,can1 18FEF021 [8] 00 00 00 00 00 00 00 00
1506532860.893765,can1 18FEF028 [8] 00 00 00 00 00 00 00 00
1506532860.895506,can1 18FEF031 [8] 00 00 00 00 00 00 00 00
1506532860.896867,can1 0CFE6E0B [8] 00 00 00 00 00 00 00 00
1506532860.91533,can1 0CFE6E0B [8] 00 00 00 00 00 00 00 00
1506532860.916969,can1 0CFE6E0B [8] 00 00 00 00 00 00 00 00
1506532860.918289,can1 0CFE6E0B [8] 00 00 00 00 00 00 00 00
1506532860.934948,can1 18F0010B [8] CF FF F0 FF FF DC FF FF
1506532860.935422,can1 18FEBF0B [8] 00 00 7D 7D FE FE FF FF
1506532860.935854,can1 0CFE6E0B [8] 00 00 00 00 00 00 00 00
1506532860.936338,can1 18F00131 [8] 00 00 00 00 00 00 00 00
1506532860.93677,can1 18F0010B [8] 00 00 00 00 00 00 00 00
1506532860.937176,can1 18FEF117 [8] 00 00 00 00 00 00 00 00
1506532860.937571,can1 18FEF128 [8] 00 00 00 00 00 00 00 00
1506532860.937957,can1 18FEF121 [8] 00 00 00 00 00 00 00 00
1506532860.946373,can1 18FEF131 [8] 00 00 00 00 00 00 00 00
1506532860.946922,can1 18E00017 [8] 00 00 00 00 00 00 00 00
1506532860.947425,can1 18E00019 [8] 00 00 00 00 00 00 00 00
1506532860.947862,can1 18E00021 [8] 00 00 00 00 00 00 00 00
1506532860.948383,can1 18E00028 [8] 00 00 00 00 00 00 00 00
1506532860.956423,can1 18E00031 [8] 00 00 00 00 00 00 00 00
1506532860.956901,can1 18FEF017 [8] 00 00 00 00 00 00 00 00
1506532860.957322,can1 18FEF021 [8] 00 00 00 00 00 00 00 00
1506532860.957805,can1 18FEF028 [8] 00 00 00 00 00 00 00 00
1506532860.958242,can1 18FEF031 [8] 00 00 00 00 00 00 00 00
1506532860.964172,can1 0CFE6E0B [8] 00 00 00 00 00 00 00 00
1506532860.964804,can1 0CFE6E0B [8] 00 00 00 00 00 00 00 00
1506532860.965276,can1 0CFE6E0B [8] 00 00 00 00 00 00 00 00
1506532860.965805,can1 0CFE6E0B [8] 00 00 00 00 00 00 00 00
1506532860.966248,can1 18F0010B [8] CF FF F0 FF FF DC FF FF
1506532860.96665,can1 18FEBF0B [8] 00 00 7D 7D FE FE FF FF
1506532860.96704,can1 0CFE6E0B [8] 00 00 00 00 00 00 00 00
1506532860.967431,can1 18F00131 [8] 00 00 00 00 00 00 00 00
1506532860.977494,can1 18F0010B [8] 00 00 00 00 00 00 00 00
1506532860.978059,can1 18FEF117 [8] 00 00 00 00 00 00 00 00
1506532860.979287,can1 18FEF128 [8] 00 00 00 00 00 00 00 00
1506532860.983468,can1 18FEF121 [8] 00 00 00 00 00 00 00 00
1506532860.984003,can1 18FEF131 [8] 00 00 00 00 00 00 00 00
1506532860.984437,can1 18E00017 [8] 00 00 00 00 00 00 00 00
1506532860.984851,can1 18E00019 [8] 00 00 00 00 00 00 00 00
1506532860.985338,can1 18E00021 [8] 00 00 00 00 00 00 00 00
1506532860.985756,can1 18E00028 [8] 00 00 00 00 00 00 00 00
1506532860.986155,can1 18E00031 [8] 00 00 00 00 00 00 00 00
1506532860.986539,can1 18FEF017 [8] 00 00 00 00 00 00 00 00
1506532860.986918,can1 18FEF021 [8] 00 00 00 00 00 00 00 00
1506532860.992912,can1 18FEF028 [8] 00 00 00 00 00 00 00 00
1506532860.993505,can1 18FEF031 [8] 00 00 00 00 00 00 00 00
1506532860.993952,can1 0CFE6E0B [8] 00 00 00 00 00 00 00 00
1506532860.994357,can1 0CFE6E0B [8] 00 00 00 00 00 00 00 00
1506532860.994749,can1 0CFE6E0B [8] 00 00 00 00 00 00 00 00
1506532860.999278,can1 0CFE6E0B [8] 00 00 00 00 00 00 00 00
1506532861.001809,can1 18F0010B [8] CF FF F0 FF FF DC FF FF
1506532861.012365,can1 18FEBF0B [8] 00 00 7D 7D FE FE FF FF
1506532861.019765,can1 18FEBF0B [8] 74 14 0A 7E 91 B8 A9 67
1506532861.020749,can1 18FEBF0B [8] D7 AD 3F 7F 5C 39 F1 75
1506532861.021345,can1 18FEBF0B [8] 42 5C 0F 75 48 D5 86 4A
1506532861.021861,can1 18FEBF0B [8] 53 B7 AC 56 20 9F 2A 6E
1506532861.038497,can1 18FEBF0B [8] 4E 1A 36 0A 01 F1 3C 02
1506532861.039392,can1 18FEBF0B [8] C9 37 85 2D A1 22 F5 60
1506532861.044052,can1 18FEBF0B [8] 8D FD B2 3B 1C 0B 77 53
1506532861.044784,can1 18FEBF0B [8] FA A6 5A 56 A5 E2 E3 3D
1506532861.045401,can1 18FEBF0B [8] A5 33 D6 05 9E 10 A2 0B
1506532861.077599,can1 18FEBF0B [8] 61 84 D8 5F 4B 5C 55 54
1506532861.078388,can1 0CFE6E0B [8] 00 00 00 00 00 00 00 00
1506532861.103363,can1 18F00131 [8] 00 00 00 00 00 00 00 00
1506532861.113547,can1 18F0010B [8] 00 00 00 00 00 00 00 00
1506532861.121308,can1 18FEBF0B [8] C4 C1 0B 69 BA 12 DC 4A
1506532861.140406,can1 18FEBF0B [8] 76 22 B5 60 61 45 0B 12
1506532861.141162,can1 18FEBF0B [8] E7 0B 13 5A 3B CA AE 17
1506532861.158284,can1 18FEBF0B [8] 3B F5 72 71 17 1D B9 2F
1506532861.169989,can1 18FEBF0B [8] 0E 5C 42 18 D8 A0 23 18
1506532861.182529,can1 18FEBF0B [8] FC 08 63 72 82 70 4C 16
1506532861.183383,can1 18FEF117 [8] 00 00 00 00 00 00 00 00
1506532861.184013,can1 18FEBF0B [8] 69 59 CD 7F D3 B6 A2 71
1506532861.20605,can1 18FEBF0B [8] DF A9 3D 0C AC B5 DC 74
1506532861.206819,can1 18FEBF0B [8] 1B 8C 29 3C 32 61 EA 62
1506532861.207382,can1 18FEBF0B [8] CC 54 07 63 69 A6 5F 46
1506532861.233706,can1 18FEBF0B [8] 33 52 27 65 95 8C 8C 10
1506532861.234459,can1 18FEBF0B [8] 0A C9 54 27 C0 4F DA 20
1506532861.24801,can1 18FEBF0B [8] B2 97 03 64 04 70 AF 7D
1506532861.249141,can1 18FEBF0B [8] 65 32 BE 5E 57 CB D9 69
1506532861.249819,can1 18FEBF0B [8] A3 80 51 09 C6 B6 96 3E
1506532861.250355,can1 18FEBF0B [8] A2 27 2F 3E 67 42 5D 72
1506532861.281195,can1 18FEF121 [8] 00 00 00 00 00 00 00 00
1506532861.301948,can1 18FEBF0B [8] D7 53 21 3D EC 50 A0 1F
1506532861.302861,can1 18FEBF0B [8] 1E 31 57 3F D2 93 C1 7E
1506532861.312631,can1 18FEBF0B [8] B2 16 E4 16 DD D0 34 30
1506532861.313567,can1 18FEBF0B [8] C4 F6 15 40 0D C3 E1 3B
1506532861.314179,can1 18FEBF0B [8] F4 FB 5A 39 A1 9A B3 22
1506532861.314706,can1 18FEBF0B [8] A2 E3 C1 77 76 A9 9D 5A
1506532861.345051,can1 18FEF128 [8] 00 00 00 00 00 00 00 00
1506532861.345956,can1 18FEBF0B [8] 4D 80 A6 3D 8F FB 4A 1F
1506532861.362788,can1 18E00017 [8] 00 00 00 00 00 00 00 00
1506532861.363692,can1 18FEBF0B [8] 66 9E 0C 61 B9 AB 09 52
1506532861.375279,can1 18E00019 [8] 00 00 00 00 00 00 00 00
1506532861.383414,can1 18FEBF0B [8] DB 19 2E 5F 8B ED 85 2D
1506532861.384271,can1 18E00021 [8] 00 00 00 00 00 00 00 00
1506532861.150504,can0 08FF0303 [8] 00 00 00 00 00 00 00 00
1506532861.173822,can0 08FF0001 [8] 00 00 00 00 00 00 00 00
1506532861.190444,can0 0CF00203 [8] 00 00 00 00 00 00 00 00
1506532861.191303,can0 08FF0303 [8] 00 00 00 00 00 00 00 00
1506532861.191895,can0 08FF0001 [8] 00 00 00 00 00 00 00 00
1506532861.214342,can0 0CF00203 [8] 00 00 00 00 00 00 00 00
1506532861.215071,can0 08FF0303 [8] 00 00 00 00 00 00 00 00
1506532861.225135,can0 08FF0001 [8] 00 00 00 00 00 00 00 00
1506532861.226109,can0 0CF00203 [8] 00 00 00 00 00 00 00 00
1506532861.226722,can0 08FF0303 [8] 00 00 00 00 00 00 00 00
1506532861.258272,can0 08FF0001 [8] 00 00 00 00 00 00 00 00
1506532861.259379,can0 0CF00203 [8] 00 00 00 00 00 00 00 00
1506532861.26004,can0 08FF0303 [8] 00 00 00 00 00 00 00 00
1506532861.273524,can0 18F00503 [8] 00 00 00 00 00 00 00 00
1506532861.286124,can0 08FF0001 [8] 00 00 00 00 00 00 00 00
1506532861.286908,can0 0CF00203 [8] 00 00 00 00 00 00 00 00
1506532861.287474,can0 08FF0303 [8] 00 00 00 00 00 00 00 00
1506532861.308774,can0 08FF0001 [8] 00 00 00 00 00 00 00 00
1506532861.32598,can0 0CF00203 [8] 00 00 00 00 00 00 00 00
1506532861.326809,can0 08FF0303 [8] 00 00 00 00 00 00 00 00
1506532861.339991,can0 08FF0001 [8] 00 00 00 00 00 00 00 00
1506532861.356763,can0 0CF00203 [8] 00 00 00 00 00 00 00 00
1506532861.357665,can0 08FF0303 [8] 00 00 00 00 00 00 00 00
1506532861.378963,can0 08FF0001 [8] 00 00 00 00 00 00 00 00
1506532861.392143,can0 0CF00203 [8] 00 00 00 00 00 00 00 00
1506532861.393031,can0 08FF0303 [8] 00 00 00 00 00 00 00 00
1506532861.397986,can0 08FF0001 [8] 00 00 00 00 00 00 00 00
1506532861.398724,can0 0CF00203 [8] 00 00 00 00 00 00 00 00
1506532861.412751,can0 08FF0303 [8] 00 00 00 00 00 00 00 00
1506532861.413624,can0 08FF0001 [8] 00 00 00 00 00 00 00 00
1506532861.414228,can0 0CF00203 [8] 00 00 00 00 00 00 00 00
1506532861.431846,can0 08FF0303 [8] 00 00 00 00 00 00 00 00
1506532861.432937,can0 08FF0001 [8] 00 00 00 00 00 00 00 00
1506532861.433574,can0 0CF00203 [8] 00 00 00 00 00 00 00 00
1506532861.434124,can0 08FF0303 [8] 00 00 00 00 00 00 00 00
1506532861.447556,can0 08FF0001 [8] 00 00 00 00 00 00 00 00
1506532861.451281,can0 0CF00203 [8] 00 00 00 00 00 00 00 00
1506532861.464353,can0 08FF0303 [8] 00 00 00 00 00 00 00 00
1506532861.465239,can0 08FF0001 [8] 00 00 00 00 00 00 00 00
1506532861.475584,can0 0CF00203 [8] 00 00 00 00 00 00 00 00
1506532861.476323,can0 08FF0303 [8] 00 00 00 00 00 00 00 00
1506532861.476893,can0 08FF0001 [8] 00 00 00 00 00 00 00 00
1506532861.490558,can0 0CF00203 [8] 00 00 00 00 00 00 00 00
1506532861.491478,can0 08FF0303 [8] 00 00 00 00 00 00 00 00
1506532861.492066,can0 18F00503 [8] 00 00 00 00 00 00 00 00
1506532861.492592,can0 08FF0001 [8] 00 00 00 00 00 00 00 00
1506532861.508639,can0 0CF00203 [8] 00 00 00 00 00 00 00 00
1506532861.509544,can0 08FF0303 [8] 00 00 00 00 00 00 00 00
1506532861.510178,can0 08FF0001 [8] 00 00 00 00 00 00 00 00
1506532861.522765,can0 0CF00203 [8] 00 00 00 00 00 00 00 00
1506532861.523517,can0 08FF0303 [8] 00 00 00 00 00 00 00 00
1506532861.537109,can0 08FF0001 [8] 00 00 00 00 00 00 00 00
1506532861.538211,can0 0CF00203 [8] 00 00 00 00 00 00 00 00
1506532861.538972,can0 08FF0303 [8] 00 00 00 00 00 00 00 00
1506532861.539567,can0 08FF0001 [8] 00 00 00 00 00 00 00 00
1506532861.560498,can0 0CF00203 [8] 00 00 00 00 00 00 00 00
1506532861.561163,can0 08FF0303 [8] 00 00 00 00 00 00 00 00
1506532861.566502,can0 08FF0001 [8] 00 00 00 00 00 00 00 00
1506532861.591966,can0 0CF00203 [8] 00 00 00 00 00 00 00 00
1506532861.595072,can0 08FF0303 [8] 00 00 00 00 00 00 00 00
1506532861.595707,can0 08FF0001 [8] 00 00 00 00 00 00 00 00
1506532861.596182,can0 0CF00203 [8] 00 00 00 00 00 00 00 00
1506532861.62472,can0 08FF0303 [8] 00 00 00 00 00 00 00 00
1506532861.625455,can0 08FF0001 [8] 00 00 00 00 00 00 00 00
1506532861.636003,can0 0CF00203 [8] 00 00 00 00 00 00 00 00
1506532861.636803,can0 08FF0303 [8] 00 00 00 00 00 00 00 00
1506532861.63737,can0 08FF0001 [8] 00 00 00 00 00 00 00 00
1506532861.658317,can0 0CF00203 [8] 00 00 00 00 00 00 00 00
1506532861.673717,can0 08FF0303 [8] 00 00 00 00 00 00 00 00
1506532861.6913,can0 08FF0001 [8] 00 00 00 00 00 00 00 00
1506532861.698738,can0 0CF00203 [8] 00 00 00 00 00 00 00 00
1506532861.699597,can0 08FF0303 [8] 00 00 00 00 00 00 00 00
1506532861.716585,can0 08FF0001 [8] 00 00 00 00 00 00 00 00
1506532861.717358,can0 0CF00203 [8] 00 00 00 00 00 00 00 00
1506532861.733004,can0 08FF0303 [8] 00 00 00 00 00 00 00 00
1506532861.752569,can0 18F00503 [8] 00 00 00 00 00 00 00 00
1506532861.753409,can0 08FF0001 [8] 00 00 00 00 00 00 00 00
1506532861.754014,can0 0CF00203 [8] 00 00 00 00 00 00 00 00
1506532861.754547,can0 08FF0303 [8] 00 00 00 00 00 00 00 00
1506532861.783755,can0 08FF0001 [8] 00 00 00 00 00 00 00 00
1506532861.797129,can0 0CF00203 [8] 00 00 00 00 00 00 00 00
1506532861.798145,can0 08FF0303 [8] 00 00 00 00 00 00 00 00
1506532861.798806,can0 08FF0001 [8] 00 00 00 00 00 00 00 00
1506532861.799382,can0 0CF00203 [8] 00 00 00 00 00 00 00 00
1506532861.827917,can0 08FF0303 [8] 00 00 00 00 00 00 00 00
1506532861.828701,can0 08FF0001 [8] 00 00 00 00 00 00 00 00
1506532861.84802,can0 0CF00203 [8] 00 00 00 00 00 00 00 00
1506532861.861012,can0 08FF0303 [8] 00 00 00 00 00 00 00 00
1506532861.86184,can0 08FF0001 [8] 00 00 00 00 00 00 00 00
1506532861.870706,can0 0CF00203 [8] 00 00 00 00 00 00 00 00
1506532861.871476,can0 08FF0303 [8] 00 00 00 00 00 00 00 00
1506532861.895609,can0 08FF0001 [8] 00 00 00 00 00 00 00 00
1506532861.896408,can0 0CF00203 [8] 00 00 00 00 00 00 00 00
1506532861.896917,can0 08FF0303 [8] 00 00 00 00 00 00 00 00
1506532861.915333,can0 08FF0001 [8] 00 00 00 00 00 00 00 00
1506532861.916038,can0 0CF00203 [8] 00 00 00 00 00 00 00 00
1506532861.91659,can0 08FF0303 [8] 00 00 00 00 00 00 00 00
1506532861.93251,can0 08FF0001 [8] 00 00 00 00 00 00 00 00
1506532861.933182,can0 0CF00203 [8] 00 00 00 00 00 00 00 00
1506532861.933738,can0 08FF0303 [8] 00 00 00 00 00 00 00 00
1506532861.953619,can0 08FF0001 [8] 00 00 00 00 00 00 00 00
1506532861.954641,can0 0CF00203 [8] 00 00 00 00 00 00 00 00
1506532861.955269,can0 08FF0303 [8] 00 00 00 00 00 00 00 00
1506532861.970155,can0 08FF0001 [8] 00 00 00 00 00 00 00 00
1506532861.970985,can0 0CF00203 [8] 00 00 00 00 00 00 00 00
1506532861.975715,can0 08FF0303 [8] 00 00 00 00 00 00 00 00
1506532861.97645,can0 18F00503 [8] 00 00 00 00 00 00 00 00
1506532861.97705,can0 08FF0001 [8] 00 00 00 00 00 00 00 00
1506532861.992906,can0 0CF00203 [8] 00 00 00 00 00 00 00 00
1506532861.99362,can0 08FF0303 [8] 00 00 00 00 00 00 00 00
1506532861.994119,can0 08FF0001 [8] 00 00 00 00 00 00 00 00
1506532861.994659,can0 0CF00203 [8] 00 00 00 00 00 00 00 00
1506532862.014482,can0 08FF0303 [8] 00 00 00 00 00 00 00 00
1506532862.015419,can0 08FF0001 [8] 00 00 00 00 00 00 00 00
1506532862.016019,can0 0CF00203 [8] 00 00 00 00 00 00 00 00
1506532862.031986,can0 08FF0303 [8] 00 00 00 00 00 00 00 00
1506532862.032788,can0 08FF0001 [8] 00 00 00 00 00 00 00 00
1506532862.03336,can0 0CF00203 [8] 00 00 00 00 00 00 00 00
1506532862.063524,can0 08FF0303 [8] 00 00 00 00 00 00 00 00
1506532862.064521,can0 08FF0001 [8] 00 00 00 00 00 00 00 00
1506532862.075117,can0 0CF00203 [8] 00 00 00 00 00 00 00 00
1506532862.076045,can0 08FF0303 [8] 00 00 00 00 00 00 00 00
1506532862.076708,can0 08FF0001 [8] 00 00 00 00 00 00 00 00
1506532862.098939,can0 0CF00203 [8] 00 00 00 00 00 00 00 00
1506532862.099762,can0 08FF0303 [8] 00 00 00 00 00 00 00 00
1506532862.123747,can0 08FF0001 [8] 00 00 00 00 00 00 00 00
1506532862.124726,can0 0CF00203 [8] 00 00 00 00 00 00 00 00
1506532862.125349,can0 08FF0303 [8] 00 00 00 00 00 00 00 00
1506532862.149629,can0 08FF0001 [8] 00 00 00 00 00 00 00 00
1506532862.150532,can0 0CF00203 [8] 00 00 00 00 00 00 00 00
1506532862.164993,can0 08FF0303 [8] 00 00 00 00 00 00 00 00
1506532862.165932,can0 08FF0001 [8] 00 00 00 00 00 00 00 00
1506532862.166536,can0 0CF00203 [8] 00 00 00 00 00 00 00 00
1506532862.189122,can0 08FF0303 [8] 00 00 00 00 00 00 00 00
1506532862.189878,can0 08FF0001 [8] 00 00 00 00 00 00 00 00
1506532861.404741,can1 18FEBF0B [8] 90 6E E9 21 AF F5 84 58
1506532861.405859,can1 18E00028 [8] 00 00 00 00 00 00 00 00
1506532861.406481,can1 18FEBF0B [8] D3 FD 9A 58 DC 64 3B 7D
1506532861.421763,can1 18E00031 [8] 00 00 00 00 00 00 00 00
1506532861.422724,can1 18FEBF0B [8] DA 58 CC 5C 6C F3 D4 3E
1506532861.423352,can1 18FEBF0B [8] 1F F6 92 64 18 E9 FB 5C
1506532861.42389,can1 18FEBF0B [8] 09 B5 A2 35 5A C4 47 46
1506532861.424397,can1 18FEBF0B [8] 58 3B FC 64 E7 57 62 7F
1506532861.441102,can1 18FEBF0B [8] 2C 77 0A 1F 2F 8F 1D 22
1506532861.441759,can1 18FEBF0B [8] A0 ED A1 20 EF A0 43 18
1506532861.455486,can1 18FEBF0B [8] DC 3A C1 2D E5 F1 0C 0D
1506532861.456334,can1 18FEBF0B [8] 3A 5E CE 40 7A 38 48 79
1506532861.456923,can1 18FEBF0B [8] CC D9 65 67 19 74 BF 0F
1506532861.457461,can1 18FEBF0B [8] 16 3F F3 4E F9 E4 11 56
1506532861.470655,can1 18FEBF0B [8] 40 07 9F 6A 29 58 74 69
1506532861.471338,can1 18FEF017 [8] 00 00 00 00 00 00 00 00
1506532861.483841,can1 18FEBF0B [8] 7C 6A 96 40 12 75 3F 3C
1506532861.484471,can1 18FEBF0B [8] B1 2D FE 7E C6 BF E0 7A
1506532861.484998,can1 18FEBF0B [8] DA C8 77 22 D5 20 89 3B
1506532861.501488,can1 18FEBF0B [8] B7 AB 5F 24 1B 65 F8 5A
1506532861.502119,can1 18FEBF0B [8] 47 7C DE 4B C1 81 F6 23
1506532861.516783,can1 18FEBF0B [8] 2F F1 93 04 CB FD 18 07
1506532861.517728,can1 18FEBF0B [8] 20 24 9E 0F 28 11 68 5C
1506532861.529139,can1 18FEBF0B [8] 53 8A DF 28 9F A6 E4 23
1506532861.532826,can1 18FEBF0B [8] 50 F5 20 28 B3 84 D9 46
1506532861.533713,can1 18FEBF0B [8] 99 0E 55 70 F0 E2 C2 48
1506532861.547009,can1 18FEBF0B [8] AD 00 A4 5A 78 1D E3 4B
1506532861.55114,can1 18FEBF0B [8] 4B 74 BA 3A 89 36 FB 0B
1506532861.551984,can1 18FEBF0B [8] D8 5F E4 25 4F E4 AB 50
1506532861.552577,can1 18FEBF0B [8] 62 12 F4 5A 8D 95 DB 74
1506532861.553102,can1 18FEBF0B [8] E5 B0 2F 0A 34 14 18 45
1506532861.571552,can1 18FEBF0B [8] 88 7E F5 1C 44 0B D7 6C
1506532861.572373,can1 18FEF021 [8] 00 00 00 00 00 00 00 00
1506532861.600996,can1 18FEBF0B [8] FD B7 47 7E B9 10 1E 1E
1506532861.602021,can1 18FEBF0B [8] FE EB 20 29 86 80 C1 09
1506532861.616526,can1 18FEBF0B [8] 01 3F 8E 27 44 48 A0 0B
1506532861.617232,can1 18FEBF0B [8] 2A BB C5 20 67 57 50 7C
1506532861.617798,can1 18FEBF0B [8] 29 94 EE 22 F3 11 B3 3A
1506532861.643713,can1 18FEBF0B [8] 2B 53 CD 74 93 3F 1E 06
1506532861.644352,can1 18FEBF0B [8] FA 58 58 63 40 88 88 79
1506532861.644886,can1 18FEBF0B [8] 0C 2C F3 59 6D 5C 07 11
1506532861.663274,can1 18FEBF0B [8] 67 FE CA 4A 37 1C 75 31
1506532861.664033,can1 18FEBF0B [8] F6 51 61 26 14 FF 6E 25
1506532861.664602,can1 18FEBF0B [8] 96 90 DB 08 F3 35 C2 4C
1506532861.687809,can1 18FEBF0B [8] 40 CD 03 30 7C 20 FE 6F
1506532861.695622,can1 18FEBF0B [8] 6B 39 00 66 B5 8A 93 46
1506532861.710862,can1 18FEBF0B [8] 77 A9 D9 16 13 CD 89 7D
1506532861.721596,can1 18FEBF0B [8] 35 B3 7A 27 69 77 07 61
1506532861.722617,can1 18FEBF0B [8] 52 9B 61 38 11 CA 0F 2F
1506532861.723232,can1 18FEF028 [8] 00 00 00 00 00 00 00 00
1506532861.741098,can1 18FEBF0B [8] 07 12 DC 20 FF 6D E6 0B
1506532861.741779,can1 18FEBF0B [8] 65 A1 A2 09 BB E7 1F 3D
1506532861.74233,can1 18FEBF0B [8] A0 0B 5B 11 AC 4D 05 3F
1506532861.742902,can1 18FEBF0B [8] 66 A3 AD 70 E5 46 38 0E
1506532861.774688,can1 18FEBF0B [8] 67 C3 4D 13 DB AA 4E 41
1506532861.775397,can1 18FEBF0B [8] 1F DD AD 42 5E 7E 11 26
1506532861.775935,can1 18FEBF0B [8] 0A 84 D1 69 1A 40 BC 67
1506532861.806827,can1 18FEBF0B [8] 70 BC B4 07 9F 71 51 5E
1506532861.811339,can1 18FEBF0B [8] 70 39 5B 39 09 CE 3C 4D
1506532861.821823,can1 18FEBF0B [8] B8 C3 E4 66 06 CA 36 42
1506532861.822709,can1 18FEBF0B [8] 5A 80 5E 77 15 02 C7 52
1506532861.838775,can1 18FEBF0B [8] F5 CD 91 3B CF 8D C2 30
1506532861.839602,can1 18FEBF0B [8] E8 52 22 42 31 63 41 42
1506532861.840215,can1 18FEBF0B [8] 04 BC 14 17 3F EB 9A 5F
1506532861.867368,can1 18FEBF0B [8] 23 CD 40 70 E0 45 FE 6A
1506532861.880871,can1 18FEBF0B [8] 5A 6D CB 13 64 D2 D0 19
1506532861.887555,can1 18FEF031 [8] 00 00 00 00 00 00 00 00
1506532861.888516,can1 18FEBF0B [8] 0E AA D5 2E 6A D2 9D 2D
1506532861.889187,can1 0CFE6E0B [8] 00 00 00 00 00 00 00 00
1506532861.922021,can1 18FEBF0B [8] F1 80 C8 2F F0 A2 EF 03
1506532861.922945,can1 0CFE6E0B [8] 00 00 00 00 00 00 00 00
1506532861.923633,can1 18FEBF0B [8] D7 12 16 0C C8 AD 91 39
1506532861.924162,can1 18FEBF0B [8] F3 29 3C 1F 91 CF 29 41
1506532861.941161,can1 18FEBF0B [8] A9 D1 F1 6D 4C 6E DE 74
1506532861.941984,can1 18FEBF0B [8] 99 FC 55 68 31 9B 55 43
1506532861.946607,can1 0CFE6E0B [8] 00 00 00 00 00 00 00 00
1506532861.947227,can1 18FEBF0B [8] E7 AB AA 5D 4C 1B 1C 73
1506532861.947762,can1 18FEBF0B [8] 84 6B D1 7E 9A 9D 15 31
1506532861.961954,can1 18FEBF0B [8] CE 79 E6 50 EA 3D 4D 4C
1506532861.962667,can1 18FEBF0B [8] C4 37 FA 7F 28 FA 44 48
1506532861.963224,can1 18FEBF0B [8] 38 A6 9C 57 C5 C2 3D 1A
1506532861.982753,can1 18FEBF0B [8] 97 CA 4A 0E 3A DE 1C 1D
1506532861.983601,can1 18FEBF0B [8] E1 1F 45 7F BE F5 A4 36
1506532861.984197,can1 18FEBF0B [8] 90 9C 83 45 41 01 A6 63
1506532861.984732,can1 18FEBF0B [8] C1 C3 12 6A 8F E8 97 3D
1506532862.002395,can1 18FEBF0B [8] 82 98 49 7E 45 CC 08 20
1506532862.003309,can1 18FEF131 [8] 00 00 00 00 00 00 00 00
1506532862.003887,can1 18FEBF0B [8] 9B 4A 75 14 38 EE 49 64
1506532862.004416,can1 18FEBF0B [8] 03 7A FA 34 0D F0 22 27
1506532862.021939,can1 18FEBF0B [8] 7D 23 84 7F 04 ED C5 19
1506532862.022725,can1 18FEBF0B [8] 67 9C 39 4A DD 39 C7 5D
1506532862.023287,can1 18FEBF0B [8] 30 D8 C9 76 67 15 16 73
1506532862.023797,can1 18FEBF0B [8] DB DA C4 30 36 68 F1 70
1506532862.041194,can1 18FEBF0B [8] 1C 80 45 43 0D 81 41 02
1506532862.042103,can1 18FEBF0B [8] 44 3C B9 38 64 E0 48 29
1506532862.042686,can1 18FEBF0B [8] FB 8B 66 12 C8 25 C1 36
1506532862.043214,can1 18FEBF0B [8] BB C6 CC 65 33 32 03 6A
1506532862.081916,can1 18FEBF0B [8] B0 64 1F 15 5E 57 14 3F
1506532862.089836,can1 18FEBF0B [8] 11 54 B5 44 74 8B 68 0F
1506532862.105847,can1 18FEBF0B [8] B3 43 C2 3B 1A 6F 66 42
1506532862.106731,can1 18FEBF0B [8] BB 3A B9 33 4B 2E 43 19
1506532862.107402,can1 18FEBF0B [8] 37 DC EC 70 25 CF E6 78
1506532862.107934,can1 18FEBF0B [8] D4 DD 56 3B B0 15 B3 2A
1506532862.132319,can1 18FEBF0B [8] C2 13 0D 3F C7 53 08 15
1506532862.133019,can1 18FEBF0B [8] 79 B6 E0 2B 2D 78 BA 5C
1506532862.156664,can1 18FEBF0B [8] 38 6F 63 0C 67 7F 72 65
1506532862.157633,can1 18FEBF0B [8] 20 C3 CB 7A 7F DD 8F 76
1506532862.158223,can1 18FEBF0B [8] 29 4E 19 66 0B 2F 81 59
1506532862.158779,can1 18FEBF0B [8] 20 CA FC 78 40 FF 25 2F
1506532862.181159,can1 18FEBF0B [8] 86 72 05 40 CA ED B6 60
1506532862.181832,can1 18FEBF0B [8] 9F 0C 86 7C FE 23 2C 1C
1506532862.20037,can1 0CFE6E0B [8] 00 00 00 00 00 00 00 00
1506532862.201308,can1 18FEBF0B [8] 6E C2 40 2C B3 9D B8 1F
1506532862.216798,can1 18FEBF0B [8] 99 EE D3 3A 1E 27 60 41
1506532862.225398,can1 18F0010B [8] CF FF F0 FF FF DC FF FF
1506532862.2262,can1 18FEBF0B [8] 71 08 9F 44 D7 05 8C 3D
1506532862.226845,can1 18FEBF0B [8] C0 76 DC 30 92 AB 81 27
1506532862.255989,can1 18FEBF0B [8] 72 4A 50 0C 12 B2 D6 3B
1506532862.256897,can1 18FEBF0B [8] F9 4D 29 31 AB 8E D9 3D
1506532862.257577,can1 18FEBF0B [8] 2E 19 28 33 63 D0 59 6B
1506532862.258115,can1 18FEBF0B [8] 38 2A 28 56 72 95 53 6F
1506532862.282565,can1 18FEBF0B [8] 82 64 AE 13 AC BB 40 43
1506532862.283431,can1 18FEBF0B [8] B6 C0 D1 4F E9 A4 A8 1E
1506532862.295889,can1 18FEBF0B [8] DD D6 91 66 02 70 CB 6B
1506532862.296687,can1 18FEBF0B [8] 57 57 0B 65 77 F9 FA 06
1506532862.297267,can1 18FEBF0B [8] 1F 3B 36 69 7A 76 6A 11
1506532862.317721,can1 18FEBF0B [8] CF A9 02 6D 96 48 A0 53
1506532862.318456,can1 18FEBF0B [8] 0F AB 54 71 DF D1 EC 62
1506532862.344636,can1 18FEBF0B [8] C5 77 DE 4D BD 21 4C 3C
1506532862.345621,can1 18FEBF0B [8] 61 86 EB 3D A1 43 A8 68
1506532862.346245,can1 18FEBF0B [8] F8 C6 A0 56 D2 8E 8A 02
1506532862.360897,can1 18FEBF0B [8] 89 AF 3C 10 70 B0 70 3E
1506532862.361569,can1 18FEBF0B [8] 00 00 7D 7D FE FE FF FF
1506532862.385312,can1 18FEBF0B [8] EB 22 D3 5A 68 F8 65 19
1506532862.387355,can1 18FEBF0B [8] ED EA 4C 41 89 91 86 35
1506532862.207411,can0 0CF00203 [8] 00 00 00 00 00 00 00 00
1506532862.220763,can0 08FF0303 [8] 00 00 00 00 00 00 00 00
1506532862.240215,can0 18F00503 [8] 00 00 00 00 00 00 00 00
1506532862.249047,can0 08FF0001 [8] 00 00 00 00 00 00 00 00
1506532862.250045,can0 0CF00203 [8] 00 00 00 00 00 00 00 00
1506532862.25065,can0 08FF0303 [8] 00 00 00 00 00 00 00 00
1506532862.26991,can0 08FF0001 [8] 00 00 00 00 00 00 00 00
1506532862.288405,can0 0CF00203 [8] 00 00 00 00 00 00 00 00
1506532862.289237,can0 08FF0303 [8] 00 00 00 00 00 00 00 00
1506532862.311879,can0 08FF0001 [8] 00 00 00 00 00 00 00 00
1506532862.312722,can0 0CF00203 [8] 00 00 00 00 00 00 00 00
1506532862.324593,can0 08FF0303 [8] 00 00 00 00 00 00 00 00
1506532862.332377,can0 08FF0001 [8] 00 00 00 00 00 00 00 00
1506532862.352698,can0 0CF00203 [8] 00 00 00 00 00 00 00 00
1506532862.353445,can0 08FF0303 [8] 00 00 00 00 00 00 00 00
1506532862.354031,can0 08FF0001 [8] 00 00 00 00 00 00 00 00
1506532862.375869,can0 0CF00203 [8] 00 00 00 00 00 00 00 00
1506532862.37662,can0 08FF0303 [8] 00 00 00 00 00 00 00 00
1506532862.377138,can0 08FF0001 [8] 00 00 00 00 00 00 00 00
1506532862.398141,can0 0CF00203 [8] 00 00 00 00 00 00 00 00
1506532862.399337,can0 08FF0303 [8] 00 00 00 00 00 00 00 00
1506532862.400022,can0 08FF0001 [8] 00 00 00 00 00 00 00 00
1506532862.400575,can0 0CF00203 [8] 00 00 00 00 00 00 00 00
1506532862.4209,can0 08FF0303 [8] 00 00 00 00 00 00 00 00
1506532862.421835,can0 08FF0001 [8] 00 00 00 00 00 00 00 00
1506532862.422448,can0 0CF00203 [8] 00 00 00 00 00 00 00 00
1506532862.428616,can0 08FF0303 [8] 00 00 00 00 00 00 00 00
1506532862.429333,can0 08FF0001 [8] 00 00 00 00 00 00 00 00
1506532862.429996,can0 0CF00203 [8] 00 00 00 00 00 00 00 00
1506532862.452839,can0 08FF0303 [8] 00 00 00 00 00 00 00 00
1506532862.453743,can0 08FF0001 [8] 00 00 00 00 00 00 00 00
1506532862.454444,can0 0CF00203 [8] 00 00 00 00 00 00 00 00
1506532862.454986,can0 08FF0303 [8] 00 00 00 00 00 00 00 00
1506532862.455494,can0 18F00503 [8] 00 00 00 00 00 00 00 00
1506532862.475532,can0 08FF0001 [8] 00 00 00 00 00 00 00 00
1506532862.476297,can0 0CF00203 [8] 00 00 00 00 00 00 00 00
1506532862.476883,can0 08FF0303 [8] 00 00 00 00 00 00 00 00
1506532862.493605,can0 08FF0001 [8] 00 00 00 00 00 00 00 00
1506532862.494389,can0 0CF00203 [8] 00 00 00 00 00 00 00 00
1506532862.49892,can0 08FF0303 [8] 00 00 00 00 00 00 00 00
1506532862.499849,can0 08FF0001 [8] 00 00 00 00 00 00 00 00
1506532862.500419,can0 0CF00203 [8] 00 00 00 00 00 00 00 00
1506532862.51695,can0 08FF0303 [8] 00 00 00 00 00 00 00 00
1506532862.517772,can0 08FF0001 [8] 00 00 00 00 00 00 00 00
1506532862.53376,can0 0CF00203 [8] 00 00 00 00 00 00 00 00
1506532862.534758,can0 08FF0303 [8] 00 00 00 00 00 00 00 00
1506532862.53537,can0 08FF0001 [8] 00 00 00 00 00 00 00 00
1506532862.562724,can0 0CF00203 [8] 00 00 00 00 00 00 00 00
1506532862.565973,can0 08FF0303 [8] 00 00 00 00 00 00 00 00
1506532862.566662,can0 08FF0001 [8] 00 00 00 00 00 00 00 00
1506532862.579445,can0 0CF00203 [8] 00 00 00 00 00 00 00 00
1506532862.580446,can0 08FF0303 [8] 00 00 00 00 00 00 00 00
1506532862.612526,can0 08FF0001 [8] 00 00 00 00 00 00 00 00
1506532862.613304,can0 0CF00203 [8] 00 00 00 00 00 00 00 00
1506532862.618771,can0 08FF0303 [8] 00 00 00 00 00 00 00 00
1506532862.619632,can0 08FF0001 [8] 00 00 00 00 00 00 00 00
1506532862.641349,can0 0CF00203 [8] 00 00 00 00 00 00 00 00
1506532862.642093,can0 08FF0303 [8] 00 00 00 00 00 00 00 00
1506532862.642665,can0 08FF0001 [8] 00 00 00 00 00 00 00 00
1506532862.643198,can0 0CF00203 [8] 00 00 00 00 00 00 00 00
1506532862.670031,can0 08FF0303 [8] 00 00 00 00 00 00 00 00
1506532862.692247,can0 08FF0001 [8] 00 00 00 00 00 00 00 00
1506532862.693153,can0 0CF00203 [8] 00 00 00 00 00 00 00 00
1506532862.693758,can0 08FF0303 [8] 00 00 00 00 00 00 00 00
1506532862.714554,can0 18F00503 [8] 00 00 00 00 00 00 00 00
1506532862.715334,can0 08FF0001 [8] 00 00 00 00 00 00 00 00
1506532862.737379,can0 0CF00203 [8] 00 00 00 00 00 00 00 00
1506532862.738221,can0 08FF0303 [8] 00 00 00 00 00 00 00 00
1506532862.756099,can0 08FF0001 [8] 00 00 00 00 00 00 00 00
1506532862.757222,can0 0CF00203 [8] 00 00 00 00 00 00 00 00
1506532862.757853,can0 08FF0303 [8] 00 00 00 00 00 00 00 00
1506532862.758392,can0 08FF0001 [8] 00 00 00 00 00 00 00 00
1506532862.783023,can0 0CF00203 [8] 00 00 00 00 00 00 00 00
1506532862.783698,can0 08FF0303 [8] 00 00 00 00 00 00 00 00
1506532862.810579,can0 08FF0001 [8] 00 00 00 00 00 00 00 00
1506532862.821149,can0 0CF00203 [8] 00 00 00 00 00 00 00 00
1506532862.822078,can0 08FF0303 [8] 00 00 00 00 00 00 00 00
1506532862.822684,can0 08FF0001 [8] 00 00 00 00 00 00 00 00
1506532862.843707,can0 0CF00203 [8] 00 00 00 00 00 00 00 00
1506532862.86373,can0 08FF0303 [8] 00 00 00 00 00 00 00 00
1506532862.864686,can0 08FF0001 [8] 00 00 00 00 00 00 00 00
1506532862.865308,can0 0CF00203 [8] 00 00 00 00 00 00 00 00
1506532862.865815,can0 08FF0303 [8] 00 00 00 00 00 00 00 00
1506532862.88101,can0 08FF0001 [8] 00 00 00 00 00 00 00 00
1506532862.898734,can0 0CF00203 [8] 00 00 00 00 00 00 00 00
1506532862.899772,can0 08FF0303 [8] 00 00 00 00 00 00 00 00
1506532862.900383,can0 08FF0001 [8] 00 00 00 00 00 00 00 00
1506532862.900912,can0 0CF00203 [8] 00 00 00 00 00 00 00 00
1506532862.909075,can0 08FF0303 [8] 00 00 00 00 00 00 00 00
1506532862.909882,can0 08FF0001 [8] 00 00 00 00 00 00 00 00
1506532862.910465,can0 0CF00203 [8] 00 00 00 00 00 00 00 00
1506532862.927715,can0 08FF0303 [8] 00 00 00 00 00 00 00 00
1506532862.935851,can0 08FF0001 [8] 00 00 00 00 00 00 00 00
1506532862.936749,can0 0CF00203 [8] 00 00 00 00 00 00 00 00
1506532862.937426,can0 08FF0303 [8] 00 00 00 00 00 00 00 00
1506532862.937899,can0 18F00503 [8] 00 00 00 00 00 00 00 00
1506532862.954798,can0 08FF0001 [8] 00 00 00 00 00 00 00 00
1506532862.9556,can0 0CF00203 [8] 00 00 00 00 00 00 00 00
1506532862.967238,can0 08FF0303 [8] 00 00 00 00 00 00 00 00
1506532862.980801,can0 08FF0001 [8] 00 00 00 00 00 00 00 00
1506532862.984629,can0 0CF00203 [8] 00 00 00 00 00 00 00 00
1506532862.999928,can0 08FF0303 [8] 00 00 00 00 00 00 00 00
1506532863.00448,can0 08FF0001 [8] 00 00 00 00 00 00 00 00
1506532863.005477,can0 0CF00203 [8] 00 00 00 00 00 00 00 00
1506532863.067388,can0 08FF0303 [8] 00 00 00 00 00 00 00 00
1506532863.068296,can0 08FF0001 [8] 00 00 00 00 00 00 00 00
1506532863.068943,can0 0CF00203 [8] 00 00 00 00 00 00 00 00
1506532863.088024,can0 08FF0303 [8] 00 00 00 00 00 00 00 00
1506532863.099675,can0 08FF0001 [8] 00 00 00 00 00 00 00 00
1506532863.100706,can0 0CF00203 [8] 00 00 00 00 00 00 00 00
1506532863.101342,can0 08FF0303 [8] 00 00 00 00 00 00 00 00
1506532863.101886,can0 08FF0001 [8] 00 00 00 00 00 00 00 00
1506532863.121397,can0 0CF00203 [8] 00 00 00 00 00 00 00 00
1506532863.12462,can0 08FF0303 [8] 00 00 00 00 00 00 00 00
1506532863.126651,can0 08FF0001 [8] 00 00 00 00 00 00 00 00
1506532863.137697,can0 0CF00203 [8] 00 00 00 00 00 00 00 00
1506532863.13838,can0 08FF0303 [8] 00 00 00 00 00 00 00 00
1506532863.139694,can0 08FF0001 [8] 00 00 00 00 00 00 00 00
1506532863.140512,can0 0CF00203 [8] 00 00 00 00 00 00 00 00
1506532863.140992,can0 08FF0303 [8] 00 00 00 00 00 00 00 00
1506532863.141504,can0 08FF0001 [8] 00 00 00 00 00 00 00 00
1506532863.141954,can0 0CF00203 [8] 00 00 00 00 00 00 00 00
1506532863.142373,can0 08FF0303 [8] 00 00 00 00 00 00 00 00
1506532863.142772,can0 08FF0001 [8] 00 00 00 00 00 00 00 00
1506532863.143168,can0 0CF00203 [8] 00 00 00 00 00 00 00 00
1506532863.153406,can0 08FF0303 [8] 00 00 00 00 00 00 00 00
1506532863.154036,can0 18F00503 [8] 00 00 00 00 00 00 00 00
1506532863.154503,can0 08FF0001 [8] 00 00 00 00 00 00 00 00
1506532863.154934,can0 0CF00203 [8] 00 00 00 00 00 00 00 00
1506532863.155483,can0 08FF0303 [8] 00 00 00 00 00 00 00 00
1506532863.155921,can0 08FF0001 [8] 00 00 00 00 00 00 00 00
1506532863.156324,can0 0CF00203 [8] 00 00 00 00 00 00 00 00
1506532863.15672,can0 08FF0303 [8] 00 00 00 00 00 00 00 00
1506532863.167155,can0 08FF0001 [8] 00 00 00 00 00 00 00 00
1506532863.167777,can0 0CF00203 [8] 00 00 00 00 00 00 00 00
1506532862.388657,can1 18FEBF0B [8] 51 D9 67 65 09 FA B5 46
1506532862.407801,can1 18FEBF0B [8] A2 7E 10 11 44 F0 5D 3D
1506532862.410602,can1 0CFE6E0B [8] 00 00 00 00 00 00 00 00
1506532862.411378,can1 18F00131 [8] 00 00 00 00 00 00 00 00
1506532862.411925,can1 18F0010B [8] 00 00 00 00 00 00 00 00
1506532862.412371,can1 18FEBF0B [8] B9 35 AB 1D 64 3D 56 0B
1506532862.438216,can1 18FEF117 [8] 00 00 00 00 00 00 00 00
1506532862.439204,can1 18FEBF0B [8] 0C 12 7A 08 8E D8 70 3E
1506532862.439832,can1 18FEF121 [8] 00 00 00 00 00 00 00 00
1506532862.446114,can1 18FEBF0B [8] 4E 14 9A 63 1B 59 44 7E
1506532862.446873,can1 18FEF128 [8] 00 00 00 00 00 00 00 00
1506532862.447434,can1 18FEBF0B [8] 23 50 2F 4E 36 74 7E 31
1506532862.462807,can1 18E00017 [8] 00 00 00 00 00 00 00 00
1506532862.465425,can1 18FEBF0B [8] 98 9D 2A 08 77 AC 66 7B
1506532862.466138,can1 18E00019 [8] 00 00 00 00 00 00 00 00
1506532862.466745,can1 18FEBF0B [8] FD 82 18 40 B5 BC 3A 39
1506532862.467187,can1 18E00021 [8] 00 00 00 00 00 00 00 00
1506532862.485351,can1 18FEBF0B [8] 51 11 01 19 D9 3B 21 6E
1506532862.486093,can1 18E00028 [8] 00 00 00 00 00 00 00 00
1506532862.486653,can1 18FEBF0B [8] E1 BE 5B 4D 4A 18 F9 23
1506532862.507357,can1 18E00031 [8] 00 00 00 00 00 00 00 00
1506532862.508143,can1 18FEBF0B [8] 89 49 04 33 58 C5 BD 12
1506532862.512935,can1 18FEBF0B [8] 46 AB 01 5B 70 D0 FB 0B
1506532862.523428,can1 18FEBF0B [8] DB 2A 4C 53 CF 5A 3E 6B
1506532862.524349,can1 18FEBF0B [8] DC 03 4F 07 14 75 BA 05
1506532862.524947,can1 18FEBF0B [8] 79 D9 40 1D B9 03 7E 53
1506532862.525478,can1 18FEBF0B [8] B2 47 B5 66 B2 F5 40 0F
1506532862.525964,can1 18FEBF0B [8] 9B 4E C5 1E 08 5D EC 60
1506532862.54247,can1 18FEBF0B [8] 1E 23 D0 52 E1 4B 9B 27
1506532862.543115,can1 18FEBF0B [8] 7A 8E 34 68 91 87 66 10
1506532862.572516,can1 18FEF017 [8] 00 00 00 00 00 00 00 00
1506532862.585696,can1 18FEBF0B [8] 09 48 5C 78 A5 55 ED 5A
1506532862.586561,can1 18FEBF0B [8] AA B9 E1 26 B2 91 2E 5B
1506532862.597156,can1 18FEBF0B [8] CA 54 C5 62 06 8C 39 0A
1506532862.597783,can1 18FEBF0B [8] D8 38 E7 04 16 F9 E5 13
1506532862.623764,can1 18FEBF0B [8] 2D D2 5E 12 9E 7A 91 48
1506532862.624765,can1 18FEBF0B [8] 0B CB A0 68 32 BF 85 3A
1506532862.625386,can1 18FEBF0B [8] 84 4D EB 78 F8 42 F9 53
1506532862.650856,can1 18FEBF0B [8] 4A 89 8B 03 2D D4 50 0E
1506532862.651753,can1 18FEBF0B [8] DE 59 9F 61 3F 1B 8B 00
1506532862.652329,can1 18FEBF0B [8] CE FD BA 2E BB 5D EE 68
1506532862.652846,can1 18FEF021 [8] 00 00 00 00 00 00 00 00
1506532862.684244,can1 18FEF131 [8] 00 00 00 00 00 00 00 00
1506532862.685177,can1 18FEF028 [8] 00 00 00 00 00 00 00 00
1506532862.685752,can1 18FEF031 [8] 00 00 00 00 00 00 00 00
1506532862.708246,can1 0CFE6E0B [8] 00 00 00 00 00 00 00 00
1506532862.709298,can1 18FEBF0B [8] 52 99 BE 2A 11 D7 B0 18
1506532862.719675,can1 18FEBF0B [8] 27 08 AF 26 BF 55 75 07
1506532862.720582,can1 18FEBF0B [8] FA 79 CC 2C 7D F0 93 5B
1506532862.721152,can1 18FEBF0B [8] D0 72 37 72 EC 05 F7 5F
1506532862.749287,can1 18FEBF0B [8] BF 15 EE 57 DB 31 2F 01
1506532862.75015,can1 18FEBF0B [8] 2C 28 27 7E FA 99 69 55
1506532862.771388,can1 18FEBF0B [8] 0C C0 C8 4A C8 C6 36 6E
1506532862.77493,can1 18FEBF0B [8] BA AF 75 55 2A EA C8 37
1506532862.775701,can1 18FEBF0B [8] D1 91 2A 21 6E 65 D2 08
1506532862.794119,can1 18FEBF0B [8] 1E 76 1F 58 75 BF 9C 71
1506532862.794896,can1 18FEBF0B [8] 82 73 E3 75 E2 67 3F 1A
1506532862.795465,can1 18FEBF0B [8] 54 03 26 5A 10 F1 DB 05
1506532862.8165,can1 18FEBF0B [8] E3 98 4B 44 EB 3E FA 4D
1506532862.836988,can1 18FEBF0B [8] 15 FC FD 10 D1 24 77 29
1506532862.83792,can1 18FEBF0B [8] B9 DE 73 41 CD 1B D3 16
1506532862.855723,can1 18FEBF0B [8] BE 2F 58 58 0B 78 32 6C
1506532862.856813,can1 18FEBF0B [8] F0 72 37 0D C7 55 28 3D
1506532862.857446,can1 18FEBF0B [8] 15 9A 85 07 0B A5 C4 6F
1506532862.857987,can1 18FEBF0B [8] 92 B6 BF 41 07 64 4A 01
1506532862.877397,can1 18FEBF0B [8] 10 8E 2D 0B 92 A5 4D 6A
1506532862.886709,can1 18FEBF0B [8] A3 CD 76 67 10 17 54 4F
1506532862.887493,can1 18FEBF0B [8] 41 E4 EE 3B 10 0D F8 29
1506532862.888144,can1 18FEBF0B [8] A3 24 A4 73 A2 48 A7 08
1506532862.888707,can1 18FEBF0B [8] 07 02 C2 77 63 C4 A1 1B
1506532862.889247,can1 0CFE6E0B [8] 00 00 00 00 00 00 00 00
1506532862.918899,can1 18FEBF0B [8] 7B 87 7C 67 32 4E DE 55
1506532862.919633,can1 18FEBF0B [8] ED 12 EB 4A 24 2D B7 14
1506532862.920247,can1 18FEBF0B [8] 6C 9B DF 5F A9 EB 12 06
1506532862.931827,can1 18FEBF0B [8] 3E B7 DD 6D C9 29 B9 57
1506532862.944778,can1 18FEBF0B [8] 7C 55 5E 1E 35 B6 08 7E
1506532862.945623,can1 18FEBF0B [8] EE 86 91 7A 24 61 81 29
1506532862.951249,can1 18FEBF0B [8] 84 BA B1 2B 5C A3 C5 56
1506532862.960143,can1 18FEBF0B [8] A7 FA E0 46 74 2D E9 38
1506532862.960934,can1 18FEBF0B [8] E0 CD 48 4E C2 5F 28 30
1506532862.961518,can1 18FEBF0B [8] 61 68 A8 32 72 01 EC 32
1506532862.971606,can1 18FEBF0B [8] 4F 32 25 72 6D BF A0 71
1506532862.972237,can1 18FEBF0B [8] 31 CD 2A 15 30 43 FE 16
1506532862.972772,can1 18FEBF0B [8] DF 91 9D 26 F9 BE AF 33
1506532862.973285,can1 18FEBF0B [8] E4 AF C7 0A 66 4D 7E 13
1506532862.988625,can1 18FEBF0B [8] 2B 10 0E 7D E6 55 B9 2F
1506532862.98939,can1 18FEBF0B [8] 8D 6A BA 15 38 74 D1 15
1506532862.990065,can1 18FEBF0B [8] 92 E7 E2 55 AE 1C 7D 66
1506532862.990593,can1 18FEBF0B [8] 30 8D C6 25 6F 9E E9 7A
1506532863.028865,can1 18FEBF0B [8] 44 AC 6F 24 19 29 EF 63
1506532863.029872,can1 18FEBF0B [8] BC B9 B4 5A 8C 11 36 6E
1506532863.034882,can1 18FEBF0B [8] DE 9C B6 39 40 3B 15 5B
1506532863.035511,can1 18FEBF0B [8] EA 61 0E 31 F4 76 C2 69
1506532863.041159,can1 18FEBF0B [8] 7C F4 DF 22 A8 1C E8 2A
1506532863.042065,can1 18FEBF0B [8] A5 DA AD 41 5C C2 28 71
1506532863.042649,can1 18FEBF0B [8] 92 B6 08 7C 55 71 D5 7E
1506532863.043162,can1 18FEBF0B [8] CB FF 1D 50 99 F0 CB 2D
1506532863.074104,can1 18FEBF0B [8] C3 E7 D3 5A 0F D7 34 2C
1506532863.075185,can1 18FEBF0B [8] 76 06 46 6D E7 0A 8F 72
1506532863.075797,can1 18FEBF0B [8] 47 BD 6E 62 4A 4A 9A 4C
1506532863.076334,can1 18FEBF0B [8] 25 FB 03 5A 9B 17 05 68
1506532863.108117,can1 18FEBF0B [8] D6 0E 3C 10 DD 5F 50 0F
1506532863.111593,can1 18FEBF0B [8] 5F F5 A9 7F F4 4D D1 61
1506532863.120527,can1 18FEBF0B [8] 04 57 A5 47 A5 2D 63 1D
1506532863.123078,can1 18FEBF0B [8] 19 A2 3E 3B 58 B0 6D 1C
1506532863.126045,can1 18FEBF0B [8] E8 3C F2 50 DB 87 CA 3D
1506532863.129072,can1 18FEBF0B [8] 68 6A 23 6B 70 36 FF 3A
1506532863.130557,can1 0CFE6E0B [8] 00 00 00 00 00 00 00 00
1506532863.131039,can1 18FEBF0B [8] 7B DE D1 68 CC F7 DB 40
1506532863.131462,can1 18FEBF0B [8] 37 CE 2D 13 0F A0 9D 2A
1506532863.131991,can1 18FEBF0B [8] 36 F1 F6 23 25 9D 98 45
1506532863.132411,can1 18FEBF0B [8] BB FD 0E 76 C8 A7 FF 1F
1506532863.132814,can1 18FEBF0B [8] F0 96 FE 6A D3 EE 49 05
1506532863.133207,can1 18FEBF0B [8] 8E 0B 18 49 70 6B B2 0F
1506532863.143529,can1 18FEBF0B [8] 3A 86 88 13 9E C9 E6 22
1506532863.144103,can1 18FEBF0B [8] 07 1D 5A 0F 54 FD C2 7F
1506532863.14455,can1 18FEBF0B [8] 5C AD 9E 6E D4 D4 0D 2E
1506532863.144966,can1 18FEBF0B [8] 68 BF 04 45 66 0A 62 60
1506532863.145472,can1 18FEBF0B [8] 74 B5 20 44 73 57 A3 29
1506532863.145909,can1 18FEBF0B [8] 41 79 8F 7E 7A 73 55 1E
1506532863.146315,can1 18FEBF0B [8] EE 92 D5 58 B0 EE 2E 4A
1506532863.146703,can1 18FEBF0B [8] 55 ED 7B 0E DC 0E 41 70
1506532863.14709,can1 18FEBF0B [8] 14 7C D8 40 69 5E 4D 6B
1506532863.157558,can1 18FEBF0B [8] A5 78 E5 0D 8C 8F 9D 6F
1506532863.158039,can1 18FEBF0B [8] B8 62 80 36 33 E1 AD 0D
1506532863.15846,can1 18FEBF0B [8] 8C 94 F4 7C C0 59 9A 3C
1506532863.160496,can1 18FEBF0B [8] 24 AB 53 46 47 6A AD 2F
1506532863.16108,can1 18FEBF0B [8] AF 73 4A 12 14 42 52 31
1506532863.161539,can1 18FEBF0B [8] 15 B0 AE 2F 45 E2 43 3F
1506532863.161958,can1 18FEBF0B [8] 4C 83 EC 1A 1E AF 04 2E
1506532863.162357,can1 18FEBF0B [8] BE B5 CD 5C 44 7A A5 15
1506532863.162741,can1 18FEBF0B [8] 60 EF AF 2D 01 70 05 6E
1506532863.170703,can1 18FEBF0B [8] 6F F0 4E 4D 88 7A EC 71
1506532863.171238,can1 18FEBF0B [8] 28 9C D4 66 9A E4 79 06
1506532863.171678,can1 18FEBF0B [8] 17 85 C3 15 BC E6 F5 4D
1506532863.169417,can0 08FF0303 [8] 00 00 00 00 00 00 00 00
1506532863.17303,can0 08FF0001 [8] 00 00 00 00 00 00 00 00
1506532863.173608,can0 0CF00203 [8] 00 00 00 00 00 00 00 00
1506532863.174071,can0 08FF0303 [8] 00 00 00 00 00 00 00 00
1506532863.174571,can0 08FF0001 [8] 00 00 00 00 00 00 00 00
1506532863.175034,can0 0CF00203 [8] 00 00 00 00 00 00 00 00
1506532863.175451,can0 08FF0303 [8] 00 00 00 00 00 00 00 00
1506532863.175853,can0 08FF0001 [8] 00 00 00 00 00 00 00 00
1506532863.176253,can0 0CF00203 [8] 00 00 00 00 00 00 00 00
1506532863.186651,can0 08FF0303 [8] 00 00 00 00 00 00 00 00
1506532863.187203,can0 08FF0001 [8] 00 00 00 00 00 00 00 00
1506532863.18765,can0 0CF00203 [8] 00 00 00 00 00 00 00 00
1506532863.188065,can0 08FF0303 [8] 00 00 00 00 00 00 00 00
1506532863.189693,can0 08FF0001 [8] 00 00 00 00 00 00 00 00
1506532863.190674,can0 0CF00203 [8] 00 00 00 00 00 00 00 00
1506532863.191191,can0 08FF0303 [8] 00 00 00 00 00 00 00 00
1506532863.191636,can0 08FF0001 [8] 00 00 00 00 00 00 00 00
1506532863.192129,can0 0CF00203 [8] 00 00 00 00 00 00 00 00
1506532863.192595,can0 08FF0303 [8] 00 00 00 00 00 00 00 00
1506532863.193016,can0 08FF0001 [8] 00 00 00 00 00 00 00 00
1506532863.193417,can0 0CF00203 [8] 00 00 00 00 00 00 00 00
1506532863.193809,can0 08FF0303 [8] 00 00 00 00 00 00 00 00
1506532863.198263,can0 18F00503 [8] 00 00 00 00 00 00 00 00
1506532863.199649,can0 08FF0001 [8] 00 00 00 00 00 00 00 00
1506532863.204393,can0 0CF00203 [8] 00 00 00 00 00 00 00 00
1506532863.205301,can0 08FF0303 [8] 00 00 00 00 00 00 00 00
1506532863.205862,can0 08FF0001 [8] 00 00 00 00 00 00 00 00
1506532863.20633,can0 0CF00203 [8] 00 00 00 00 00 00 00 00
1506532863.20675,can0 08FF0303 [8] 00 00 00 00 00 00 00 00
1506532863.207159,can0 08FF0001 [8] 00 00 00 00 00 00 00 00
1506532863.207556,can0 0CF00203 [8] 00 00 00 00 00 00 00 00
1506532863.208043,can0 08FF0303 [8] 00 00 00 00 00 00 00 00
1506532863.208459,can0 08FF0001 [8] 00 00 00 00 00 00 00 00
1506532863.214127,can0 0CF00203 [8] 00 00 00 00 00 00 00 00
1506532863.215833,can0 08FF0303 [8] 00 00 00 00 00 00 00 00
1506532863.216509,can0 08FF0001 [8] 00 00 00 00 00 00 00 00
1506532863.216998,can0 0CF00203 [8] 00 00 00 00 00 00 00 00
1506532863.217442,can0 08FF0303 [8] 00 00 00 00 00 00 00 00
1506532863.217998,can0 08FF0001 [8] 00 00 00 00 00 00 00 00
1506532863.218431,can0 0CF00203 [8] 00 00 00 00 00 00 00 00
1506532863.221946,can0 08FF0303 [8] 00 00 00 00 00 00 00 00
1506532863.224244,can0 08FF0001 [8] 00 00 00 00 00 00 00 00
1506532863.226582,can0 0CF00203 [8] 00 00 00 00 00 00 00 00
1506532863.228045,can0 08FF0303 [8] 00 00 00 00 00 00 00 00
1506532863.233226,can0 08FF0001 [8] 00 00 00 00 00 00 00 00
1506532863.233788,can0 0CF00203 [8] 00 00 00 00 00 00 00 00
1506532863.234242,can0 08FF0303 [8] 00 00 00 00 00 00 00 00
1506532863.234686,can0 08FF0001 [8] 00 00 00 00 00 00 00 00
1506532863.23517,can0 0CF00203 [8] 00 00 00 00 00 00 00 00
1506532863.235629,can0 08FF0303 [8] 00 00 00 00 00 00 00 00
1506532863.236051,can0 08FF0001 [8] 00 00 00 00 00 00 00 00
1506532863.236452,can0 0CF00203 [8] 00 00 00 00 00 00 00 00
1506532863.236849,can0 08FF0303 [8] 00 00 00 00 00 00 00 00
1506532863.239642,can0 18F00503 [8] 00 00 00 00 00 00 00 00
1506532863.245416,can0 08FF0001 [8] 00 00 00 00 00 00 00 00
1506532863.245899,can0 0CF00203 [8] 00 00 00 00 00 00 00 00
1506532863.246329,can0 08FF0303 [8] 00 00 00 00 00 00 00 00
1506532863.246739,can0 08FF0001 [8] 00 00 00 00 00 00 00 00
1506532863.24726,can0 0CF00203 [8] 00 00 00 00 00 00 00 00
1506532863.247694,can0 08FF0303 [8] 00 00 00 00 00 00 00 00
1506532863.248101,can0 08FF0001 [8] 00 00 00 00 00 00 00 00
1506532863.248505,can0 0CF00203 [8] 00 00 00 00 00 00 00 00
1506532863.249663,can0 08FF0303 [8] 00 00 00 00 00 00 00 00
1506532863.250429,can0 08FF0001 [8] 00 00 00 00 00 00 00 00
1506532863.250973,can0 0CF00203 [8] 00 00 00 00 00 00 00 00
1506532863.251427,can0 08FF0303 [8] 00 00 00 00 00 00 00 00
1506532863.251852,can0 08FF0001 [8] 00 00 00 00 00 00 00 00
1506532863.252263,can0 0CF00203 [8] 00 00 00 00 00 00 00 00
1506532863.252723,can0 08FF0303 [8] 00 00 00 00 00 00 00 00
1506532863.253159,can0 08FF0001 [8] 00 00 00 00 00 00 00 00
1506532863.253577,can0 0CF00203 [8] 00 00 00 00 00 00 00 00
1506532863.25398,can0 08FF0303 [8] 00 00 00 00 00 00 00 00
1506532863.25437,can0 08FF0001 [8] 00 00 00 00 00 00 00 00
1506532863.260299,can0 0CF00203 [8] 00 00 00 00 00 00 00 00
1506532863.260947,can0 08FF0303 [8] 00 00 00 00 00 00 00 00
1506532863.261407,can0 08FF0001 [8] 00 00 00 00 00 00 00 00
1506532863.261835,can0 0CF00203 [8] 00 00 00 00 00 00 00 00
1506532863.26225,can0 08FF0303 [8] 00 00 00 00 00 00 00 00
1506532863.262754,can0 08FF0001 [8] 00 00 00 00 00 00 00 00
1506532863.263185,can0 0CF00203 [8] 00 00 00 00 00 00 00 00
1506532863.263591,can0 08FF0303 [8] 00 00 00 00 00 00 00 00
1506532863.263986,can0 08FF0001 [8] 00 00 00 00 00 00 00 00
1506532863.268934,can0 0CF00203 [8] 00 00 00 00 00 00 00 00
1506532863.270474,can0 08FF0303 [8] 00 00 00 00 00 00 00 00
1506532863.271008,can0 18F00503 [8] 00 00 00 00 00 00 00 00
1506532863.271459,can0 08FF0001 [8] 00 00 00 00 00 00 00 00
1506532863.27187,can0 0CF00203 [8] 00 00 00 00 00 00 00 00
1506532863.272366,can0 08FF0303 [8] 00 00 00 00 00 00 00 00
1506532863.272809,can0 08FF0001 [8] 00 00 00 00 00 00 00 00
1506532863.273235,can0 0CF00203 [8] 00 00 00 00 00 00 00 00
1506532863.273638,can0 08FF0303 [8] 00 00 00 00 00 00 00 00
1506532863.274028,can0 08FF0001 [8] 00 00 00 00 00 00 00 00
1506532863.279691,can0 0CF00203 [8] 00 00 00 00 00 00 00 00
1506532863.284516,can0 08FF0303 [8] 00 00 00 00 00 00 00 00
1506532863.284978,can0 08FF0001 [8] 00 00 00 00 00 00 00 00
1506532863.285405,can0 0CF00203 [8] 00 00 00 00 00 00 00 00
1506532863.285808,can0 08FF0303 [8] 00 00 00 00 00 00 00 00
1506532863.286317,can0 08FF0001 [8] 00 00 00 00 00 00 00 00
1506532863.286733,can0 0CF00203 [8] 00 00 00 00 00 00 00 00
1506532863.287155,can0 08FF0303 [8] 00 00 00 00 00 00 00 00
1506532863.287555,can0 08FF0001 [8] 00 00 00 00 00 00 00 00
1506532863.28937,can0 0CF00203 [8] 00 00 00 00 00 00 00 00
1506532863.293976,can0 08FF0303 [8] 00 00 00 00 00 00 00 00
1506532863.294507,can0 08FF0001 [8] 00 00 00 00 00 00 00 00
1506532863.294945,can0 0CF00203 [8] 00 00 00 00 00 00 00 00
1506532863.295372,can0 08FF0303 [8] 00 00 00 00 00 00 00 00
1506532863.295863,can0 08FF0001 [8] 00 00 00 00 00 00 00 00
1506532863.296321,can0 0CF00203 [8] 00 00 00 00 00 00 00 00
1506532863.296731,can0 08FF0303 [8] 00 00 00 00 00 00 00 00
1506532863.297134,can0 08FF0001 [8] 00 00 00 00 00 00 00 00
1506532863.297579,can0 0CF00203 [8] 00 00 00 00 00 00 00 00
1506532863.303617,can0 08FF0303 [8] 00 00 00 00 00 00 00 00
1506532863.304169,can0 08FF0001 [8] 00 00 00 00 00 00 00 00
1506532863.304939,can0 0CF00203 [8] 00 00 00 00 00 00 00 00
1506532863.305552,can0 08FF0303 [8] 00 00 00 00 00 00 00 00
1506532863.306033,can0 18F00503 [8] 00 00 00 00 00 00 00 00
1506532863.306462,can0 08FF0001 [8] 00 00 00 00 00 00 00 00
1506532863.306876,can0 0CF00203 [8] 00 00 00 00 00 00 00 00
1506532863.307273,can0 08FF0303 [8] 00 00 00 00 00 00 00 00
1506532863.307763,can0 08FF0001 [8] 00 00 00 00 00 00 00 00
1506532863.308171,can0 0CF00203 [8] 00 00 00 00 00 00 00 00
1506532863.313325,can0 08FF0303 [8] 00 00 00 00 00 00 00 00
1506532863.313893,can0 08FF0001 [8] 00 00 00 00 00 00 00 00
1506532863.314361,can0 0CF00203 [8] 00 00 00 00 00 00 00 00
1506532863.316083,can0 08FF0303 [8] 00 00 00 00 00 00 00 00
1506532863.316731,can0 08FF0001 [8] 00 00 00 00 00 00 00 00
1506532863.317299,can0 0CF00203 [8] 00 00 00 00 00 00 00 00
1506532863.317778,can0 08FF0303 [8] 00 00 00 00 00 00 00 00
1506532863.318205,can0 08FF0001 [8] 00 00 00 00 00 00 00 00
1506532863.322397,can0 0CF00203 [8] 00 00 00 00 00 00 00 00
1506532863.32468,can0 08FF0303 [8] 00 00 00 00 00 00 00 00
1506532863.327048,can0 08FF0001 [8] 00 00 00 00 00 00 00 00
1506532863.329476,can0 0CF00203 [8] 00 00 00 00 00 00 00 00
1506532863.330315,can0 08FF0303 [8] 00 00 00 00 00 00 00 00
1506532863.330888,can0 08FF0001 [8] 00 00 00 00 00 00 00 00
1506532863.17895,can1 18FEBF0B [8] AD 57 DB 0A C1 0D 9E 5D
1506532863.182687,can1 18FEBF0B [8] 79 F3 FD 77 EB DD A9 73
1506532863.18336,can1 18FEBF0B [8] 47 24 46 71 D2 D0 0D 7C
1506532863.183846,can1 18FEBF0B [8] CA A6 E4 32 EC D2 C2 14
1506532863.184356,can1 18FEBF0B [8] E5 6F EF 51 AE 5F 38 4C
1506532863.184821,can1 18FEBF0B [8] E8 3A 27 17 67 C0 D2 1D
1506532863.185244,can1 0CFE6E0B [8] 00 00 00 00 00 00 00 00
1506532863.185652,can1 18FEBF0B [8] 65 80 23 62 82 59 BF 35
1506532863.186046,can1 18FEBF0B [8] 11 EB 0C 0F 88 DF B1 53
1506532863.194481,can1 18FEBF0B [8] 8E 46 C6 6E 26 9B BB 3E
1506532863.195014,can1 18FEBF0B [8] AA DC AB 0A AF 98 86 25
1506532863.195454,can1 18FEBF0B [8] 9F FA 8F 39 71 6C 93 4D
1506532863.195862,can1 18F0010B [8] CF FF F0 FF FF DC FF FF
1506532863.196377,can1 18FEBF0B [8] 4E 85 C2 71 C0 47 C8 01
1506532863.196809,can1 18FEBF0B [8] DC 8E 6E 6A D4 35 AB 26
1506532863.197212,can1 18FEBF0B [8] 99 FE A6 0E EC A3 97 3A
1506532863.197603,can1 18FEBF0B [8] 31 67 DA 2B 98 6B 26 4E
1506532863.199102,can1 18FEBF0B [8] AA 24 9E 1D 75 79 B5 0A
1506532863.200638,can1 18FEBF0B [8] 15 45 8F 1F 7B CF 78 35
1506532863.201112,can1 18FEBF0B [8] 34 BB DA 3E A2 7B 32 12
1506532863.20154,can1 18FEBF0B [8] DF 8C 00 3D 33 79 3D 3B
1506532863.202032,can1 18FEBF0B [8] C1 5E 44 77 13 E6 99 55
1506532863.202473,can1 18FEBF0B [8] 35 FE 23 65 3C F0 64 7E
1506532863.202883,can1 18FEBF0B [8] 11 A9 CC 69 F8 98 23 01
1506532863.20327,can1 18FEBF0B [8] 88 DC 14 22 07 9E 21 5B
1506532863.203656,can1 18FEBF0B [8] B1 B9 0F 75 A2 29 FD 2E
1506532863.209489,can1 18FEBF0B [8] 30 55 BE 55 5B 96 BB 7F
1506532863.210371,can1 18FEBF0B [8] B0 2F 0C 54 E0 AD 9C 01
1506532863.210841,can1 18FEBF0B [8] 70 00 24 45 B5 A6 7C 43
1506532863.211269,can1 18FEBF0B [8] 17 DF 63 3D 10 CE 58 52
1506532863.211751,can1 18FEBF0B [8] 8C 93 91 35 55 72 8F 0B
1506532863.212192,can1 18FEF121 [8] 00 00 00 00 00 00 00 00
1506532863.212603,can1 18FEBF0B [8] 6B 82 51 79 0D E1 F5 78
1506532863.213001,can1 18E00031 [8] 00 00 00 00 00 00 00 00
1506532863.213392,can1 18FEBF0B [8] B5 9B 56 64 33 FA EA 37
1506532863.220094,can1 18FEBF0B [8] 80 4C 0B 02 42 02 81 36
1506532863.222466,can1 18FEBF0B [8] A7 C0 6D 12 97 8A 05 13
1506532863.224811,can1 18FEBF0B [8] 9C 78 51 2A 61 1D BD 5D
1506532863.227056,can1 18FEBF0B [8] 97 DB 81 6A F1 40 69 72
1506532863.229547,can1 18FEBF0B [8] 3E 00 87 37 0C 81 59 40
1506532863.230357,can1 18FEBF0B [8] 8A A7 C6 1F 53 21 AE 3D
1506532863.230833,can1 18FEBF0B [8] 00 00 7D 7D FE FE FF FF
1506532863.231335,can1 18FEBF0B [8] AF C2 F8 42 1B 5E D5 0F
1506532863.231788,can1 18FEBF0B [8] E0 1E D4 05 E4 71 03 1B
1506532863.232204,can1 18FEBF0B [8] F1 C7 E8 4D 6A 29 D9 4B
1506532863.232606,can1 18E00019 [8] 00 00 00 00 00 00 00 00
1506532863.233002,can1 18FEBF0B [8] 8F 78 9D 61 74 9D AF 72
1506532863.237532,can1 18FEBF0B [8] 64 5D 2B 16 04 02 8C 5C
1506532863.237999,can1 18FEBF0B [8] 5A 48 72 33 EF 08 F4 12
1506532863.238418,can1 18FEF031 [8] 00 00 00 00 00 00 00 00
1506532863.240421,can1 0CFE6E0B [8] 00 00 00 00 00 00 00 00
1506532863.241007,can1 18FEBF0B [8] 7F 2D D2 3A 18 10 81 2E
1506532863.241482,can1 18FEBF0B [8] 39 AB 12 63 E8 58 0E 5F
1506532863.241913,can1 18FEBF0B [8] 4E AF 17 43 8B D9 3F 41
1506532863.242314,can1 18FEBF0B [8] D2 B4 61 58 44 03 11 58
1506532863.242709,can1 18FEBF0B [8] 75 B5 AE 0C E5 1B B5 2F
1506532863.24319,can1 18FEBF0B [8] 99 01 93 55 1D 37 5C 4C
1506532863.243613,can1 18FEBF0B [8] 81 97 F5 7D 2E 7C B4 68
1506532863.244014,can1 18FEBF0B [8] 4D 0C 62 5E 7A 8E 70 2D
1506532863.244441,can1 18FEBF0B [8] 67 77 26 68 0F 42 A0 17
1506532863.254739,can1 18FEBF0B [8] 29 A3 2D 4E 84 0B D4 57
1506532863.255303,can1 18FEBF0B [8] 93 C9 47 13 67 9A FC 6F
1506532863.255759,can1 18FEF017 [8] 00 00 00 00 00 00 00 00
1506532863.256183,can1 18FEBF0B [8] 7D 11 12 30 0E 34 C2 78
1506532863.256661,can1 18FEBF0B [8] 10 DB 4D 3D 9C C1 2E 5F
1506532863.2571,can1 18FEBF0B [8] 3B 47 FC 32 DD BD 5C 2A
1506532863.257502,can1 18FEBF0B [8] DD 50 31 3A 67 63 41 00
1506532863.257892,can1 18FEF031 [8] 00 00 00 00 00 00 00 00
1506532863.258282,can1 18FEBF0B [8] 8B 18 59 28 5D 85 C3 2E
1506532863.259406,can1 18FEBF0B [8] CE FC A6 59 D5 CF AC 0F
1506532863.26467,can1 18F0010B [8] CF FF F0 FF FF DC FF FF
1506532863.265197,can1 18FEBF0B [8] 9A B1 E0 70 13 E6 A9 3C
1506532863.26563,can1 18FEBF0B [8] 83 5C 90 1F D9 9D D8 07
1506532863.266045,can1 0CFE6E0B [8] 00 00 00 00 00 00 00 00
1506532863.266532,can1 18FEBF0B [8] 92 FF 15 6B 5E 48 10 11
1506532863.266971,can1 18FEBF0B [8] F1 31 D9 6F AE 00 F5 2F
1506532863.267377,can1 18FEBF0B [8] 08 4E EF 21 28 59 D1 3F
1506532863.267769,can1 18E00017 [8] 00 00 00 00 00 00 00 00
1506532863.268153,can1 18E00031 [8] 00 00 00 00 00 00 00 00
1506532863.269503,can1 18FEBF0B [8] 31 14 4E 36 14 BF 3A 48
1506532863.274543,can1 18FEBF0B [8] 20 09 21 64 B2 3B 87 17
1506532863.275048,can1 18FEBF0B [8] 20 A2 EC 77 5F F0 0A 7F
1506532863.275474,can1 18FEBF0B [8] 61 E6 B0 7A 73 6B 27 0F
1506532863.275887,can1 18FEBF0B [8] 92 DC 2F 2D C6 39 ED 4E
1506532863.276391,can1 18FEBF0B [8] 29 E6 F9 6B 50 44 54 4F
1506532863.276819,can1 18FEBF0B [8] BE 51 EE 68 8D 15 E0 2B
1506532863.277227,can1 18FEBF0B [8] 1A 01 4F 44 2A 48 B0 23
1506532863.277618,can1 18FEBF0B [8] A4 31 0D 58 4F 33 05 7A
1506532863.278068,can1 18FEBF0B [8] BA B0 5A 1A A1 0B 0E 55
1506532863.278504,can1 18FEBF0B [8] 9D 3F 5E 5B 2F 64 33 2D
1506532863.280603,can1 18FEBF0B [8] 0C 6C D3 26 C0 DB DB 63
1506532863.281085,can1 0CFE6E0B [8] 00 00 00 00 00 00 00 00
1506532863.281509,can1 0CFE6E0B [8] 00 00 00 00 00 00 00 00
1506532863.281982,can1 18FEBF0B [8] 38 D5 EA 02 7A 42 F4 59
1506532863.282456,can1 18FEBF0B [8] 11 A0 D2 07 69 E4 83 66
1506532863.282891,can1 18FEBF0B [8] 5E 40 16 00 44 23 F8 6F
1506532863.283285,can1 18FEBF0B [8] A8 67 5E 7D 57 C6 85 0F
1506532863.28368,can1 18FEBF0B [8] 4B 2E 84 44 2A 0C 2C 7A
1506532863.28814,can1 18FEBF0B [8] FE DB C4 68 A1 ED 90 58
1506532863.290156,can1 18FEBF0B [8] 41 07 61 6B BD CA A6 5C
1506532863.290744,can1 18FEBF0B [8] 4F 67 78 76 EF 85 6F 3A
1506532863.291209,can1 18FEBF0B [8] E9 5E 9B 19 50 32 C4 40
1506532863.291629,can1 18FEBF0B [8] 84 5F E4 42 86 85 13 26
1506532863.292169,can1 18FEBF0B [8] 86 9D 07 45 E5 03 7F 7B
1506532863.292597,can1 18FEF028 [8] 00 00 00 00 00 00 00 00
1506532863.292999,can1 18FEBF0B [8] BF 5C 55 48 0B DA 49 73
1506532863.293391,can1 18FEBF0B [8] 0F 9B 39 42 06 A2 B3 19
1506532863.297845,can1 18FEF131 [8] 00 00 00 00 00 00 00 00
1506532863.298358,can1 18FEBF0B [8] A2 00 52 79 DF 5B 7F 03
1506532863.300333,can1 18FEBF0B [8] 1A 62 D0 06 87 90 F6 1B
1506532863.300874,can1 18FEBF0B [8] F3 9F 94 7C 89 D1 C0 49
1506532863.301315,can1 18FEBF0B [8] C8 03 71 23 76 05 35 0D
1506532863.301826,can1 18FEBF0B [8] 2E 16 FB 50 D7 9B 79 29
1506532863.302266,can1 18FEBF0B [8] F9 CE B8 57 76 08 F3 3B
1506532863.302673,can1 18FEBF0B [8] 3D F1 13 41 0D 4D 0C 2D
1506532863.303066,can1 18FEBF0B [8] 7A A8 DB 1F 56 4C E9 5C
1506532863.308947,can1 18FEBF0B [8] EB 8D 55 15 F9 38 44 20
1506532863.310071,can1 18FEBF0B [8] 46 0B E8 10 A4 04 83 39
1506532863.310608,can1 0CFE6E0B [8] 00 00 00 00 00 00 00 00
1506532863.311052,can1 18FEBF0B [8] 9A 5F F0 7C 96 37 96 59
1506532863.311583,can1 18FEBF0B [8] A4 6F 33 32 62 50 DE 16
1506532863.312021,can1 18FEBF0B [8] EF FC 5C 21 C7 27 58 75
1506532863.312438,can1 18FEBF0B [8] B6 98 64 15 A3 50 C7 7D
1506532863.312829,can1 18FEBF0B [8] 09 E1 D4 6A C3 C4 1E 2A
1506532863.319458,can1 18FEBF0B [8] 12 DD E3 6C 37 6B F0 20
1506532863.320758,can1 18FEF128 [8] 00 00 00 00 00 00 00 00
1506532863.32186,can1 18E00017 [8] 00 00 00 00 00 00 00 00
1506532863.324176,can1 18FEBF0B [8] 3B 71 F8 12 12 5A 18 2B
1506532863.326449,can1 18FEBF0B [8] 8A DB 79 6A 77 10 AA 21
1506532863.327904,can1 18FEBF0B [8] 82 DE 11 62 6D DE CE 27
1506532863.328425,can1 18FEBF0B [8] 1D 58 BC 1F B8 E5 97 76
1506532863.333361,can1 18FEBF0B [8] 06 05 5C 0A 74 C4 D9 6A
1506532863.333872,can1 18FEBF0B [8] 0A F3 B3 74 6C 57 E5 10
1506532863.3343,can1 18FEBF0B [8] 66 3A B1 3A AE 2F 51 50
1506532863.334801,can1 18FEBF0B [8] B8 99 F2 0C 88 A9 26 6C
1506532863.335682,can1 18FEBF0B [8] FE 52 E1 3D 50 0D 58 29
1506532863.336212,can1 18FEBF0B [8] 09 4A F4 09 20 72 9E 13
1506532863.339321,can1 18FEBF0B [8] A7 89 C7 3C B4 62 E0 27
1506532863.340231,can1 18FEBF0B [8] 41 1B 9F 5B 27 96 DE 1C
1506532863.340844,can1 18FEBF0B [8] 83 96 5D 2C 5E E3 A2 56
1506532863.341315,can1 18FEBF0B [8] 13 0E 8B 16 16 62 DD 4B
1506532863.341735,can1 18FEBF0B [8] C5 34 80 39 0B 26 A2 08
1506532863.342144,can1 18FEBF0B [8] 44 74 E7 0D 46 40 CB 41
1506532863.342619,can1 18FEBF0B [8] A4 C1 86 40 56 B6 C0 37
1506532863.343048,can1 18FEBF0B [8] 09 4D 2D 43 8B 25 4A 2A
1506532863.343474,can1 18FEBF0B [8] E3 B4 48 46 84 97 E8 4F
1506532863.34388,can1 18FEBF0B [8] E1 62 D2 15 4C 38 AD 66
1506532863.344274,can1 18FEBF0B [8] 1A 2B 35 1B 2C BE 3C 1D
1506532863.354348,can1 18FEBF0B [8] 00 00 7D 7D FE FE FF FF
1506532863.354911,can1 18FEBF0B [8] C9 97 3C 59 81 CF 3A 62
1506532863.355366,can1 18FEBF0B [8] 1A 01 F7 72 3E 71 3E 54
1506532863.355776,can1 18FEBF0B [8] 1E D2 36 68 20 CD 3B 58
1506532863.35626,can1 18FEBF0B [8] 56 EC 5C 2C 72 A9 93 03
1506532863.356699,can1 18FEBF0B [8] BC F2 AE 7F E1 3A E4 58
1506532863.357103,can1 18FEBF0B [8] 5A FD EF 6F 16 86 C5 75
1506532863.357501,can1 18FEBF0B [8] 25 E9 79 4D D2 B2 1F 30
1506532863.357887,can1 18FEBF0B [8] 4A 37 66 0A 00 15 58 43
1506532863.358355,can1 18FEBF0B [8] 4D 02 70 64 C1 BC 2A 10
1506532863.360386,can1 18FEBF0B [8] CD A1 03 63 53 CA 3C 52
1506532863.360929,can1 18FEBF0B [8] 46 1E DD 10 E6 EF A1 5C
1506532863.361373,can1 18FEBF0B [8] B3 D4 F3 35 0F 54 66 5C
1506532863.361808,can1 0CFE6E0B [8] 00 00 00 00 00 00 00 00
1506532863.362327,can1 18FEBF0B [8] 18 33 C5 2B B7 BF C6 19
1506532863.362762,can1 18FEBF0B [8] 1D 53 02 51 2C ED 72 7A
1506532863.363167,can1 18FEBF0B [8] C4 BD 8B 6C 57 27 01 28
1506532863.363563,can1 18FEBF0B [8] BA DB 8B 66 8D C8 E4 78
1506532863.368926,can1 18FEBF0B [8] E0 44 F7 24 A1 04 9F 63
1506532863.373914,can1 18FEBF0B [8] 9F 60 5F 7B 64 D8 B5 03
1506532863.374465,can1 18FEBF0B [8] B2 23 7D 2A 46 24 07 70
1506532863.374916,can1 18FEBF0B [8] 0E 36 2F 19 AF CD D6 58
1506532863.375325,can1 18FEBF0B [8] B3 BD C8 5E 2C FA A3 0E
1506532863.375816,can1 18FEBF0B [8] 5B 08 7B 6E F8 61 21 57
1506532863.376263,can1 0CFE6E0B [8] 00 00 00 00 00 00 00 00
1506532863.376679,can1 18FEBF0B [8] 2A 38 4D 47 BE BC D5 17
1506532863.377067,can1 18FEBF0B [8] 87 87 3C 13 B1 D6 7E 64
1506532863.377454,can1 18FEBF0B [8] 69 47 2E 10 AC F9 8D 55
1506532863.379532,can1 18FEBF0B [8] 26 13 2F 2A 01 7B F3 53
1506532863.384032,can1 0CFE6E0B [8] 00 00 00 00 00 00 00 00
1506532863.384529,can1 18F00131 [8] 00 00 00 00 00 00 00 00
1506532863.384961,can1 18E00031 [8] 00 00 00 00 00 00 00 00
1506532863.385371,can1 18FEBF0B [8] FB F5 01 7A 59 9A 9D 25
1506532863.385879,can1 18FEBF0B [8] 94 F5 96 68 47 41 7D 33
1506532863.386299,can1 18FEBF0B [8] 34 59 0D 62 DB D8 CA 7D
1506532863.386707,can1 18FEBF0B [8] 79 8B 33 5C 01 F1 90 37
1506532863.387107,can1 0CFE6E0B [8] 00 00 00 00 00 00 00 00
1506532863.389068,can1 18FEBF0B [8] 82 19 54 4B 01 17 BE 6C
1506532863.393552,can1 18FEBF0B [8] 92 8D ED 24 34 63 48 55
1506532863.39408,can1 18FEBF0B [8] C2 25 89 1F 98 5F 97 5C
1506532863.394519,can1 18FEBF0B [8] F4 F7 F6 5F F4 0C 13 4C
1506532863.39492,can1 18FEBF0B [8] 59 E6 79 1C 47 44 7A 6E
1506532863.395391,can1 18FEBF0B [8] 0E 61 2D 20 86 04 7C 18
1506532863.395828,can1 18FEBF0B [8] 3A 30 EA 0D 1A 98 94 67
1506532863.396238,can1 18FEBF0B [8] 45 94 FE 28 32 75 72 43
1506532863.396637,can1 18FEBF0B [8] 17 2D A6 08 D5 1A 28 3D
1506532863.397033,can1 18E00017 [8] 00 00 00 00 00 00 00 00
1506532863.399676,can1 18E00019 [8] 00 00 00 00 00 00 00 00
1506532863.400479,can1 18FEBF0B [8] 90 21 29 74 D1 F8 FE 16
1506532863.400943,can1 18E00021 [8] 00 00 00 00 00 00 00 00
1506532863.401464,can1 18FEBF0B [8] F6 A0 85 0A 74 B1 2E 5E
1506532863.401887,can1 18FEF021 [8] 00 00 00 00 00 00 00 00
1506532863.402283,can1 18FEBF0B [8] EF 2E 8C 39 7E 3A 48 40
1506532863.402683,can1 18FEBF0B [8] B7 97 65 29 83 83 73 7E
1506532863.409013,can1 18FEBF0B [8] B9 0E B1 0F 04 93 F6 24
1506532863.410102,can1 18FEBF0B [8] 1E 9B 9A 08 2E 33 88 0D
1506532863.410641,can1 18FEBF0B [8] 19 53 89 5C 1D 33 F3 7C
1506532863.411183,can1 18FEBF0B [8] 35 6F F6 2C C5 CE FB 7D
1506532863.411624,can1 18FEBF0B [8] 9D 9A 5D 3E 03 7C 46 30
1506532863.412035,can1 18FEBF0B [8] 6D 19 21 28 21 40 10 5D
1506532863.412444,can1 18FEBF0B [8] B6 50 D4 1B 91 3C C4 44
1506532863.412901,can1 18FEBF0B [8] 9C 53 B3 47 FD 87 6B 44
1506532863.413326,can1 18FEBF0B [8] 72 DF E3 76 F5 FD 54 4A
1506532863.413727,can1 18FEBF0B [8] 33 43 F8 52 F8 08 A1 29
1506532863.41412,can1 18FEF117 [8] 00 00 00 00 00 00 00 00
1506532863.414507,can1 18FEBF0B [8] E8 23 27 40 F1 4A 25 30
1506532863.421792,can1 18FEBF0B [8] ED 41 E0 60 7D E4 6B 3E
1506532863.423528,can1 18FEBF0B [8] 8C 4F 21 79 B9 55 F0 61
1506532863.425859,can1 18FEBF0B [8] 52 62 6A 7F C9 FF A0 58
1506532863.427288,can1 18FEBF0B [8] 49 36 27 17 46 4E 74 03
1506532863.430201,can1 18FEBF0B [8] DF 79 20 4A 92 37 4D 44
1506532863.430846,can1 18FEBF0B [8] 19 87 FF 7C 5A 95 D7 35
1506532863.431309,can1 0CFE6E0B [8] 00 00 00 00 00 00 00 00
1506532863.431723,can1 18FEBF0B [8] 8D 7F B4 17 80 FF 62 38
1506532863.432118,can1 18FEBF0B [8] AA A9 49 12 D0 8C 28 2A
1506532863.432602,can1 18FEBF0B [8] FF 3C 76 28 CC 2F 67 6C
1506532863.433029,can1 18FEBF0B [8] F0 C2 78 61 2E CF 9E 41
1506532863.433431,can1 18FEBF0B [8] 37 7F EB 58 C1 83 BF 1B
1506532863.433823,can1 18FEF028 [8] 00 00 00 00 00 00 00 00
1506532863.434206,can1 18FEBF0B [8] E1 8F B8 6B DC B0 F1 72
1506532863.444134,can1 18FEBF0B [8] F6 E5 19 20 92 16 05 0A
1506532863.444697,can1 18FEBF0B [8] 62 83 0F 54 B4 CA CC 56
1506532863.445152,can1 18FEBF0B [8] FD 44 25 33 D0 C6 15 5B
1506532863.445575,can1 18FEBF0B [8] B3 8C B3 6D 33 18 2D 71
1506532863.446041,can1 18F0010B [8] 00 00 00 00 00 00 00 00
1506532863.446479,can1 18FEBF0B [8] C6 27 9F 0E 9A 49 09 4B
1506532863.44689,can1 18FEBF0B [8] CD FF 28 48 8F 47 7C 03
1506532863.447285,can1 18E00031 [8] 00 00 00 00 00 00 00 00
1506532863.447677,can1 18FEBF0B [8] DE D7 61 2E 48 9C 5F 4C
1506532863.44909,can1 18FEBF0B [8] C0 FF A2 1D 96 5A 74 2D
1506532863.454042,can1 18FEBF0B [8] E9 B6 04 38 AC 1B 08 10
1506532863.454585,can1 18FEF021 [8] 00 00 00 00 00 00 00 00
1506532863.455021,can1 18FEF031 [8] 00 00 00 00 00 00 00 00
1506532863.455425,can1 18FEBF0B [8] 54 11 9B 04 56 41 4A 01
1506532863.455908,can1 0CFE6E0B [8] 00 00 00 00 00 00 00 00
1506532863.456338,can1 18FEBF0B [8] 62 33 2A 20 40 70 22 49
1506532863.45674,can1 18FEBF0B [8] EC 14 EB 02 67 36 C6 69
1506532863.457128,can1 18FEBF0B [8] 0A 42 0C 73 A2 1F F3 2C
1506532863.45752,can1 18FEBF0B [8] 33 D3 CA 33 D6 2D F5 14
1506532863.459541,can1 18FEF017 [8] 00 00 00 00 00 00 00 00
1506532863.464097,can1 18FEBF0B [8] 0E 75 55 10 1B 80 2A 65
1506532863.464578,can1 18FEBF0B [8] EF 11 1F 55 30 AE 4D 0A
1506532863.465006,can1 18FEBF0B [8] 7B 11 32 4E ED 2E 03 5A
1506532863.465411,can1 18FEBF0B [8] 18 24 EB 04 50 7E 01 33
1506532863.465912,can1 18FEBF0B [8] 52 64 3E 33 F7 47 0F 49
1506532863.466329,can1 18FEBF0B [8] 20 56 57 58 95 1E 49 1D
1506532863.466724,can1 18FEBF0B [8] 97 11 48 6E BF 9F 65 1F
1506532863.467111,can1 18FEBF0B [8] 5C CA DD 6C 5B DE BA 1A
1506532863.468948,can1 0CFE6E0B [8] 00 00 00 00 00 00 00 00
1506532863.473527,can1 18F0010B [8] 00 00 00 00 00 00 00 00
1506532863.474071,can1 18FEBF0B [8] B5 2F 51 23 8D AB D0 72
1506532863.474521,can1 18FEBF0B [8] 88 A7 40 50 0F 70 67 32
1506532863.474941,can1 18FEF128 [8] 00 00 00 00 00 00 00 00
1506532863.475425,can1 18FEBF0B [8] 19 A6 0E 77 7A C4 21 43
1506532863.475861,can1 18FEBF0B [8] 0B 52 D2 5D 22 39 B3 22
1506532863.476262,can1 18FEBF0B [8] E9 8B E3 49 11 DE F8 62
1506532863.476658,can1 18FEBF0B [8] 40 25 62 71 F5 E4 BA 2C
1506532863.477041,can1 18FEBF0B [8] 7A C1 B4 4E 42 7E 63 07
1506532863.479576,can1 18FEBF0B [8] B8 B0 50 43 21 63 54 05
1506532863.480401,can1 18FEBF0B [8] 9E 3F AE 31 27 E4 71 42
1506532863.480876,can1 18FEBF0B [8] 3A D4 AB 2D A6 7D AD 73
1506532863.481399,can1 18FEBF0B [8] 9F AC 2E 77 55 72 38 00
1506532863.331845,can0 0CF00203 [8] 00 00 00 00 00 00 00 00
1506532863.332396,can0 08FF0303 [8] 00 00 00 00 00 00 00 00
1506532863.33694,can0 08FF0001 [8] 00 00 00 00 00 00 00 00
1506532863.337513,can0 0CF00203 [8] 00 00 00 00 00 00 00 00
1506532863.337976,can0 08FF0303 [8] 00 00 00 00 00 00 00 00
1506532863.338395,can0 08FF0001 [8] 00 00 00 00 00 00 00 00
1506532863.344917,can0 0CF00203 [8] 00 00 00 00 00 00 00 00
1506532863.345437,can0 08FF0303 [8] 00 00 00 00 00 00 00 00
1506532863.345879,can0 08FF0001 [8] 00 00 00 00 00 00 00 00
1506532863.346305,can0 0CF00203 [8] 00 00 00 00 00 00 00 00
1506532863.346822,can0 08FF0303 [8] 00 00 00 00 00 00 00 00
1506532863.347245,can0 18F00503 [8] 00 00 00 00 00 00 00 00
1506532863.347651,can0 08FF0001 [8] 00 00 00 00 00 00 00 00
1506532863.34805,can0 0CF00203 [8] 00 00 00 00 00 00 00 00
1506532863.34853,can0 08FF0303 [8] 00 00 00 00 00 00 00 00
1506532863.350231,can0 08FF0001 [8] 00 00 00 00 00 00 00 00
