1524595190.145219,can0 08FF0001 [8] 00 00 00 00 00 00 00 00
1524595190.158068,can0 0CF00203 [8] 00 00 00 00 00 00 00 00
1524595190.168027,can0 08FF0303 [8] 00 00 00 00 00 00 00 00
1524595190.169606,can0 08FF0001 [8] 00 00 00 00 00 00 00 00
1524595190.185513,can0 0CF00203 [8] 00 00 00 00 00 00 00 00
1524595190.187087,can0 08FF0303 [8] 00 00 00 00 00 00 00 00
1524595190.196688,can0 08FF0001 [8] 00 00 00 00 00 00 00 00
1524595190.19835,can0 0CF00203 [8] 00 00 00 00 00 00 00 00
1524595190.205956,can0 08FF0303 [8] 00 00 00 00 00 00 00 00
1524595190.20771,can0 08FF0001 [8] 00 00 00 00 00 00 00 00
1524595190.209047,can0 0CF00203 [8] 00 00 00 00 00 00 00 00
1524595190.219151,can0 08FF0303 [8] 00 00 00 00 00 00 00 00
1524595190.220813,can0 08FF0001 [8] 00 00 00 00 00 00 00 00
1524595190.234793,can0 0CF00203 [8] 00 00 00 00 00 00 00 00
1524595190.236807,can0 08FF0303 [8] 00 00 00 00 00 00 00 00
1524595190.238173,can0 18F00503 [8] 00 00 00 00 00 00 00 00
1524595190.247763,can0 08FF0001 [8] 00 00 00 00 00 00 00 00
1524595190.249423,can0 0CF00203 [8] 00 00 00 00 00 00 00 00
1524595190.25944,can0 08FF0303 [8] 00 00 00 00 00 00 00 00
1524595190.261416,can0 08FF0001 [8] 00 00 00 00 00 00 00 00
1524595190.271383,can0 0CF00203 [8] 00 00 00 00 00 00 00 00
1524595190.272963,can0 08FF0303 [8] 00 00 00 00 00 00 00 00
1524595190.282397,can0 08FF0001 [8] 00 00 00 00 00 00 00 00
1524595190.284006,can0 0CF00203 [8] 00 00 00 00 00 00 00 00
1524595190.285296,can0 08FF0303 [8] 00 00 00 00 00 00 00 00
1524595190.294902,can0 08FF0001 [8] 00 00 00 00 00 00 00 00
1524595190.296444,can0 0CF00203 [8] 00 00 00 00 00 00 00 00
1524595190.305907,can0 08FF0303 [8] 00 00 00 00 00 00 00 00
1524595190.307491,can0 08FF0001 [8] 00 00 00 00 00 00 00 00
1524595190.316755,can0 0CF00203 [8] 00 00 00 00 00 00 00 00
1524595190.321396,can0 08FF0303 [8] 00 00 00 00 00 00 00 00
1524595190.322936,can0 08FF0001 [8] 00 00 00 00 00 00 00 00
1524595190.324225,can0 0CF00203 [8] 00 00 00 00 00 00 00 00
1524595190.333732,can0 08FF0303 [8] 00 00 00 00 00 00 00 00
1524595190.335227,can0 08FF0001 [8] 00 00 00 00 00 00 00 00
1524595190.344526,can0 0CF00203 [8] 00 00 00 00 00 00 00 00
1524595190.346057,can0 08FF0303 [8] 00 00 00 00 00 00 00 00
1524595190.347362,can0 08FF0001 [8] 00 00 00 00 00 00 00 00
1524595190.357094,can0 0CF00203 [8] 00 00 00 00 00 00 00 00
1524595190.359058,can0 08FF0303 [8] 00 00 00 00 00 00 00 00
1524595190.368502,can0 08FF0001 [8] 00 00 00 00 00 00 00 00
1524595190.370263,can0 0CF00203 [8] 00 00 00 00 00 00 00 00
1524595190.380107,can0 08FF0303 [8] 00 00 00 00 00 00 00 00
1524595190.381972,can0 08FF0001 [8] 00 00 00 00 00 00 00 00
1524595190.391424,can0 0CF00203 [8] 00 00 00 00 00 00 00 00
1524595190.393064,can0 08FF0303 [8] 00 00 00 00 00 00 00 00
1524595190.394381,can0 18F00503 [8] 00 00 00 00 00 00 00 00
1524595190.403946,can0 08FF0001 [8] 00 00 00 00 00 00 00 00
1524595190.405471,can0 0CF00203 [8] 00 00 00 00 00 00 00 00
1524595190.414797,can0 08FF0303 [8] 00 00 00 00 00 00 00 00
1524595190.416457,can0 08FF0001 [8] 00 00 00 00 00 00 00 00
1524595190.417769,can0 0CF00203 [8] 00 00 00 00 00 00 00 00
1524595190.427277,can0 08FF0303 [8] 00 00 00 00 00 00 00 00
1524595190.428742,can0 08FF0001 [8] 00 00 00 00 00 00 00 00
1524595190.438092,can0 0CF00203 [8] 00 00 00 00 00 00 00 00
1524595190.439501,can0 08FF0303 [8] 00 00 00 00 00 00 00 00
1524595190.441331,can0 08FF0001 [8] 00 00 00 00 00 00 00 00
1524595190.451438,can0 0CF00203 [8] 00 00 00 00 00 00 00 00
1524595190.453211,can0 08FF0303 [8] 00 00 00 00 00 00 00 00
1524595190.462656,can0 08FF0001 [8] 00 00 00 00 00 00 00 00
1524595190.464071,can0 0CF00203 [8] 00 00 00 00 00 00 00 00
1524595190.473329,can0 08FF0303 [8] 00 00 00 00 00 00 00 00
1524595190.474746,can0 08FF0001 [8] 00 00 00 00 00 00 00 00
1524595190.476159,can0 0CF00203 [8] 00 00 00 00 00 00 00 00
1524595190.48548,can0 08FF0303 [8] 00 00 00 00 00 00 00 00
1524595190.486953,can0 08FF0001 [8] 00 00 00 00 00 00 00 00
1524595190.48822,can0 0CF00203 [8] 00 00 00 00 00 00 00 00
1524595190.497602,can0 08FF0303 [8] 00 00 00 00 00 00 00 00
1524595190.499021,can0 08FF0001 [8] 00 00 00 00 00 00 00 00
1524595190.51204,can0 0CF00203 [8] 00 00 00 00 00 00 00 00
1524595190.512607,can0 08FF0303 [8] 00 00 00 00 00 00 00 00
1524595190.51305,can0 08FF0001 [8] 00 00 00 00 00 00 00 00
1524595190.513459,can0 0CF00203 [8] 00 00 00 00 00 00 00 00
1524595190.513925,can0 08FF0303 [8] 00 00 00 00 00 00 00 00
1524595190.514361,can0 08FF0001 [8] 00 00 00 00 00 00 00 00
1524595190.514765,can0 0CF00203 [8] 00 00 00 00 00 00 00 00
1524595190.515155,can0 08FF0303 [8] 00 00 00 00 00 00 00 00
1524595190.515537,can0 18F00503 [8] 00 00 00 00 00 00 00 00
1524595190.526051,can0 08FF0001 [8] 00 00 00 00 00 00 00 00
1524595190.526797,can0 0CF00203 [8] 00 00 00 00 00 00 00 00
1524595190.52728,can0 08FF0303 [8] 00 00 00 00 00 00 00 00
1524595190.527814,can0 08FF0001 [8] 00 00 00 00 00 00 00 00
1524595190.528264,can0 0CF00203 [8] 00 00 00 00 00 00 00 00
1524595190.528678,can0 08FF0303 [8] 00 00 00 00 00 00 00 00
1524595190.529073,can0 08FF0001 [8] 00 00 00 00 00 00 00 00
1524595190.529529,can0 0CF00203 [8] 00 00 00 00 00 00 00 00
1524595190.532008,can0 08FF0303 [8] 00 00 00 00 00 00 00 00
1524595190.532635,can0 08FF0001 [8] 00 00 00 00 00 00 00 00
1524595190.533093,can0 0CF00203 [8] 00 00 00 00 00 00 00 00
1524595190.533645,can0 08FF0303 [8] 00 00 00 00 00 00 00 00
1524595190.534094,can0 08FF0001 [8] 00 00 00 00 00 00 00 00
1524595190.534504,can0 0CF00203 [8] 00 00 00 00 00 00 00 00
1524595190.534904,can0 08FF0303 [8] 00 00 00 00 00 00 00 00
1524595190.535298,can0 08FF0001 [8] 00 00 00 00 00 00 00 00
1524595190.535763,can0 0CF00203 [8] 00 00 00 00 00 00 00 00
1524595190.536161,can0 08FF0303 [8] 00 00 00 00 00 00 00 00
1524595190.536548,can0 08FF0001 [8] 00 00 00 00 00 00 00 00
1524595190.536931,can0 0CF00203 [8] 00 00 00 00 00 00 00 00
1524595190.537361,can0 08FF0303 [8] 00 00 00 00 00 00 00 00
1524595190.537765,can0 08FF0001 [8] 00 00 00 00 00 00 00 00
1524595190.538156,can0 0CF00203 [8] 00 00 00 00 00 00 00 00
1524595190.538537,can0 08FF0303 [8] 00 00 00 00 00 00 00 00
1524595190.538921,can0 08FF0001 [8] 00 00 00 00 00 00 00 00
1524595190.539351,can0 0CF00203 [8] 00 00 00 00 00 00 00 00
1524595190.539755,can0 08FF0303 [8] 00 00 00 00 00 00 00 00
1524595190.540264,can0 08FF0001 [8] 00 00 00 00 00 00 00 00
1524595190.540736,can0 0CF00203 [8] 00 00 00 00 00 00 00 00
1524595190.541247,can0 08FF0303 [8] 00 00 00 00 00 00 00 00
1524595190.541675,can0 18F00503 [8] 00 00 00 00 00 00 00 00
1524595190.542077,can0 08FF0001 [8] 00 00 00 00 00 00 00 00
1524595190.54247,can0 0CF00203 [8] 00 00 00 00 00 00 00 00
1524595190.542853,can0 08FF0303 [8] 00 00 00 00 00 00 00 00
1524595190.543283,can0 08FF0001 [8] 00 00 00 00 00 00 00 00
1524595190.543691,can0 0CF00203 [8] 00 00 00 00 00 00 00 00
1524595190.544078,can0 08FF0303 [8] 00 00 00 00 00 00 00 00
1524595190.544463,can0 08FF0001 [8] 00 00 00 00 00 00 00 00
1524595190.544839,can0 0CF00203 [8] 00 00 00 00 00 00 00 00
1524595190.545267,can0 08FF0303 [8] 00 00 00 00 00 00 00 00
1524595190.545668,can0 08FF0001 [8] 00 00 00 00 00 00 00 00
1524595190.546059,can0 0CF00203 [8] 00 00 00 00 00 00 00 00
1524595190.546441,can0 08FF0303 [8] 00 00 00 00 00 00 00 00
1524595190.546827,can0 08FF0001 [8] 00 00 00 00 00 00 00 00
1524595190.547252,can0 0CF00203 [8] 00 00 00 00 00 00 00 00
1524595190.547651,can0 08FF0303 [8] 00 00 00 00 00 00 00 00
1524595190.548037,can0 08FF0001 [8] 00 00 00 00 00 00 00 00
1524595190.548419,can0 0CF00203 [8] 00 00 00 00 00 00 00 00
1524595190.5488,can0 08FF0303 [8] 00 00 00 00 00 00 00 00
1524595190.549239,can0 08FF0001 [8] 00 00 00 00 00 00 00 00
1524595190.549635,can0 0CF00203 [8] 00 00 00 00 00 00 00 00
1524595190.553388,can0 08FF0303 [8] 00 00 00 00 00 00 00 00
1524595190.553957,can0 08FF0001 [8] 00 00 00 00 00 00 00 00
1524595190.554406,can0 0CF00203 [8] 00 00 00 00 00 00 00 00
1524595190.55495,can0 08FF0303 [8] 00 00 00 00 00 00 00 00
1524595190.555461,can0 08FF0001 [8] 00 00 00 00 00 00 00 00
1524595190.55594,can0 0CF00203 [8] 00 00 00 00 00 00 00 00
1524595190.179165,can1 18E00019 [8] 00 00 00 00 00 00 00 00
1524595190.200485,can1 18E00021 [8] 00 00 00 00 00 00 00 00
1524595190.202341,can1 18E00028 [8] 00 00 00 00 00 00 00 00
1524595190.213839,can1 18E00031 [8] 00 00 00 00 00 00 00 00
1524595190.215694,can1 18FEF017 [8] 00 00 00 00 00 00 00 00
1524595190.22512,can1 18FEF021 [8] 00 00 00 00 00 00 00 00
1524595190.226908,can1 18FEF028 [8] 00 00 00 00 00 00 00 00
1524595190.228271,can1 18FEF031 [8] 00 00 00 00 00 00 00 00
1524595190.239644,can1 18FEF521 [8] 00 00 00 00 00 00 00 00
1524595190.241678,can1 0CFE6E0B [8] 00 00 00 00 00 00 00 00
1524595190.251474,can1 0CFE6E0B [8] 00 00 00 00 00 00 00 00
1524595190.253823,can1 0CFE6E0B [8] 00 00 00 00 00 00 00 00
1524595190.263428,can1 0CFE6E0B [8] 00 00 00 00 00 00 00 00
1524595190.264878,can1 0CFE6E0B [8] 00 00 00 00 00 00 00 00
1524595190.274173,can1 18F00131 [8] 00 00 00 00 00 00 00 00
1524595190.275693,can1 18F0010B [8] 00 00 00 00 00 00 00 00
1524595190.276999,can1 18FEF117 [8] 00 00 00 00 00 00 00 00
1524595190.286377,can1 18FEF128 [8] 00 00 00 00 00 00 00 00
1524595190.287857,can1 18FEF121 [8] 00 00 00 00 00 00 00 00
1524595190.28912,can1 18FEF131 [8] 00 00 00 00 00 00 00 00
1524595190.298549,can1 18E00017 [8] 00 00 00 00 00 00 00 00
1524595190.300152,can1 18E00019 [8] 00 00 00 00 00 00 00 00
1524595190.3096,can1 18E00021 [8] 00 00 00 00 00 00 00 00
1524595190.311585,can1 18E00028 [8] 00 00 00 00 00 00 00 00
1524595190.31838,can1 18E00031 [8] 00 00 00 00 00 00 00 00
1524595190.320204,can1 18FEF017 [8] 00 00 00 00 00 00 00 00
1524595190.325839,can1 18FEF021 [8] 00 00 00 00 00 00 00 00
1524595190.327248,can1 18FEF028 [8] 00 00 00 00 00 00 00 00
1524595190.340561,can1 18FEF031 [8] 00 00 00 00 00 00 00 00
1524595190.34242,can1 0CFE6E0B [8] 00 00 00 00 00 00 00 00
1524595190.343762,can1 0CFE6E0B [8] 00 00 00 00 00 00 00 00
1524595190.349194,can1 0CFE6E0B [8] 00 00 00 00 00 00 00 00
1524595190.351195,can1 0CFE6E0B [8] 00 00 00 00 00 00 00 00
1524595190.361187,can1 0CFE6E0B [8] 00 00 00 00 00 00 00 00
1524595190.362668,can1 18F00131 [8] 00 00 00 00 00 00 00 00
1524595190.372141,can1 18F0010B [8] 00 00 00 00 00 00 00 00
1524595190.373685,can1 18FEF117 [8] 00 00 00 00 00 00 00 00
1524595190.374975,can1 18FEF128 [8] 00 00 00 00 00 00 00 00
1524595190.384375,can1 18FEF121 [8] 00 00 00 00 00 00 00 00
1524595190.38589,can1 18FEF131 [8] 00 00 00 00 00 00 00 00
1524595190.395175,can1 18E00017 [8] 00 00 00 00 00 00 00 00
1524595190.396574,can1 18E00019 [8] 00 00 00 00 00 00 00 00
1524595190.397993,can1 18E00021 [8] 00 00 00 00 00 00 00 00
1524595190.407287,can1 18E00028 [8] 00 00 00 00 00 00 00 00
1524595190.408755,can1 18E00031 [8] 00 00 00 00 00 00 00 00
1524595190.410263,can1 18FEF017 [8] 00 00 00 00 00 00 00 00
1524595190.423779,can1 18FEF021 [8] 00 00 00 00 00 00 00 00
1524595190.425287,can1 18FEF028 [8] 00 00 00 00 00 00 00 00
1524595190.434669,can1 18FEF031 [8] 00 00 00 00 00 00 00 00
1524595190.436261,can1 0CFE6E0B [8] 00 00 00 00 00 00 00 00
1524595190.437573,can1 0CFE6E0B [8] 00 00 00 00 00 00 00 00
1524595190.447133,can1 0CFE6E0B [8] 00 00 00 00 00 00 00 00
1524595190.448609,can1 0CFE6E0B [8] 00 00 00 00 00 00 00 00
1524595190.458164,can1 0CFE6E0B [8] 00 00 00 00 00 00 00 00
1524595190.460028,can1 18F00131 [8] 00 00 00 00 00 00 00 00
1524595190.469649,can1 18F0010B [8] 00 00 00 00 00 00 00 00
1524595190.471737,can1 18FEF117 [8] 00 00 00 00 00 00 00 00
1524595190.481214,can1 18FEF128 [8] 00 00 00 00 00 00 00 00
1524595190.482858,can1 18FEF121 [8] 00 00 00 00 00 00 00 00
1524595190.484187,can1 18FEF131 [8] 00 00 00 00 00 00 00 00
1524595190.493655,can1 18E00017 [8] 00 00 00 00 00 00 00 00
1524595190.495181,can1 18E00019 [8] 00 00 00 00 00 00 00 00
1524595190.504446,can1 18E00021 [8] 00 00 00 00 00 00 00 00
1524595190.505938,can1 18E00028 [8] 00 00 00 00 00 00 00 00
1524595190.510104,can1 18E00031 [8] 00 00 00 00 00 00 00 00
1524595190.510691,can1 18FEF017 [8] 00 00 00 00 00 00 00 00
1524595190.511201,can1 18FEF021 [8] 00 00 00 00 00 00 00 00
1524595190.511625,can1 18FEF028 [8] 00 00 00 00 00 00 00 00
1524595190.518924,can1 18FEF031 [8] 00 00 00 00 00 00 00 00
1524595190.5196,can1 0CFE6E0B [8] 00 00 00 00 00 00 00 00
1524595190.520311,can1 0CFE6E0B [8] 00 00 00 00 00 00 00 00
1524595190.520851,can1 0CFE6E0B [8] 00 00 00 00 00 00 00 00
1524595190.530172,can1 0CFE6E0B [8] 00 00 00 00 00 00 00 00
1524595190.550138,can1 0CFE6E0B [8] 00 00 00 00 00 00 00 00
1524595190.550819,can1 18F00131 [8] 00 00 00 00 00 00 00 00
1524595190.551485,can1 18F0010B [8] 00 00 00 00 00 00 00 00
1524595190.552056,can1 18FEF117 [8] 00 00 00 00 00 00 00 00
1524595190.552534,can1 18FEF128 [8] 00 00 00 00 00 00 00 00
1524595190.557137,can1 18FEF121 [8] 00 00 00 00 00 00 00 00
1524595190.557857,can1 18FEF131 [8] 00 00 00 00 00 00 00 00
1524595190.558411,can1 18E00017 [8] 00 00 00 00 00 00 00 00
1524595190.558987,can1 18E00019 [8] 00 00 00 00 00 00 00 00
1524595190.559441,can1 18E00021 [8] 00 00 00 00 00 00 00 00
1524595190.559923,can1 18E00028 [8] 00 00 00 00 00 00 00 00
1524595190.560343,can1 18E00031 [8] 00 00 00 00 00 00 00 00
1524595190.560881,can1 18FEF017 [8] 00 00 00 00 00 00 00 00
1524595190.561379,can1 18FEF021 [8] 00 00 00 00 00 00 00 00
1524595190.561789,can1 18FEF028 [8] 00 00 00 00 00 00 00 00
1524595190.562185,can1 18FEF031 [8] 00 00 00 00 00 00 00 00
1524595190.570157,can1 0CFE6E0B [8] 00 00 00 00 00 00 00 00
1524595190.590163,can1 0CFE6E0B [8] 00 00 00 00 00 00 00 00
1524595190.610112,can1 0CFE6E0B [8] 00 00 00 00 00 00 00 00
1524595190.630117,can1 0CFE6E0B [8] 00 00 00 00 00 00 00 00
1524595190.650114,can1 0CFE6E0B [8] 00 00 00 00 00 00 00 00
1524595190.650816,can1 18F00131 [8] 00 00 00 00 00 00 00 00
1524595190.651401,can1 18F0010B [8] 00 00 00 00 00 00 00 00
1524595190.651924,can1 18FEF117 [8] 00 00 00 00 00 00 00 00
1524595190.652393,can1 18FEF128 [8] 00 00 00 00 00 00 00 00
1524595190.653041,can1 18FEF121 [8] 00 00 00 00 00 00 00 00
1524595190.65355,can1 18FEF131 [8] 00 00 00 00 00 00 00 00
1524595190.656457,can1 18E00017 [8] 00 00 00 00 00 00 00 00
1524595190.657053,can1 18E00019 [8] 00 00 00 00 00 00 00 00
1524595190.657573,can1 18E00021 [8] 00 00 00 00 00 00 00 00
1524595190.65806,can1 18E00028 [8] 00 00 00 00 00 00 00 00
1524595190.658545,can1 18E00031 [8] 00 00 00 00 00 00 00 00
1524595190.659153,can1 18FEF017 [8] 00 00 00 00 00 00 00 00
1524595190.659593,can1 18FEF021 [8] 00 00 00 00 00 00 00 00
1524595190.661899,can1 18FEF028 [8] 00 00 00 00 00 00 00 00
1524595190.662461,can1 18FEF031 [8] 00 00 00 00 00 00 00 00
1524595190.671799,can1 0CFE6E0B [8] 00 00 00 00 00 00 00 00
1524595190.690237,can1 0CFE6E0B [8] 00 00 00 00 00 00 00 00
1524595190.710264,can1 0CFE6E0B [8] 00 00 00 00 00 00 00 00
1524595190.730196,can1 0CFE6E0B [8] 00 00 00 00 00 00 00 00
1524595190.750135,can1 0CFE6E0B [8] 00 00 00 00 00 00 00 00
1524595190.750853,can1 18F00131 [8] 00 00 00 00 00 00 00 00
1524595190.75143,can1 18F0010B [8] 00 00 00 00 00 00 00 00
1524595190.751962,can1 18FEF117 [8] 00 00 00 00 00 00 00 00
1524595190.75251,can1 18FEF128 [8] 00 00 00 00 00 00 00 00
1524595190.753,can1 18FEF121 [8] 00 00 00 00 00 00 00 00
1524595190.755822,can1 18FEF131 [8] 00 00 00 00 00 00 00 00
1524595190.756459,can1 18E00017 [8] 00 00 00 00 00 00 00 00
1524595190.756978,can1 18E00019 [8] 00 00 00 00 00 00 00 00
1524595190.757457,can1 18E00021 [8] 00 00 00 00 00 00 00 00
1524595190.757883,can1 18E00028 [8] 00 00 00 00 00 00 00 00
1524595190.759081,can1 18E00031 [8] 00 00 00 00 00 00 00 00
1524595190.759523,can1 18FEF017 [8] 00 00 00 00 00 00 00 00
1524595190.761799,can1 18FEF021 [8] 00 00 00 00 00 00 00 00
1524595190.762393,can1 18FEF028 [8] 00 00 00 00 00 00 00 00
1524595190.762828,can1 18FEF031 [8] 00 00 00 00 00 00 00 00
1524595190.771843,can1 0CFE6E0B [8] 00 00 00 00 00 00 00 00
1524595190.790118,can1 0CFE6E0B [8] 00 00 00 00 00 00 00 00
1524595190.810111,can1 0CFE6E0B [8] 00 00 00 00 00 00 00 00
1524595190.832578,can1 18ECFFFA [8] 20 1C 00 04 FF EB FE 00
1524595190.833425,can1 18EBFFFA [8] 01 53 59 4E 45 52 2A 53
1524595190.834104,can1 18EBFFFA [8] 02 53 53 32 2D 30 32 2A
1524595190.56285,can0 08FF0303 [8] 00 00 00 00 00 00 00 00
1524595190.563413,can0 08FF0001 [8] 00 00 00 00 00 00 00 00
1524595190.563864,can0 0CF00203 [8] 00 00 00 00 00 00 00 00
1524595190.56428,can0 08FF0303 [8] 00 00 00 00 00 00 00 00
1524595190.564843,can0 18F00503 [8] 00 00 00 00 00 00 00 00
1524595190.565286,can0 08FF0001 [8] 00 00 00 00 00 00 00 00
1524595190.565689,can0 0CF00203 [8] 00 00 00 00 00 00 00 00
1524595190.566081,can0 08FF0303 [8] 00 00 00 00 00 00 00 00
1524595190.570932,can0 08FF0001 [8] 00 00 00 00 00 00 00 00
1524595190.571556,can0 0CF00203 [8] 00 00 00 00 00 00 00 00
1524595190.571997,can0 08FF0303 [8] 00 00 00 00 00 00 00 00
1524595190.580057,can0 08FF0001 [8] 00 00 00 00 00 00 00 00
1524595190.580662,can0 0CF00203 [8] 00 00 00 00 00 00 00 00
1524595190.581167,can0 08FF0303 [8] 00 00 00 00 00 00 00 00
1524595190.590865,can0 08FF0001 [8] 00 00 00 00 00 00 00 00
1524595190.591455,can0 0CF00203 [8] 00 00 00 00 00 00 00 00
1524595190.591892,can0 08FF0303 [8] 00 00 00 00 00 00 00 00
1524595190.600046,can0 08FF0001 [8] 00 00 00 00 00 00 00 00
1524595190.600581,can0 0CF00203 [8] 00 00 00 00 00 00 00 00
1524595190.601199,can0 08FF0303 [8] 00 00 00 00 00 00 00 00
1524595190.610789,can0 08FF0001 [8] 00 00 00 00 00 00 00 00
1524595190.611389,can0 0CF00203 [8] 00 00 00 00 00 00 00 00
1524595190.611917,can0 08FF0303 [8] 00 00 00 00 00 00 00 00
1524595190.620066,can0 08FF0001 [8] 00 00 00 00 00 00 00 00
1524595190.620642,can0 0CF00203 [8] 00 00 00 00 00 00 00 00
1524595190.621212,can0 08FF0303 [8] 00 00 00 00 00 00 00 00
1524595190.630817,can0 08FF0001 [8] 00 00 00 00 00 00 00 00
1524595190.631481,can0 0CF00203 [8] 00 00 00 00 00 00 00 00
1524595190.631936,can0 08FF0303 [8] 00 00 00 00 00 00 00 00
1524595190.640056,can0 08FF0001 [8] 00 00 00 00 00 00 00 00
1524595190.640576,can0 0CF00203 [8] 00 00 00 00 00 00 00 00
1524595190.641196,can0 08FF0303 [8] 00 00 00 00 00 00 00 00
1524595190.65414,can0 08FF0001 [8] 00 00 00 00 00 00 00 00
1524595190.654808,can0 0CF00203 [8] 00 00 00 00 00 00 00 00
1524595190.655345,can0 08FF0303 [8] 00 00 00 00 00 00 00 00
1524595190.655835,can0 18F00503 [8] 00 00 00 00 00 00 00 00
1524595190.660093,can0 08FF0001 [8] 00 00 00 00 00 00 00 00
1524595190.660754,can0 0CF00203 [8] 00 00 00 00 00 00 00 00
1524595190.661282,can0 08FF0303 [8] 00 00 00 00 00 00 00 00
1524595190.670176,can0 08FF0001 [8] 00 00 00 00 00 00 00 00
1524595190.670773,can0 0CF00203 [8] 00 00 00 00 00 00 00 00
1524595190.671286,can0 08FF0303 [8] 00 00 00 00 00 00 00 00
1524595190.680151,can0 08FF0001 [8] 00 00 00 00 00 00 00 00
1524595190.680838,can0 0CF00203 [8] 00 00 00 00 00 00 00 00
1524595190.681382,can0 08FF0303 [8] 00 00 00 00 00 00 00 00
1524595190.691206,can0 08FF0001 [8] 00 00 00 00 00 00 00 00
1524595190.691903,can0 0CF00203 [8] 00 00 00 00 00 00 00 00
1524595190.692407,can0 08FF0303 [8] 00 00 00 00 00 00 00 00
1524595190.70019,can0 08FF0001 [8] 00 00 00 00 00 00 00 00
1524595190.700944,can0 0CF00203 [8] 00 00 00 00 00 00 00 00
1524595190.701594,can0 08FF0303 [8] 00 00 00 00 00 00 00 00
1524595190.711289,can0 08FF0001 [8] 00 00 00 00 00 00 00 00
1524595190.71191,can0 0CF00203 [8] 00 00 00 00 00 00 00 00
1524595190.712367,can0 08FF0303 [8] 00 00 00 00 00 00 00 00
1524595190.720224,can0 08FF0001 [8] 00 00 00 00 00 00 00 00
1524595190.72113,can0 0CF00203 [8] 00 00 00 00 00 00 00 00
1524595190.721652,can0 08FF0303 [8] 00 00 00 00 00 00 00 00
1524595190.731093,can0 08FF0001 [8] 00 00 00 00 00 00 00 00
1524595190.731649,can0 0CF00203 [8] 00 00 00 00 00 00 00 00
1524595190.732108,can0 08FF0303 [8] 00 00 00 00 00 00 00 00
1524595190.740081,can0 08FF0001 [8] 00 00 00 00 00 00 00 00
1524595190.74068,can0 0CF00203 [8] 00 00 00 00 00 00 00 00
1524595190.741198,can0 08FF0303 [8] 00 00 00 00 00 00 00 00
1524595190.753563,can0 08FF0001 [8] 00 00 00 00 00 00 00 00
1524595190.754209,can0 0CF00203 [8] 00 00 00 00 00 00 00 00
1524595190.754749,can0 08FF0303 [8] 00 00 00 00 00 00 00 00
1524595190.755247,can0 18F00503 [8] 00 00 00 00 00 00 00 00
1524595190.760131,can0 08FF0001 [8] 00 00 00 00 00 00 00 00
1524595190.76074,can0 0CF00203 [8] 00 00 00 00 00 00 00 00
1524595190.761265,can0 08FF0303 [8] 00 00 00 00 00 00 00 00
1524595190.770137,can0 08FF0001 [8] 00 00 00 00 00 00 00 00
1524595190.770743,can0 0CF00203 [8] 00 00 00 00 00 00 00 00
1524595190.771255,can0 08FF0303 [8] 00 00 00 00 00 00 00 00
1524595190.780102,can0 08FF0001 [8] 00 00 00 00 00 00 00 00
1524595190.780693,can0 0CF00203 [8] 00 00 00 00 00 00 00 00
1524595190.781204,can0 08FF0303 [8] 00 00 00 00 00 00 00 00
1524595190.790793,can0 08FF0001 [8] 00 00 00 00 00 00 00 00
1524595190.791434,can0 0CF00203 [8] 00 00 00 00 00 00 00 00
1524595190.791895,can0 08FF0303 [8] 00 00 00 00 00 00 00 00
1524595190.800056,can0 08FF0001 [8] 00 00 00 00 00 00 00 00
1524595190.800591,can0 0CF00203 [8] 00 00 00 00 00 00 00 00
1524595190.80122,can0 08FF0303 [8] 00 00 00 00 00 00 00 00
1524595190.81158,can0 08FF0001 [8] 00 00 00 00 00 00 00 00
1524595190.813464,can0 0CF00203 [8] 00 00 00 00 00 00 00 00
1524595190.814185,can0 08FF0303 [8] 00 00 00 00 00 00 00 00
1524595190.820194,can0 08FF0001 [8] 00 00 00 00 00 00 00 00
1524595190.821165,can0 0CF00203 [8] 00 00 00 00 00 00 00 00
1524595190.821856,can0 08FF0303 [8] 00 00 00 00 00 00 00 00
1524595190.838516,can0 08FF0001 [8] 00 00 00 00 00 00 00 00
1524595190.839367,can0 0CF00203 [8] 00 00 00 00 00 00 00 00
1524595190.840297,can0 08FF0303 [8] 00 00 00 00 00 00 00 00
1524595190.84119,can0 08FF0001 [8] 00 00 00 00 00 00 00 00
1524595190.841866,can0 0CF00203 [8] 00 00 00 00 00 00 00 00
1524595190.844092,can0 08FF0303 [8] 00 00 00 00 00 00 00 00
1524595190.85412,can0 08FF0001 [8] 00 00 00 00 00 00 00 00
1524595190.854973,can0 0CF00203 [8] 00 00 00 00 00 00 00 00
1524595190.855875,can0 08FF0303 [8] 00 00 00 00 00 00 00 00
1524595190.856628,can0 18F00503 [8] 00 00 00 00 00 00 00 00
1524595190.861822,can0 08FF0001 [8] 00 00 00 00 00 00 00 00
1524595190.862587,can0 0CF00203 [8] 00 00 00 00 00 00 00 00
1524595190.863241,can0 08FF0303 [8] 00 00 00 00 00 00 00 00
1524595190.870281,can0 08FF0001 [8] 00 00 00 00 00 00 00 00
1524595190.871214,can0 0CF00203 [8] 00 00 00 00 00 00 00 00
1524595190.871992,can0 08FF0303 [8] 00 00 00 00 00 00 00 00
1524595190.880221,can0 08FF0001 [8] 00 00 00 00 00 00 00 00
1524595190.881212,can0 0CF00203 [8] 00 00 00 00 00 00 00 00
1524595190.881906,can0 08FF0303 [8] 00 00 00 00 00 00 00 00
1524595190.891373,can0 08FF0001 [8] 00 00 00 00 00 00 00 00
1524595190.892126,can0 0CF00203 [8] 00 00 00 00 00 00 00 00
1524595190.892857,can0 08FF0303 [8] 00 00 00 00 00 00 00 00
1524595190.900173,can0 08FF0001 [8] 00 00 00 00 00 00 00 00
1524595190.901091,can0 0CF00203 [8] 00 00 00 00 00 00 00 00
1524595190.901758,can0 08FF0303 [8] 00 00 00 00 00 00 00 00
1524595190.911367,can0 08FF0001 [8] 00 00 00 00 00 00 00 00
1524595190.912136,can0 0CF00203 [8] 00 00 00 00 00 00 00 00
1524595190.912913,can0 08FF0303 [8] 00 00 00 00 00 00 00 00
1524595190.920243,can0 08FF0001 [8] 00 00 00 00 00 00 00 00
1524595190.921162,can0 0CF00203 [8] 00 00 00 00 00 00 00 00
1524595190.921836,can0 08FF0303 [8] 00 00 00 00 00 00 00 00
1524595190.931332,can0 08FF0001 [8] 00 00 00 00 00 00 00 00
1524595190.932174,can0 0CF00203 [8] 00 00 00 00 00 00 00 00
1524595190.932862,can0 08FF0303 [8] 00 00 00 00 00 00 00 00
1524595190.940174,can0 08FF0001 [8] 00 00 00 00 00 00 00 00
1524595190.940948,can0 0CF00203 [8] 00 00 00 00 00 00 00 00
1524595190.941765,can0 08FF0303 [8] 00 00 00 00 00 00 00 00
1524595190.953693,can0 08FF0001 [8] 00 00 00 00 00 00 00 00
1524595190.954616,can0 0CF00203 [8] 00 00 00 00 00 00 00 00
1524595190.955457,can0 08FF0303 [8] 00 00 00 00 00 00 00 00
1524595190.956216,can0 18F00503 [8] 00 00 00 00 00 00 00 00
1524595190.961436,can0 08FF0001 [8] 00 00 00 00 00 00 00 00
1524595190.962183,can0 0CF00203 [8] 00 00 00 00 00 00 00 00
1524595190.962839,can0 08FF0303 [8] 00 00 00 00 00 00 00 00
1524595190.97027,can0 08FF0001 [8] 00 00 00 00 00 00 00 00
1524595190.97127,can0 0CF00203 [8] 00 00 00 00 00 00 00 00
1524595190.971968,can0 08FF0303 [8] 00 00 00 00 00 00 00 00
1524595190.980268,can0 08FF0001 [8] 00 00 00 00 00 00 00 00
1524595190.98132,can0 0CF00203 [8] 00 00 00 00 00 00 00 00
1524595190.982027,can0 08FF0303 [8] 00 00 00 00 00 00 00 00
1524595190.991422,can0 08FF0001 [8] 00 00 00 00 00 00 00 00
1524595190.992182,can0 0CF00203 [8] 00 00 00 00 00 00 00 00
