1531393482.976002,can0 08FF0001 [8] 00 00 00 00 00 00 00 00
1531393483.001153,can0 0CF00203 [8] 00 00 00 00 00 00 00 00
1531393483.010946,can0 08FF0303 [8] 00 00 00 00 00 00 00 00
1531393483.013469,can0 08FF0001 [8] 00 00 00 00 00 00 00 00
1531393483.023447,can0 0CF00203 [8] 00 00 00 00 00 00 00 00
1531393483.025575,can0 08FF0303 [8] 00 00 00 00 00 00 00 00
1531393483.038691,can0 08FF0001 [8] 00 00 00 00 00 00 00 00
1531393483.040298,can0 0CF00203 [8] 00 00 00 00 00 00 00 00
1531393483.047702,can0 08FF0303 [8] 00 00 00 00 00 00 00 00
1531393483.049347,can0 08FF0001 [8] 00 00 00 00 00 00 00 00
1531393483.050818,can0 0CF00203 [8] 00 00 00 00 00 00 00 00
1531393483.060401,can0 08FF0303 [8] 00 00 00 00 00 00 00 00
1531393483.062593,can0 08FF0001 [8] 00 00 00 00 00 00 00 00
1531393483.072747,can0 0CF00203 [8] 00 00 00 00 00 00 00 00
1531393483.082786,can0 08FF0303 [8] 00 00 00 00 00 00 00 00
1531393483.085036,can0 08FF0001 [8] 00 00 00 00 00 00 00 00
1531393483.094751,can0 0CF00203 [8] 00 00 00 00 00 00 00 00
1531393483.096601,can0 08FF0303 [8] 00 00 00 00 00 00 00 00
1531393483.097912,can0 08FF0001 [8] 00 00 00 00 00 00 00 00
1531393483.109443,can0 0CF00203 [8] 00 00 00 00 00 00 00 00
1531393483.110965,can0 08FF0303 [8] 00 00 00 00 00 00 00 00
1531393483.12041,can0 08FF0001 [8] 00 00 00 00 00 00 00 00
1531393483.122058,can0 0CF00203 [8] 00 00 00 00 00 00 00 00
1531393483.131746,can0 08FF0303 [8] 00 00 00 00 00 00 00 00
1531393483.133955,can0 08FF0001 [8] 00 00 00 00 00 00 00 00
1531393483.143995,can0 0CF00203 [8] 00 00 00 00 00 00 00 00
1531393483.146192,can0 08FF0303 [8] 00 00 00 00 00 00 00 00
1531393483.15574,can0 18F00503 [8] 00 00 00 00 00 00 00 00
1531393483.157863,can0 08FF0001 [8] 00 00 00 00 00 00 00 00
1531393483.167586,can0 0CF00203 [8] 00 00 00 00 00 00 00 00
1531393483.169471,can0 08FF0303 [8] 00 00 00 00 00 00 00 00
1531393483.179077,can0 08FF0001 [8] 00 00 00 00 00 00 00 00
1531393483.18059,can0 0CF00203 [8] 00 00 00 00 00 00 00 00
1531393483.18202,can0 08FF0303 [8] 00 00 00 00 00 00 00 00
1531393483.195797,can0 08FF0001 [8] 00 00 00 00 00 00 00 00
1531393483.19744,can0 0CF00203 [8] 00 00 00 00 00 00 00 00
1531393483.209686,can0 08FF0303 [8] 00 00 00 00 00 00 00 00
1531393483.210323,can0 18F00503 [8] 00 00 00 00 00 00 00 00
1531393483.210791,can0 08FF0001 [8] 00 00 00 00 00 00 00 00
1531393483.211205,can0 0CF00203 [8] 00 00 00 00 00 00 00 00
1531393483.219637,can0 08FF0303 [8] 00 00 00 00 00 00 00 00
1531393483.220354,can0 08FF0001 [8] 00 00 00 00 00 00 00 00
1531393483.220851,can0 0CF00203 [8] 00 00 00 00 00 00 00 00
1531393483.221373,can0 08FF0303 [8] 00 00 00 00 00 00 00 00
1531393483.221916,can0 08FF0001 [8] 00 00 00 00 00 00 00 00
1531393483.222427,can0 0CF00203 [8] 00 00 00 00 00 00 00 00
1531393483.222855,can0 08FF0303 [8] 00 00 00 00 00 00 00 00
1531393483.231386,can0 08FF0001 [8] 00 00 00 00 00 00 00 00
1531393483.23221,can0 0CF00203 [8] 00 00 00 00 00 00 00 00
1531393483.232818,can0 08FF0303 [8] 00 00 00 00 00 00 00 00
1531393483.233466,can0 08FF0001 [8] 00 00 00 00 00 00 00 00
1531393483.233983,can0 0CF00203 [8] 00 00 00 00 00 00 00 00
1531393483.23447,can0 08FF0303 [8] 00 00 00 00 00 00 00 00
1531393483.242943,can0 08FF0001 [8] 00 00 00 00 00 00 00 00
1531393483.243711,can0 0CF00203 [8] 00 00 00 00 00 00 00 00
1531393483.244256,can0 08FF0303 [8] 00 00 00 00 00 00 00 00
1531393483.244864,can0 08FF0001 [8] 00 00 00 00 00 00 00 00
1531393483.245419,can0 0CF00203 [8] 00 00 00 00 00 00 00 00
1531393483.245917,can0 08FF0303 [8] 00 00 00 00 00 00 00 00
1531393483.246346,can0 08FF0001 [8] 00 00 00 00 00 00 00 00
1531393483.254814,can0 0CF00203 [8] 00 00 00 00 00 00 00 00
1531393483.25551,can0 08FF0303 [8] 00 00 00 00 00 00 00 00
1531393483.256078,can0 08FF0001 [8] 00 00 00 00 00 00 00 00
1531393483.256659,can0 0CF00203 [8] 00 00 00 00 00 00 00 00
1531393483.257171,can0 08FF0303 [8] 00 00 00 00 00 00 00 00
1531393483.257648,can0 08FF0001 [8] 00 00 00 00 00 00 00 00
1531393483.258069,can0 0CF00203 [8] 00 00 00 00 00 00 00 00
1531393483.266591,can0 08FF0303 [8] 00 00 00 00 00 00 00 00
1531393483.267236,can0 08FF0001 [8] 00 00 00 00 00 00 00 00
1531393483.267775,can0 0CF00203 [8] 00 00 00 00 00 00 00 00
1531393483.268345,can0 08FF0303 [8] 00 00 00 00 00 00 00 00
1531393483.268862,can0 08FF0001 [8] 00 00 00 00 00 00 00 00
1531393483.269348,can0 0CF00203 [8] 00 00 00 00 00 00 00 00
1531393483.269847,can0 08FF0303 [8] 00 00 00 00 00 00 00 00
1531393483.278277,can0 08FF0001 [8] 00 00 00 00 00 00 00 00
1531393483.278857,can0 0CF00203 [8] 00 00 00 00 00 00 00 00
1531393483.279306,can0 08FF0303 [8] 00 00 00 00 00 00 00 00
1531393483.279725,can0 08FF0001 [8] 00 00 00 00 00 00 00 00
1531393483.280225,can0 0CF00203 [8] 00 00 00 00 00 00 00 00
1531393483.28065,can0 08FF0303 [8] 00 00 00 00 00 00 00 00
1531393483.281046,can0 08FF0001 [8] 00 00 00 00 00 00 00 00
1531393483.281438,can0 0CF00203 [8] 00 00 00 00 00 00 00 00
1531393483.285949,can0 08FF0303 [8] 00 00 00 00 00 00 00 00
1531393483.286493,can0 08FF0001 [8] 00 00 00 00 00 00 00 00
1531393483.286942,can0 0CF00203 [8] 00 00 00 00 00 00 00 00
1531393483.287347,can0 08FF0303 [8] 00 00 00 00 00 00 00 00
1531393483.287815,can0 08FF0001 [8] 00 00 00 00 00 00 00 00
1531393483.288246,can0 0CF00203 [8] 00 00 00 00 00 00 00 00
1531393483.288656,can0 08FF0303 [8] 00 00 00 00 00 00 00 00
1531393483.289054,can0 18F00503 [8] 00 00 00 00 00 00 00 00
1531393483.289442,can0 08FF0001 [8] 00 00 00 00 00 00 00 00
1531393483.293957,can0 0CF00203 [8] 00 00 00 00 00 00 00 00
1531393483.294455,can0 08FF0303 [8] 00 00 00 00 00 00 00 00
1531393483.294967,can0 08FF0001 [8] 00 00 00 00 00 00 00 00
1531393483.295456,can0 0CF00203 [8] 00 00 00 00 00 00 00 00
1531393483.296016,can0 08FF0303 [8] 00 00 00 00 00 00 00 00
1531393483.296444,can0 08FF0001 [8] 00 00 00 00 00 00 00 00
1531393483.296851,can0 0CF00203 [8] 00 00 00 00 00 00 00 00
1531393483.29724,can0 08FF0303 [8] 00 00 00 00 00 00 00 00
1531393483.301734,can0 18F00503 [8] 00 00 00 00 00 00 00 00
1531393483.302324,can0 08FF0001 [8] 00 00 00 00 00 00 00 00
1531393483.302849,can0 0CF00203 [8] 00 00 00 00 00 00 00 00
1531393483.304563,can0 08FF0303 [8] 00 00 00 00 00 00 00 00
1531393483.307475,can0 08FF0001 [8] 00 00 00 00 00 00 00 00
1531393483.308036,can0 0CF00203 [8] 00 00 00 00 00 00 00 00
1531393483.308486,can0 08FF0303 [8] 00 00 00 00 00 00 00 00
1531393483.308904,can0 08FF0001 [8] 00 00 00 00 00 00 00 00
1531393483.309405,can0 0CF00203 [8] 00 00 00 00 00 00 00 00
1531393483.309834,can0 08FF0303 [8] 00 00 00 00 00 00 00 00
1531393483.310236,can0 08FF0001 [8] 00 00 00 00 00 00 00 00
1531393483.310623,can0 0CF00203 [8] 00 00 00 00 00 00 00 00
1531393483.311004,can0 08FF0303 [8] 00 00 00 00 00 00 00 00
1531393483.315562,can0 08FF0001 [8] 00 00 00 00 00 00 00 00
1531393483.316129,can0 0CF00203 [8] 00 00 00 00 00 00 00 00
1531393483.316561,can0 08FF0303 [8] 00 00 00 00 00 00 00 00
1531393483.31702,can0 08FF0001 [8] 00 00 00 00 00 00 00 00
1531393483.317464,can0 0CF00203 [8] 00 00 00 00 00 00 00 00
1531393483.317873,can0 08FF0303 [8] 00 00 00 00 00 00 00 00
1531393483.318268,can0 08FF0001 [8] 00 00 00 00 00 00 00 00
1531393483.318656,can0 0CF00203 [8] 00 00 00 00 00 00 00 00
1531393483.323123,can0 08FF0303 [8] 00 00 00 00 00 00 00 00
1531393483.32372,can0 08FF0001 [8] 00 00 00 00 00 00 00 00
1531393483.324256,can0 0CF00203 [8] 00 00 00 00 00 00 00 00
1531393483.324854,can0 08FF0303 [8] 00 00 00 00 00 00 00 00
1531393483.32542,can0 08FF0001 [8] 00 00 00 00 00 00 00 00
1531393483.325951,can0 0CF00203 [8] 00 00 00 00 00 00 00 00
1531393483.326379,can0 08FF0303 [8] 00 00 00 00 00 00 00 00
1531393483.330875,can0 08FF0001 [8] 00 00 00 00 00 00 00 00
1531393483.331385,can0 0CF00203 [8] 00 00 00 00 00 00 00 00
1531393483.331933,can0 08FF0303 [8] 00 00 00 00 00 00 00 00
1531393483.332432,can0 08FF0001 [8] 00 00 00 00 00 00 00 00
1531393483.33294,can0 0CF00203 [8] 00 00 00 00 00 00 00 00
1531393483.333491,can0 08FF0303 [8] 00 00 00 00 00 00 00 00
1531393483.333983,can0 08FF0001 [8] 00 00 00 00 00 00 00 00
1531393483.334476,can0 0CF00203 [8] 00 00 00 00 00 00 00 00
1531393483.00608,can1 18FEF121 [8] 00 00 00 00 00 00 00 00
1531393483.018886,can1 18FEF131 [8] 00 00 00 00 00 00 00 00
1531393483.020822,can1 18E00017 [8] 00 00 00 00 00 00 00 00
1531393483.030729,can1 18E00019 [8] 00 00 00 00 00 00 00 00
1531393483.032792,can1 18E00021 [8] 00 00 00 00 00 00 00 00
1531393483.042796,can1 18E00028 [8] 00 00 00 00 00 00 00 00
1531393483.044936,can1 18E00031 [8] 00 00 00 00 00 00 00 00
1531393483.057417,can1 0CFE6E0B [8] 00 00 00 00 00 00 00 00
1531393483.067269,can1 18FEF017 [8] 00 00 00 00 00 00 00 00
1531393483.069499,can1 0CF00400 [8] 38 FE FE FE FE 00 FF FE
1531393483.079234,can1 18FEF021 [8] 00 00 00 00 00 00 00 00
1531393483.080927,can1 0CF00203 [8] FF 00 00 FF FF AD 47 03
1531393483.082546,can1 18FEF028 [8] 00 00 00 00 00 00 00 00
1531393483.092689,can1 0CF00300 [8] D1 00 FE FF FF FF 00 FF
1531393483.10251,can1 18FEF031 [8] 00 00 00 00 00 00 00 00
1531393483.107263,can1 14FFA000 [8] FC FF FF FF FF FF FF FF
1531393483.116872,can1 18FEF200 [8] 00 00 00 00 00 00 FF FF
1531393483.118453,can1 0CF00400 [8] 38 FE FE FE FE 00 FF FE
1531393483.127751,can1 0CF00203 [8] FF 00 00 FF FF AD 47 03
1531393483.129346,can1 18FEDF00 [8] FE FE FE FF FE FF BF FF
1531393483.130834,can1 0CFE6E0B [8] 00 00 00 00 00 00 00 00
1531393483.140263,can1 0CFE6E0B [8] 00 00 00 00 00 00 00 00
1531393483.141996,can1 0CF00400 [8] 38 FE FE FE FE 00 FF FE
1531393483.151992,can1 0CF00203 [8] FF 00 00 FF FF AD 47 03
1531393483.154328,can1 0CF00400 [8] 38 FE FE FE FE 00 FF FE
1531393483.16435,can1 0CF00203 [8] FF 00 00 FF FF AD 47 03
1531393483.175167,can1 18FEF000 [8] FF FF FF 00 00 FC 00 FF
1531393483.17751,can1 0CFE6E0B [8] 00 00 00 00 00 00 00 00
1531393483.187857,can1 0CFE6E0B [8] 00 00 00 00 00 00 00 00
1531393483.189568,can1 0CF00400 [8] 38 FE FE FE FE 00 FF FE
1531393483.198995,can1 0CF00203 [8] FF 00 00 FF FF AD 47 03
1531393483.200449,can1 18FEE000 [8] A2 01 00 00 A2 01 00 00
1531393483.201706,can1 0CF00400 [8] 38 FE FE FE FE 00 FF FE
1531393483.212451,can1 0CF00203 [8] FF 00 00 FF FF AD 47 03
1531393483.213015,can1 0CF00300 [8] D1 00 FE FF FF FF 00 FF
1531393483.213598,can1 0CFE6E0B [8] 00 00 00 00 00 00 00 00
1531393483.21413,can1 18FEF100 [8] C3 00 00 D0 00 00 00 30
1531393483.214628,can1 0CFE6E0B [8] 00 00 00 00 00 00 00 00
1531393483.215106,can1 18F0010B [8] CF FF F0 FF FF DC FF FF
1531393483.223645,can1 0CF00400 [8] 38 FE FE FE FE 00 FF FE
1531393483.224297,can1 0CF00203 [8] FF 00 00 FF FF AD 47 03
1531393483.224872,can1 18FEDF00 [8] FE FE FE FF FE FF BF FF
1531393483.225482,can1 18FE4A03 [8] FF FF F3 FF F0 F7 FF FF
1531393483.226043,can1 18F00503 [8] FF 57 9E FF 20 2D 2D 2D
1531393483.226465,can1 18FEBF0B [8] 00 00 7D 7D 7D 7D FF FF
1531393483.22686,can1 0CF00400 [8] 38 FE FE FE FE 00 FF FE
1531393483.235294,can1 0CF00203 [8] FF 00 00 FF FF AD 47 03
1531393483.239256,can1 0CFE6E0B [8] 00 00 00 00 00 00 00 00
1531393483.239911,can1 18F00100 [8] FF FF FF FF FA FF FF FF
1531393483.240415,can1 0CFE6E0B [8] 00 00 00 00 00 00 00 00
1531393483.240934,can1 18F00131 [8] 00 00 00 00 00 00 00 00
1531393483.241383,can1 18F0010B [8] 00 00 00 00 00 00 00 00
1531393483.241884,can1 0CF00400 [8] 38 FE FE FE FE 00 FF FE
1531393483.242318,can1 18FEF117 [8] 00 00 00 00 00 00 00 00
1531393483.250793,can1 0CF00203 [8] FF 00 00 FF FF AD 47 03
1531393483.251537,can1 18FEF121 [8] 00 00 00 00 00 00 00 00
1531393483.25219,can1 18F0000F [8] 00 7D FF FF 0F 7D FF FF
1531393483.252841,can1 18FEF128 [8] 00 00 00 00 00 00 00 00
1531393483.253406,can1 18FEF131 [8] 00 00 00 00 00 00 00 00
1531393483.253947,can1 18E00017 [8] 00 00 00 00 00 00 00 00
1531393483.254429,can1 18E00019 [8] 00 00 00 00 00 00 00 00
1531393483.263337,can1 18E00021 [8] 00 00 00 00 00 00 00 00
1531393483.26395,can1 18E00028 [8] 00 00 00 00 00 00 00 00
1531393483.264553,can1 18E00031 [8] 00 00 00 00 00 00 00 00
1531393483.265154,can1 18FEF017 [8] 00 00 00 00 00 00 00 00
1531393483.265703,can1 18FEF021 [8] 00 00 00 00 00 00 00 00
1531393483.274297,can1 18FEF028 [8] 00 00 00 00 00 00 00 00
1531393483.275347,can1 18FEF031 [8] 00 00 00 00 00 00 00 00
1531393483.276121,can1 0CF00400 [8] 38 FE FE FE FE 00 FF FE
1531393483.276631,can1 0CF00203 [8] FF 00 00 FF FF AD 47 03
1531393483.277142,can1 18FF3000 [8] 00 00 FF FF FF FF FF FF
1531393483.277629,can1 0CFE6E0B [8] 00 00 00 00 00 00 00 00
1531393483.282191,can1 18F00131 [8] 00 00 00 00 00 00 00 00
1531393483.282822,can1 18F0010B [8] 00 00 00 00 00 00 00 00
1531393483.283381,can1 18FEF117 [8] 00 00 00 00 00 00 00 00
1531393483.28394,can1 18FEF128 [8] 00 00 00 00 00 00 00 00
1531393483.284444,can1 18FEF121 [8] 00 00 00 00 00 00 00 00
1531393483.28497,can1 18FEF131 [8] 00 00 00 00 00 00 00 00
1531393483.285447,can1 18E00017 [8] 00 00 00 00 00 00 00 00
1531393483.289909,can1 18E00019 [8] 00 00 00 00 00 00 00 00
1531393483.29041,can1 18E00021 [8] 00 00 00 00 00 00 00 00
1531393483.29084,can1 18E00028 [8] 00 00 00 00 00 00 00 00
1531393483.291242,can1 18E00031 [8] 00 00 00 00 00 00 00 00
1531393483.291695,can1 0CFE6E0B [8] 00 00 00 00 00 00 00 00
1531393483.29225,can1 18FEF017 [8] 00 00 00 00 00 00 00 00
1531393483.292739,can1 18FEF021 [8] 00 00 00 00 00 00 00 00
1531393483.293244,can1 0CF00400 [8] 38 FE FE FE FE 00 FF FE
1531393483.297685,can1 18FEF028 [8] 00 00 00 00 00 00 00 00
1531393483.298202,can1 0CF00203 [8] FF 00 00 FF FF AD 47 03
1531393483.298637,can1 18FEF031 [8] 00 00 00 00 00 00 00 00
1531393483.299046,can1 0CF00300 [8] D1 00 FE FF FF FF 00 FF
1531393483.299507,can1 14FFA000 [8] FC FF FF FF FF FF FF FF
1531393483.299936,can1 18FEF200 [8] 00 00 00 00 00 00 FF FF
1531393483.30034,can1 0CF00400 [8] 38 FE FE FE FE 00 FF FE
1531393483.300733,can1 0CF00203 [8] FF 00 00 FF FF AD 47 03
1531393483.301111,can1 18FEDF00 [8] FE FE FE FF FE FF BF FF
1531393483.305724,can1 0CFE6E0B [8] 00 00 00 00 00 00 00 00
1531393483.306408,can1 0CFE6E0B [8] 00 00 00 00 00 00 00 00
1531393483.306869,can1 0CF00400 [8] 38 FE FE FE FE 00 FF FE
1531393483.311356,can1 0CF00203 [8] FF 00 00 FF FF AD 47 03
1531393483.312014,can1 0CF00400 [8] 38 FE FE FE FE 00 FF FE
1531393483.312551,can1 0CF00203 [8] FF 00 00 FF FF AD 47 03
1531393483.313123,can1 18FEF000 [8] FF FF FF 00 00 FC 00 FF
1531393483.313649,can1 0CFE6E0B [8] 00 00 00 00 00 00 00 00
1531393483.31414,can1 0CFE6E0B [8] 00 00 00 00 00 00 00 00
1531393483.314613,can1 0CF00400 [8] 38 FE FE FE FE 00 FF FE
1531393483.319124,can1 0CF00203 [8] FF 00 00 FF FF AD 47 03
1531393483.319643,can1 18FEE000 [8] A2 01 00 00 A2 01 00 00
1531393483.32009,can1 0CF00400 [8] 38 FE FE FE FE 00 FF FE
1531393483.32051,can1 0CF00203 [8] FF 00 00 FF FF AD 47 03
1531393483.320973,can1 0CF00300 [8] D1 00 FE FF FF FF 00 FF
1531393483.321406,can1 0CFE6E0B [8] 00 00 00 00 00 00 00 00
1531393483.321893,can1 18FEF100 [8] C3 00 00 D0 00 00 00 30
1531393483.322314,can1 0CFE6E0B [8] 00 00 00 00 00 00 00 00
1531393483.322783,can1 0CF00400 [8] 38 FE FE FE FE 00 FF FE
1531393483.327371,can1 18F0010B [8] CF FF F0 FF FF DC FF FF
1531393483.327914,can1 0CF00203 [8] FF 00 00 FF FF AD 47 03
1531393483.328416,can1 18FEDF00 [8] FE FE FE FF FE FF BF FF
1531393483.328913,can1 18FE4A03 [8] FF FF F3 FF F0 F7 FF FF
1531393483.329343,can1 18F00503 [8] FF 57 9E FF 20 2D 2D 2D
1531393483.329744,can1 0CF00400 [8] 38 FE FE FE FE 00 FF FE
1531393483.330134,can1 18FEBF0B [8] 00 00 7D 7D 7D 7D FF FF
1531393483.330524,can1 0CF00203 [8] FF 00 00 FF FF AD 47 03
1531393483.335124,can1 0CFE6E0B [8] 00 00 00 00 00 00 00 00
1531393483.335738,can1 18F00100 [8] FF FF FF FF FA FF FF FF
1531393483.336615,can1 0CFE6E0B [8] 00 00 00 00 00 00 00 00
1531393483.337122,can1 18F00131 [8] 00 00 00 00 00 00 00 00
1531393483.337632,can1 18F0010B [8] 00 00 00 00 00 00 00 00
1531393483.338054,can1 0CF00400 [8] 38 FE FE FE FE 00 FF FE
1531393483.338446,can1 18FEF117 [8] 00 00 00 00 00 00 00 00
1531393483.338938,can1 0CF00203 [8] FF 00 00 FF FF AD 47 03
1531393483.339338,can1 18FEF121 [8] 00 00 00 00 00 00 00 00
1531393483.339724,can1 18F0000F [8] 00 7D FF FF 0F 7D FF FF
1531393483.340105,can1 18FEF128 [8] 00 00 00 00 00 00 00 00
1531393483.344552,can1 18FEF131 [8] 00 00 00 00 00 00 00 00
1531393483.345934,can1 18E00017 [8] 00 00 00 00 00 00 00 00
1531393483.34665,can1 18E00019 [8] 00 00 00 00 00 00 00 00
1531393483.347137,can1 18E00021 [8] 00 00 00 00 00 00 00 00
1531393483.347565,can1 18E00028 [8] 00 00 00 00 00 00 00 00
1531393483.347968,can1 18E00031 [8] 00 00 00 00 00 00 00 00
1531393483.352532,can1 18FEF017 [8] 00 00 00 00 00 00 00 00
1531393483.353189,can1 18FEF021 [8] 00 00 00 00 00 00 00 00
1531393483.35375,can1 18FEF028 [8] 00 00 00 00 00 00 00 00
1531393483.354301,can1 18FEF031 [8] 00 00 00 00 00 00 00 00
1531393483.354839,can1 0CF00400 [8] 38 FE FE FE FE 00 FF FE
1531393483.355379,can1 0CF00203 [8] FF 00 00 FF FF AD 47 03
1531393483.355807,can1 18FF3000 [8] 00 00 FF FF FF FF FF FF
1531393483.360451,can1 0CFE6E0B [8] 00 00 00 00 00 00 00 00
1531393483.361029,can1 18F00131 [8] 00 00 00 00 00 00 00 00
1531393483.361537,can1 18F0010B [8] 00 00 00 00 00 00 00 00
1531393483.362138,can1 18FEF117 [8] 00 00 00 00 00 00 00 00
1531393483.362695,can1 18FEF128 [8] 00 00 00 00 00 00 00 00
1531393483.363178,can1 18FEF121 [8] 00 00 00 00 00 00 00 00
1531393483.363649,can1 18FEF131 [8] 00 00 00 00 00 00 00 00
1531393483.368243,can1 18E00017 [8] 00 00 00 00 00 00 00 00
1531393483.368827,can1 18E00019 [8] 00 00 00 00 00 00 00 00
1531393483.369331,can1 18E00021 [8] 00 00 00 00 00 00 00 00
1531393483.369873,can1 18E00028 [8] 00 00 00 00 00 00 00 00
1531393483.37038,can1 18E00031 [8] 00 00 00 00 00 00 00 00
1531393483.370812,can1 0CFE6E0B [8] 00 00 00 00 00 00 00 00
1531393483.37129,can1 18FEF017 [8] 00 00 00 00 00 00 00 00
1531393483.375881,can1 18FEF021 [8] 00 00 00 00 00 00 00 00
1531393483.376524,can1 0CF00400 [8] 38 FE FE FE FE 00 FF FE
1531393483.377052,can1 18FEF028 [8] 00 00 00 00 00 00 00 00
1531393483.377607,can1 0CF00203 [8] FF 00 00 FF FF AD 47 03
1531393483.378115,can1 18FEF031 [8] 00 00 00 00 00 00 00 00
1531393483.378586,can1 0CF00300 [8] D1 00 FE FF FF FF 00 FF
1531393483.379009,can1 14FFA000 [8] FC FF FF FF FF FF FF FF
1531393483.383465,can1 18FEF200 [8] 00 00 00 00 00 00 FF FF
1531393483.384103,can1 0CF00400 [8] 38 FE FE FE FE 00 FF FE
1531393483.38463,can1 0CF00203 [8] FF 00 00 FF FF AD 47 03
1531393483.385181,can1 18FEDF00 [8] FE FE FE FF FE FF BF FF
1531393483.385793,can1 0CFE6E0B [8] 00 00 00 00 00 00 00 00
1531393483.386333,can1 0CFE6E0B [8] 00 00 00 00 00 00 00 00
1531393483.386742,can1 0CF00400 [8] 38 FE FE FE FE 00 FF FE
1531393483.387139,can1 0CF00203 [8] FF 00 00 FF FF AD 47 03
1531393483.391609,can1 0CF00400 [8] 38 FE FE FE FE 00 FF FE
1531393483.392215,can1 0CF00203 [8] FF 00 00 FF FF AD 47 03
1531393483.392718,can1 18FEF000 [8] FF FF FF 00 00 FC 00 FF
1531393483.39328,can1 0CFE6E0B [8] 00 00 00 00 00 00 00 00
1531393483.393805,can1 0CFE6E0B [8] 00 00 00 00 00 00 00 00
1531393483.3943,can1 0CF00400 [8] 38 FE FE FE FE 00 FF FE
1531393483.394827,can1 0CF00203 [8] FF 00 00 FF FF AD 47 03
1531393483.399288,can1 18FEE000 [8] A2 01 00 00 A2 01 00 00
1531393483.399814,can1 0CF00400 [8] 38 FE FE FE FE 00 FF FE
1531393483.400256,can1 0CF00203 [8] FF 00 00 FF FF AD 47 03
1531393483.400665,can1 0CF00300 [8] D1 00 FE FF FF FF 00 FF
1531393483.401127,can1 0CFE6E0B [8] 00 00 00 00 00 00 00 00
1531393483.401553,can1 18FEF100 [8] C3 00 00 D0 00 00 00 30
1531393483.402043,can1 0CFE6E0B [8] 00 00 00 00 00 00 00 00
1531393483.402526,can1 0CF00400 [8] 38 FE FE FE FE 00 FF FE
1531393483.406957,can1 18F0010B [8] CF FF F0 FF FF DC FF FF
1531393483.407522,can1 0CF00203 [8] FF 00 00 FF FF AD 47 03
1531393483.407975,can1 18FEDF00 [8] FE FE FE FF FE FF BF FF
1531393483.408384,can1 18FE4A03 [8] FF FF F3 FF F0 F7 FF FF
1531393483.408849,can1 18F00503 [8] FF 57 9E FF 20 2D 2D 2D
1531393483.409291,can1 0CF00400 [8] 38 FE FE FE FE 00 FF FE
1531393483.409694,can1 18FEBF0B [8] 00 00 7D 7D 7D 7D FF FF
1531393483.410085,can1 0CF00203 [8] FF 00 00 FF FF AD 47 03
1531393483.410476,can1 0CFE6E0B [8] 00 00 00 00 00 00 00 00
1531393483.41885,can1 18F00100 [8] FF FF FF FF FA FF FF FF
1531393483.419421,can1 0CFE6E0B [8] 00 00 00 00 00 00 00 00
1531393483.419866,can1 18F00131 [8] 00 00 00 00 00 00 00 00
1531393483.420278,can1 18F0010B [8] 00 00 00 00 00 00 00 00
1531393483.420788,can1 0CF00400 [8] 38 FE FE FE FE 00 FF FE
1531393483.421222,can1 18FEF117 [8] 00 00 00 00 00 00 00 00
1531393483.421621,can1 0CF00203 [8] FF 00 00 FF FF AD 47 03
1531393483.422124,can1 18FEF121 [8] 00 00 00 00 00 00 00 00
1531393483.426654,can1 18F0000F [8] 00 7D FF FF 0F 7D FF FF
1531393483.427272,can1 18FEF128 [8] 00 00 00 00 00 00 00 00
1531393483.427794,can1 18FEF131 [8] 00 00 00 00 00 00 00 00
1531393483.428214,can1 18E00017 [8] 00 00 00 00 00 00 00 00
1531393483.428712,can1 18E00019 [8] 00 00 00 00 00 00 00 00
1531393483.429125,can1 18E00021 [8] 00 00 00 00 00 00 00 00
1531393483.429517,can1 18E00028 [8] 00 00 00 00 00 00 00 00
1531393483.4299,can1 18E00031 [8] 00 00 00 00 00 00 00 00
1531393483.434348,can1 18FEF017 [8] 00 00 00 00 00 00 00 00
1531393483.435012,can1 18FEF021 [8] 00 00 00 00 00 00 00 00
1531393483.435587,can1 18FEF028 [8] 00 00 00 00 00 00 00 00
1531393483.436177,can1 18FEF031 [8] 00 00 00 00 00 00 00 00
1531393483.438028,can1 0CF00400 [8] 38 FE FE FE FE 00 FF FE
1531393483.438794,can1 0CF00203 [8] FF 00 00 FF FF AD 47 03
1531393483.439256,can1 18FF3000 [8] 00 00 FF FF FF FF FF FF
1531393483.439676,can1 0CFE6E0B [8] 00 00 00 00 00 00 00 00
1531393483.444129,can1 18F00131 [8] 00 00 00 00 00 00 00 00
1531393483.444901,can1 18F0010B [8] 00 00 00 00 00 00 00 00
1531393483.445477,can1 18FEF117 [8] 00 00 00 00 00 00 00 00
1531393483.446707,can1 18FEF128 [8] 00 00 00 00 00 00 00 00
1531393483.447204,can1 18FEF121 [8] 00 00 00 00 00 00 00 00
1531393483.447632,can1 18FEF131 [8] 00 00 00 00 00 00 00 00
1531393483.44811,can1 18E00017 [8] 00 00 00 00 00 00 00 00
1531393483.448524,can1 18E00019 [8] 00 00 00 00 00 00 00 00
1531393483.448927,can1 18E00021 [8] 00 00 00 00 00 00 00 00
1531393483.449316,can1 18E00028 [8] 00 00 00 00 00 00 00 00
1531393483.4497,can1 18E00031 [8] 00 00 00 00 00 00 00 00
1531393483.454278,can1 0CFE6E0B [8] 00 00 00 00 00 00 00 00
1531393483.454868,can1 18FEF017 [8] 00 00 00 00 00 00 00 00
1531393483.455389,can1 18FEF021 [8] 00 00 00 00 00 00 00 00
1531393483.455989,can1 0CF00400 [8] 38 FE FE FE FE 00 FF FE
1531393483.456499,can1 18FEF028 [8] 00 00 00 00 00 00 00 00
1531393483.456927,can1 0CF00203 [8] FF 00 00 FF FF AD 47 03
1531393483.457397,can1 18FEF031 [8] 00 00 00 00 00 00 00 00
1531393483.461992,can1 0CF00300 [8] D1 00 FE FF FF FF 00 FF
1531393483.462617,can1 14FFA000 [8] FC FF FF FF FF FF FF FF
1531393483.463168,can1 18FEF200 [8] 00 00 00 00 00 00 FF FF
1531393483.463724,can1 0CF00400 [8] 38 FE FE FE FE 00 FF FE
1531393483.464227,can1 0CF00203 [8] FF 00 00 FF FF AD 47 03
1531393483.464739,can1 18FEDF00 [8] FE FE FE FF FE FF BF FF
1531393483.465157,can1 0CFE6E0B [8] 00 00 00 00 00 00 00 00
1531393483.469768,can1 0CFE6E0B [8] 00 00 00 00 00 00 00 00
1531393483.470333,can1 0CF00400 [8] 38 FE FE FE FE 00 FF FE
1531393483.470846,can1 0CF00203 [8] FF 00 00 FF FF AD 47 03
1531393483.471384,can1 0CF00400 [8] 38 FE FE FE FE 00 FF FE
1531393483.475711,can1 0CF00203 [8] FF 00 00 FF FF AD 47 03
1531393483.476563,can1 18FEF000 [8] FF FF FF 00 00 FC 00 FF
1531393483.477198,can1 0CFE6E0B [8] 00 00 00 00 00 00 00 00
1531393483.477743,can1 0CFE6E0B [8] 00 00 00 00 00 00 00 00
1531393483.478235,can1 0CF00400 [8] 38 FE FE FE FE 00 FF FE
1531393483.483328,can1 0CF00203 [8] FF 00 00 FF FF AD 47 03
1531393483.483996,can1 18FEE000 [8] A2 01 00 00 A2 01 00 00
1531393483.48454,can1 0CF00400 [8] 38 FE FE FE FE 00 FF FE
1531393483.485166,can1 1CECFF0F [8] 20 13 00 03 FF E1 FE 00
1531393483.485743,can1 0CFE6E0B [8] 00 00 00 00 00 00 00 00
1531393483.486234,can1 0CF00203 [8] FF 00 00 FF FF AD 47 03
1531393483.486639,can1 0CF00300 [8] D1 00 FE FF FF FF 00 FF
1531393483.491075,can1 18FEF100 [8] C3 00 00 D0 00 00 00 30
1531393483.491588,can1 18FDE000 [8] FF FF FF FF FF FF FF FF
1531393483.492147,can1 18FF6000 [8] 36 01 00 C8 1F 0A 3C FC
1531393483.492642,can1 1CFEAB03 [8] FF FF 7E FF FF FF FF FF
1531393483.49324,can1 0CFE6E0B [8] 00 00 00 00 00 00 00 00
1531393483.341581,can0 08FF0303 [8] 00 00 00 00 00 00 00 00
1531393483.342273,can0 08FF0001 [8] 00 00 00 00 00 00 00 00
1531393483.34294,can0 0CF00203 [8] 00 00 00 00 00 00 00 00
1531393483.343501,can0 08FF0303 [8] 00 00 00 00 00 00 00 00
1531393483.344,can0 08FF0001 [8] 00 00 00 00 00 00 00 00
1531393483.34865,can0 0CF00203 [8] 00 00 00 00 00 00 00 00
1531393483.349175,can0 08FF0303 [8] 00 00 00 00 00 00 00 00
1531393483.349611,can0 08FF0001 [8] 00 00 00 00 00 00 00 00
1531393483.350027,can0 0CF00203 [8] 00 00 00 00 00 00 00 00
1531393483.350627,can0 08FF0303 [8] 00 00 00 00 00 00 00 00
1531393483.351058,can0 08FF0001 [8] 00 00 00 00 00 00 00 00
1531393483.35146,can0 0CF00203 [8] 00 00 00 00 00 00 00 00
1531393483.351969,can0 08FF0303 [8] 00 00 00 00 00 00 00 00
1531393483.356606,can0 08FF0001 [8] 00 00 00 00 00 00 00 00
1531393483.357156,can0 0CF00203 [8] 00 00 00 00 00 00 00 00
1531393483.357752,can0 08FF0303 [8] 00 00 00 00 00 00 00 00
1531393483.358327,can0 18F00503 [8] 00 00 00 00 00 00 00 00
1531393483.358851,can0 08FF0001 [8] 00 00 00 00 00 00 00 00
1531393483.359278,can0 0CF00203 [8] 00 00 00 00 00 00 00 00
1531393483.359826,can0 08FF0303 [8] 00 00 00 00 00 00 00 00
1531393483.364399,can0 08FF0001 [8] 00 00 00 00 00 00 00 00
1531393483.365162,can0 0CF00203 [8] 00 00 00 00 00 00 00 00
1531393483.365736,can0 08FF0303 [8] 00 00 00 00 00 00 00 00
1531393483.366494,can0 08FF0001 [8] 00 00 00 00 00 00 00 00
1531393483.367007,can0 0CF00203 [8] 00 00 00 00 00 00 00 00
1531393483.367587,can0 08FF0303 [8] 00 00 00 00 00 00 00 00
1531393483.372193,can0 18F00503 [8] 00 00 00 00 00 00 00 00
1531393483.372889,can0 08FF0001 [8] 00 00 00 00 00 00 00 00
1531393483.373463,can0 0CF00203 [8] 00 00 00 00 00 00 00 00
1531393483.374114,can0 08FF0303 [8] 00 00 00 00 00 00 00 00
1531393483.374625,can0 08FF0001 [8] 00 00 00 00 00 00 00 00
1531393483.37518,can0 0CF00203 [8] 00 00 00 00 00 00 00 00
1531393483.379709,can0 08FF0303 [8] 00 00 00 00 00 00 00 00
1531393483.380316,can0 08FF0001 [8] 00 00 00 00 00 00 00 00
1531393483.380755,can0 0CF00203 [8] 00 00 00 00 00 00 00 00
1531393483.381229,can0 08FF0303 [8] 00 00 00 00 00 00 00 00
1531393483.381744,can0 08FF0001 [8] 00 00 00 00 00 00 00 00
1531393483.382338,can0 0CF00203 [8] 00 00 00 00 00 00 00 00
1531393483.382848,can0 08FF0303 [8] 00 00 00 00 00 00 00 00
1531393483.387389,can0 08FF0001 [8] 00 00 00 00 00 00 00 00
1531393483.387921,can0 0CF00203 [8] 00 00 00 00 00 00 00 00
1531393483.388372,can0 08FF0303 [8] 00 00 00 00 00 00 00 00
1531393483.388779,can0 08FF0001 [8] 00 00 00 00 00 00 00 00
1531393483.389172,can0 0CF00203 [8] 00 00 00 00 00 00 00 00
1531393483.389661,can0 08FF0303 [8] 00 00 00 00 00 00 00 00
1531393483.390072,can0 08FF0001 [8] 00 00 00 00 00 00 00 00
1531393483.390468,can0 0CF00203 [8] 00 00 00 00 00 00 00 00
1531393483.390864,can0 08FF0303 [8] 00 00 00 00 00 00 00 00
1531393483.395346,can0 08FF0001 [8] 00 00 00 00 00 00 00 00
1531393483.396084,can0 0CF00203 [8] 00 00 00 00 00 00 00 00
1531393483.396564,can0 08FF0303 [8] 00 00 00 00 00 00 00 00
1531393483.396991,can0 08FF0001 [8] 00 00 00 00 00 00 00 00
1531393483.397499,can0 0CF00203 [8] 00 00 00 00 00 00 00 00
1531393483.397988,can0 08FF0303 [8] 00 00 00 00 00 00 00 00
1531393483.398398,can0 08FF0001 [8] 00 00 00 00 00 00 00 00
1531393483.398796,can0 0CF00203 [8] 00 00 00 00 00 00 00 00
1531393483.403329,can0 08FF0303 [8] 00 00 00 00 00 00 00 00
1531393483.403978,can0 08FF0001 [8] 00 00 00 00 00 00 00 00
1531393483.404501,can0 0CF00203 [8] 00 00 00 00 00 00 00 00
1531393483.4052,can0 08FF0303 [8] 00 00 00 00 00 00 00 00
1531393483.405771,can0 08FF0001 [8] 00 00 00 00 00 00 00 00
1531393483.406366,can0 0CF00203 [8] 00 00 00 00 00 00 00 00
1531393483.406787,can0 08FF0303 [8] 00 00 00 00 00 00 00 00
1531393483.411319,can0 08FF0001 [8] 00 00 00 00 00 00 00 00
1531393483.411872,can0 0CF00203 [8] 00 00 00 00 00 00 00 00
1531393483.413902,can0 08FF0303 [8] 00 00 00 00 00 00 00 00
1531393483.414524,can0 08FF0001 [8] 00 00 00 00 00 00 00 00
1531393483.415425,can0 0CF00203 [8] 00 00 00 00 00 00 00 00
1531393483.415976,can0 08FF0303 [8] 00 00 00 00 00 00 00 00
1531393483.416495,can0 08FF0001 [8] 00 00 00 00 00 00 00 00
1531393483.417028,can0 0CF00203 [8] 00 00 00 00 00 00 00 00
1531393483.417455,can0 08FF0303 [8] 00 00 00 00 00 00 00 00
1531393483.41785,can0 08FF0001 [8] 00 00 00 00 00 00 00 00
1531393483.418242,can0 0CF00203 [8] 00 00 00 00 00 00 00 00
1531393483.422657,can0 08FF0303 [8] 00 00 00 00 00 00 00 00
1531393483.423279,can0 08FF0001 [8] 00 00 00 00 00 00 00 00
1531393483.423802,can0 0CF00203 [8] 00 00 00 00 00 00 00 00
1531393483.424536,can0 08FF0303 [8] 00 00 00 00 00 00 00 00
1531393483.425125,can0 18F00503 [8] 00 00 00 00 00 00 00 00
1531393483.425682,can0 08FF0001 [8] 00 00 00 00 00 00 00 00
1531393483.426162,can0 0CF00203 [8] 00 00 00 00 00 00 00 00
1531393483.430779,can0 08FF0303 [8] 00 00 00 00 00 00 00 00
1531393483.431246,can0 08FF0001 [8] 00 00 00 00 00 00 00 00
1531393483.431666,can0 0CF00203 [8] 00 00 00 00 00 00 00 00
1531393483.432267,can0 08FF0303 [8] 00 00 00 00 00 00 00 00
1531393483.432865,can0 08FF0001 [8] 00 00 00 00 00 00 00 00
1531393483.433437,can0 0CF00203 [8] 00 00 00 00 00 00 00 00
1531393483.433922,can0 08FF0303 [8] 00 00 00 00 00 00 00 00
1531393483.440411,can0 18F00503 [8] 00 00 00 00 00 00 00 00
1531393483.44099,can0 08FF0001 [8] 00 00 00 00 00 00 00 00
1531393483.441439,can0 0CF00203 [8] 00 00 00 00 00 00 00 00
1531393483.44196,can0 08FF0303 [8] 00 00 00 00 00 00 00 00
1531393483.442567,can0 08FF0001 [8] 00 00 00 00 00 00 00 00
1531393483.443207,can0 0CF00203 [8] 00 00 00 00 00 00 00 00
1531393483.443717,can0 08FF0303 [8] 00 00 00 00 00 00 00 00
1531393483.450228,can0 08FF0001 [8] 00 00 00 00 00 00 00 00
1531393483.450727,can0 0CF00203 [8] 00 00 00 00 00 00 00 00
1531393483.451238,can0 08FF0303 [8] 00 00 00 00 00 00 00 00
1531393483.451652,can0 08FF0001 [8] 00 00 00 00 00 00 00 00
1531393483.452283,can0 0CF00203 [8] 00 00 00 00 00 00 00 00
1531393483.452821,can0 08FF0303 [8] 00 00 00 00 00 00 00 00
1531393483.453341,can0 08FF0001 [8] 00 00 00 00 00 00 00 00
1531393483.45794,can0 0CF00203 [8] 00 00 00 00 00 00 00 00
1531393483.458539,can0 08FF0303 [8] 00 00 00 00 00 00 00 00
1531393483.459051,can0 08FF0001 [8] 00 00 00 00 00 00 00 00
1531393483.459719,can0 0CF00203 [8] 00 00 00 00 00 00 00 00
1531393483.46025,can0 08FF0303 [8] 00 00 00 00 00 00 00 00
1531393483.460748,can0 08FF0001 [8] 00 00 00 00 00 00 00 00
1531393483.46124,can0 0CF00203 [8] 00 00 00 00 00 00 00 00
1531393483.465696,can0 08FF0303 [8] 00 00 00 00 00 00 00 00
1531393483.466317,can0 08FF0001 [8] 00 00 00 00 00 00 00 00
1531393483.466871,can0 0CF00203 [8] 00 00 00 00 00 00 00 00
1531393483.467436,can0 08FF0303 [8] 00 00 00 00 00 00 00 00
1531393483.467963,can0 08FF0001 [8] 00 00 00 00 00 00 00 00
1531393483.468458,can0 0CF00203 [8] 00 00 00 00 00 00 00 00
1531393483.468928,can0 08FF0303 [8] 00 00 00 00 00 00 00 00
1531393483.472904,can0 08FF0001 [8] 00 00 00 00 00 00 00 00
1531393483.473903,can0 0CF00203 [8] 00 00 00 00 00 00 00 00
1531393483.474523,can0 08FF0303 [8] 00 00 00 00 00 00 00 00
1531393483.475104,can0 08FF0001 [8] 00 00 00 00 00 00 00 00
1531393483.480275,can0 0CF00203 [8] 00 00 00 00 00 00 00 00
1531393483.480787,can0 08FF0303 [8] 00 00 00 00 00 00 00 00
1531393483.481414,can0 08FF0001 [8] 00 00 00 00 00 00 00 00
1531393483.481975,can0 0CF00203 [8] 00 00 00 00 00 00 00 00
1531393483.482492,can0 08FF0303 [8] 00 00 00 00 00 00 00 00
1531393483.482923,can0 08FF0001 [8] 00 00 00 00 00 00 00 00
1531393483.487522,can0 0CF00203 [8] 00 00 00 00 00 00 00 00
1531393483.487987,can0 08FF0303 [8] 00 00 00 00 00 00 00 00
1531393483.488405,can0 08FF0001 [8] 00 00 00 00 00 00 00 00
1531393483.488805,can0 0CF00203 [8] 00 00 00 00 00 00 00 00
1531393483.489298,can0 08FF0303 [8] 00 00 00 00 00 00 00 00
1531393483.489705,can0 08FF0001 [8] 00 00 00 00 00 00 00 00
1531393483.490095,can0 0CF00203 [8] 00 00 00 00 00 00 00 00
1531393483.490487,can0 08FF0303 [8] 00 00 00 00 00 00 00 00
1531393483.494986,can0 08FF0001 [8] 00 00 00 00 00 00 00 00
1531393483.49431,can1 0CF00400 [8] 38 FE FE FE FE 00 FF FE
1531393483.498946,can1 18F0010B [8] CF FF F0 FF FF DC FF FF
1531393483.499495,can1 1CECFF00 [8] 20 27 00 06 FF E3 FE 00
1531393483.499937,can1 0CF00203 [8] FF 00 00 FF FF AD 47 03
1531393483.500341,can1 18FEDF00 [8] FE FE FE FF FE FF BF FF
1531393483.500823,can1 18FE4A03 [8] FF FF F3 FF F0 F7 FF FF
1531393483.501251,can1 18F00503 [8] FF 57 9E FF 20 2D 2D 2D
1531393483.50165,can1 18FEEF00 [8] FF FF FF FF FF FF FF FA
1531393483.502152,can1 0CF00400 [8] 38 FE FE FE FE 00 FF FE
1531393483.506782,can1 18FEBF0B [8] 00 00 7D 7D 7D 7D FF FF
1531393483.507413,can1 0CF00203 [8] FF 00 00 FF FF AD 47 03
1531393483.507878,can1 0CFE6E0B [8] 00 00 00 00 00 00 00 00
1531393483.508297,can1 18F00100 [8] FF FF FF FF FA FF FF FF
1531393483.512884,can1 18E0FF00 [8] FF FF FF FF FF F3 FF FF
1531393483.513481,can1 18FCDC00 [8] E0 FE FE FF FF FF FF FF
1531393483.513977,can1 0CFE6E0B [8] 00 00 00 00 00 00 00 00
1531393483.514514,can1 18F00131 [8] 00 00 00 00 00 00 00 00
1531393483.515069,can1 18F0010B [8] 00 00 00 00 00 00 00 00
1531393483.515598,can1 0CF00400 [8] 38 FE FE FE FE 00 FF FE
1531393483.516067,can1 18FEF117 [8] 00 00 00 00 00 00 00 00
1531393483.520552,can1 0CF00203 [8] FF 00 00 FF FF AD 47 03
1531393483.52101,can1 18FEF121 [8] 00 00 00 00 00 00 00 00
1531393483.521421,can1 18F0000F [8] 00 7D FF FF 0F 7D FF FF
1531393483.521906,can1 18FEF128 [8] 00 00 00 00 00 00 00 00
1531393483.522477,can1 18FEF131 [8] 00 00 00 00 00 00 00 00
1531393483.522918,can1 18E00017 [8] 00 00 00 00 00 00 00 00
1531393483.52346,can1 18E00019 [8] 00 00 00 00 00 00 00 00
1531393483.523868,can1 18E00021 [8] 00 00 00 00 00 00 00 00
1531393483.528429,can1 18E00028 [8] 00 00 00 00 00 00 00 00
1531393483.52889,can1 18E00031 [8] 00 00 00 00 00 00 00 00
1531393483.529302,can1 18FEF017 [8] 00 00 00 00 00 00 00 00
1531393483.529699,can1 18FEF021 [8] 00 00 00 00 00 00 00 00
1531393483.530176,can1 18FEF028 [8] 00 00 00 00 00 00 00 00
1531393483.530585,can1 18FEF031 [8] 00 00 00 00 00 00 00 00
1531393483.530984,can1 0CF00400 [8] 38 FE FE FE FE 00 FF FE
1531393483.531371,can1 0CF00203 [8] FF 00 00 FF FF AD 47 03
1531393483.531755,can1 18FF3000 [8] 00 00 FF FF FF FF FF FF
1531393483.53643,can1 0CFE6E0B [8] 00 00 00 00 00 00 00 00
1531393483.537143,can1 18F00131 [8] 00 00 00 00 00 00 00 00
1531393483.537583,can1 18F0010B [8] 00 00 00 00 00 00 00 00
1531393483.538087,can1 18FEF117 [8] 00 00 00 00 00 00 00 00
1531393483.538501,can1 18FEF128 [8] 00 00 00 00 00 00 00 00
1531393483.538886,can1 18FEF121 [8] 00 00 00 00 00 00 00 00
1531393483.539271,can1 18FEF131 [8] 00 00 00 00 00 00 00 00
1531393483.543731,can1 18E00017 [8] 00 00 00 00 00 00 00 00
1531393483.544338,can1 18E00019 [8] 00 00 00 00 00 00 00 00
1531393483.544905,can1 18E00021 [8] 00 00 00 00 00 00 00 00
1531393483.545443,can1 18E00028 [8] 00 00 00 00 00 00 00 00
1531393483.546068,can1 18E00031 [8] 00 00 00 00 00 00 00 00
1531393483.546513,can1 0CFE6E0B [8] 00 00 00 00 00 00 00 00
1531393483.546919,can1 18FEF017 [8] 00 00 00 00 00 00 00 00
1531393483.547312,can1 18FEF021 [8] 00 00 00 00 00 00 00 00
1531393483.551886,can1 0CF00400 [8] 38 FE FE FE FE 00 FF FE
1531393483.552476,can1 18FEF028 [8] 00 00 00 00 00 00 00 00
1531393483.552927,can1 18FEF031 [8] 00 00 00 00 00 00 00 00
1531393483.553513,can1 18FEF521 [8] 00 00 00 00 00 00 00 00
1531393483.554037,can1 1CEBFF0F [8] 01 03 03 60 22 4A 80 4D
1531393483.554529,can1 0CF00203 [8] FF 00 00 FF FF AD 47 03
1531393483.55504,can1 0CF00300 [8] D1 00 FE FF FF FF 00 FF
1531393483.559582,can1 14FFA000 [8] FC FF FF FF FF FF FF FF
1531393483.560149,can1 18FEF200 [8] 00 00 00 00 00 00 FF FF
1531393483.560653,can1 18FEF500 [8] FF FF FF FF FF FF FF FF
1531393483.56108,can1 0CF00400 [8] 38 FE FE FE FE 00 FF FE
1531393483.561644,can1 0CF00203 [8] FF 00 00 FF FF AD 47 03
1531393483.562183,can1 18FEDF00 [8] FE FE FE FF FE FF BF FF
1531393483.562719,can1 0CFE6E0B [8] 00 00 00 00 00 00 00 00
1531393483.567217,can1 18FF6411 [8] F8 FF FF FF FF FF FF FF
1531393483.567802,can1 18FECA11 [8] 03 FF 00 00 00 00 FF FF
1531393483.568312,can1 0CFE6E0B [8] 00 00 00 00 00 00 00 00
1531393483.568792,can1 0CF00400 [8] 38 FE FE FE FE 00 FF FE
1531393483.569331,can1 1CEBFF00 [8] 01 A0 0F B5 00 41 B6 F8
1531393483.569816,can1 0CF00203 [8] FF 00 00 FF FF AD 47 03
1531393483.570229,can1 18FEEE00 [8] FF FF FF FF FF FF FF FF
1531393483.57069,can1 18FF1703 [8] FC FF FF FF FF FF FF FF
1531393483.575227,can1 0CF00400 [8] 38 FE FE FE FE 00 FF FE
1531393483.575898,can1 0CF00203 [8] FF 00 00 FF FF AD 47 03
1531393483.576399,can1 18FEF000 [8] FF FF FF 00 00 FC 00 FF
1531393483.576939,can1 0CFE6E0B [8] 00 00 00 00 00 00 00 00
1531393483.577438,can1 18FEA400 [8] FF FF FF FF 66 B1 A0 5B
1531393483.577865,can1 18FECA03 [8] 03 FF 00 00 00 00 FF FF
1531393483.578264,can1 0CFE6E0B [8] 00 00 00 00 00 00 00 00
1531393483.57866,can1 0CF00400 [8] 38 FE FE FE FE 00 FF FE
1531393483.583296,can1 0CF00203 [8] FF 00 00 FF FF AD 47 03
1531393483.583825,can1 14FD3E00 [8] FF FF FF FF FF FF FF FF
1531393483.584315,can1 18FEE000 [8] A2 01 00 00 A2 01 00 00
1531393483.584909,can1 0CF00400 [8] 38 FE FE FE FE 00 FF FE
1531393483.585408,can1 1CEBFF0F [8] 02 27 28 2D 2B B8 42 1D
1531393483.585828,can1 0CF00203 [8] FF 00 00 FF FF AD 47 03
1531393483.586303,can1 0CFE6E0B [8] 00 00 00 00 00 00 00 00
1531393483.590754,can1 0CF00300 [8] D1 00 FE FF FF FF 00 FF
1531393483.591245,can1 18FEF100 [8] C3 00 00 D0 00 00 00 30
1531393483.591668,can1 18FEBD00 [8] FF FF FF FF FF FF FF FF
1531393483.592197,can1 18FD0700 [8] 47 F4 C0 FF FF FF FF FF
1531393483.592743,can1 0CFE6E0B [8] 00 00 00 00 00 00 00 00
1531393483.593267,can1 0CF00400 [8] 38 FE FE FE FE 00 FF FE
1531393483.593757,can1 18F0010B [8] CF FF F0 FF FF DC FF FF
1531393483.594237,can1 0CF00203 [8] FF 00 00 FF FF AD 47 03
1531393483.598742,can1 18FEDF00 [8] FE FE FE FF FE FF BF FF
1531393483.599193,can1 18FE4A03 [8] FF FF F3 FF F0 F7 FF FF
1531393483.599598,can1 18F00503 [8] FF 57 9E FF 20 2D 2D 2D
1531393483.599992,can1 18FF7400 [8] 7C 03 FF FF FF FF FF FF
1531393483.600461,can1 0CF00400 [8] 38 FE FE FE FE 00 FF FE
1531393483.600872,can1 18FEBF0B [8] 00 00 7D 7D 7D 7D FF FF
1531393483.601266,can1 1CEBFF00 [8] 02 1B C6 C0 26 E1 A8 34
1531393483.601657,can1 0CFE6E0B [8] 00 00 00 00 00 00 00 00
1531393483.604999,can1 0CF00203 [8] FF 00 00 FF FF AD 47 03
1531393483.605791,can1 18F00100 [8] FF FF FF FF FA FF FF FF
1531393483.608544,can1 18FD7C00 [8] FF FF D0 34 FD FF FF FF
1531393483.609029,can1 0CFE6E0B [8] 00 00 00 00 00 00 00 00
1531393483.60946,can1 18F00131 [8] 00 00 00 00 00 00 00 00
1531393483.609853,can1 18F0010B [8] 00 00 00 00 00 00 00 00
1531393483.61036,can1 0CF00400 [8] 38 FE FE FE FE 00 FF FE
1531393483.610772,can1 18FEF117 [8] 00 00 00 00 00 00 00 00
1531393483.61117,can1 0CF00203 [8] FF 00 00 FF FF AD 47 03
1531393483.611561,can1 18FEF121 [8] 00 00 00 00 00 00 00 00
1531393483.616165,can1 18F0000F [8] 00 7D FF FF 0F 7D FF FF
1531393483.616675,can1 18FEF128 [8] 00 00 00 00 00 00 00 00
1531393483.617099,can1 18FEF131 [8] 00 00 00 00 00 00 00 00
1531393483.617506,can1 18E00017 [8] 00 00 00 00 00 00 00 00
1531393483.617977,can1 18E00019 [8] 00 00 00 00 00 00 00 00
1531393483.618402,can1 18E00021 [8] 00 00 00 00 00 00 00 00
1531393483.618799,can1 18E00028 [8] 00 00 00 00 00 00 00 00
1531393483.619189,can1 18E00031 [8] 00 00 00 00 00 00 00 00
1531393483.619576,can1 18FEF017 [8] 00 00 00 00 00 00 00 00
1531393483.62412,can1 18FEF021 [8] 00 00 00 00 00 00 00 00
1531393483.62472,can1 18FEF028 [8] 00 00 00 00 00 00 00 00
1531393483.625216,can1 18FEF031 [8] 00 00 00 00 00 00 00 00
1531393483.625818,can1 18FEF600 [8] FF 00 FF FF FF FF FF FF
1531393483.626317,can1 0CF00400 [8] 38 FE FE FE FE 00 FF FE
1531393483.626738,can1 0CF00203 [8] FF 00 00 FF FF AD 47 03
1531393483.627133,can1 18FF3000 [8] 00 00 FF FF FF FF FF FF
1531393483.631537,can1 0CFE6E0B [8] 00 00 00 00 00 00 00 00
1531393483.632179,can1 18F00131 [8] 00 00 00 00 00 00 00 00
1531393483.63271,can1 18F0010B [8] 00 00 00 00 00 00 00 00
1531393483.633236,can1 18FEE400 [8] 00 3F FD FF 00 7F FF FF
1531393483.496188,can0 0CF00203 [8] 00 00 00 00 00 00 00 00
1531393483.496834,can0 08FF0303 [8] 00 00 00 00 00 00 00 00
1531393483.497317,can0 08FF0001 [8] 00 00 00 00 00 00 00 00
1531393483.49774,can0 0CF00203 [8] 00 00 00 00 00 00 00 00
1531393483.498143,can0 08FF0303 [8] 00 00 00 00 00 00 00 00
1531393483.498531,can0 18F00503 [8] 00 00 00 00 00 00 00 00
1531393483.503149,can0 08FF0001 [8] 00 00 00 00 00 00 00 00
1531393483.503713,can0 0CF00203 [8] 00 00 00 00 00 00 00 00
1531393483.504158,can0 08FF0303 [8] 00 00 00 00 00 00 00 00
1531393483.506056,can0 08FF0001 [8] 00 00 00 00 00 00 00 00
1531393483.508851,can0 0CF00203 [8] 00 00 00 00 00 00 00 00
1531393483.509405,can0 08FF0303 [8] 00 00 00 00 00 00 00 00
1531393483.509842,can0 08FF0001 [8] 00 00 00 00 00 00 00 00
1531393483.510249,can0 0CF00203 [8] 00 00 00 00 00 00 00 00
1531393483.510762,can0 08FF0303 [8] 00 00 00 00 00 00 00 00
1531393483.511185,can0 18F00503 [8] 00 00 00 00 00 00 00 00
1531393483.511579,can0 08FF0001 [8] 00 00 00 00 00 00 00 00
1531393483.51212,can0 0CF00203 [8] 00 00 00 00 00 00 00 00
1531393483.516627,can0 08FF0303 [8] 00 00 00 00 00 00 00 00
1531393483.517139,can0 08FF0001 [8] 00 00 00 00 00 00 00 00
1531393483.517567,can0 0CF00203 [8] 00 00 00 00 00 00 00 00
1531393483.517983,can0 08FF0303 [8] 00 00 00 00 00 00 00 00
1531393483.518466,can0 08FF0001 [8] 00 00 00 00 00 00 00 00
1531393483.518885,can0 0CF00203 [8] 00 00 00 00 00 00 00 00
1531393483.519278,can0 08FF0303 [8] 00 00 00 00 00 00 00 00
1531393483.51967,can0 08FF0001 [8] 00 00 00 00 00 00 00 00
1531393483.520058,can0 0CF00203 [8] 00 00 00 00 00 00 00 00
1531393483.524694,can0 08FF0303 [8] 00 00 00 00 00 00 00 00
1531393483.525277,can0 08FF0001 [8] 00 00 00 00 00 00 00 00
1531393483.525803,can0 0CF00203 [8] 00 00 00 00 00 00 00 00
1531393483.526369,can0 08FF0303 [8] 00 00 00 00 00 00 00 00
1531393483.526795,can0 08FF0001 [8] 00 00 00 00 00 00 00 00
1531393483.527199,can0 0CF00203 [8] 00 00 00 00 00 00 00 00
1531393483.527597,can0 08FF0303 [8] 00 00 00 00 00 00 00 00
1531393483.532055,can0 08FF0001 [8] 00 00 00 00 00 00 00 00
1531393483.532644,can0 0CF00203 [8] 00 00 00 00 00 00 00 00
1531393483.533202,can0 08FF0303 [8] 00 00 00 00 00 00 00 00
1531393483.533703,can0 08FF0001 [8] 00 00 00 00 00 00 00 00
1531393483.534275,can0 0CF00203 [8] 00 00 00 00 00 00 00 00
1531393483.534811,can0 08FF0303 [8] 00 00 00 00 00 00 00 00
1531393483.535289,can0 08FF0001 [8] 00 00 00 00 00 00 00 00
1531393483.539769,can0 0CF00203 [8] 00 00 00 00 00 00 00 00
1531393483.540301,can0 08FF0303 [8] 00 00 00 00 00 00 00 00
1531393483.540743,can0 08FF0001 [8] 00 00 00 00 00 00 00 00
1531393483.541157,can0 0CF00203 [8] 00 00 00 00 00 00 00 00
1531393483.541556,can0 08FF0303 [8] 00 00 00 00 00 00 00 00
1531393483.54215,can0 08FF0001 [8] 00 00 00 00 00 00 00 00
1531393483.542667,can0 0CF00203 [8] 00 00 00 00 00 00 00 00
1531393483.543191,can0 08FF0303 [8] 00 00 00 00 00 00 00 00
1531393483.547633,can0 08FF0001 [8] 00 00 00 00 00 00 00 00
1531393483.548157,can0 0CF00203 [8] 00 00 00 00 00 00 00 00
1531393483.548594,can0 08FF0303 [8] 00 00 00 00 00 00 00 00
1531393483.549001,can0 08FF0001 [8] 00 00 00 00 00 00 00 00
1531393483.549469,can0 0CF00203 [8] 00 00 00 00 00 00 00 00
1531393483.549903,can0 08FF0303 [8] 00 00 00 00 00 00 00 00
1531393483.550307,can0 08FF0001 [8] 00 00 00 00 00 00 00 00
1531393483.550723,can0 0CF00203 [8] 00 00 00 00 00 00 00 00
1531393483.551114,can0 08FF0303 [8] 00 00 00 00 00 00 00 00
1531393483.555629,can0 08FF0001 [8] 00 00 00 00 00 00 00 00
1531393483.556279,can0 0CF00203 [8] 00 00 00 00 00 00 00 00
1531393483.556804,can0 08FF0303 [8] 00 00 00 00 00 00 00 00
1531393483.557375,can0 08FF0001 [8] 00 00 00 00 00 00 00 00
1531393483.557895,can0 0CF00203 [8] 00 00 00 00 00 00 00 00
1531393483.558381,can0 08FF0303 [8] 00 00 00 00 00 00 00 00
1531393483.558853,can0 08FF0001 [8] 00 00 00 00 00 00 00 00
1531393483.56335,can0 0CF00203 [8] 00 00 00 00 00 00 00 00
1531393483.563952,can0 08FF0303 [8] 00 00 00 00 00 00 00 00
1531393483.564406,can0 18F00503 [8] 00 00 00 00 00 00 00 00
1531393483.564952,can0 08FF0001 [8] 00 00 00 00 00 00 00 00
1531393483.565562,can0 0CF00203 [8] 00 00 00 00 00 00 00 00
1531393483.566109,can0 08FF0303 [8] 00 00 00 00 00 00 00 00
1531393483.566633,can0 08FF0001 [8] 00 00 00 00 00 00 00 00
1531393483.571154,can0 0CF00203 [8] 00 00 00 00 00 00 00 00
1531393483.571751,can0 08FF0303 [8] 00 00 00 00 00 00 00 00
1531393483.572327,can0 08FF0001 [8] 00 00 00 00 00 00 00 00
1531393483.572938,can0 0CF00203 [8] 00 00 00 00 00 00 00 00
1531393483.57351,can0 08FF0303 [8] 00 00 00 00 00 00 00 00
1531393483.573995,can0 18F00503 [8] 00 00 00 00 00 00 00 00
1531393483.574472,can0 08FF0001 [8] 00 00 00 00 00 00 00 00
1531393483.578974,can0 0CF00203 [8] 00 00 00 00 00 00 00 00
1531393483.57949,can0 08FF0303 [8] 00 00 00 00 00 00 00 00
1531393483.579928,can0 08FF0001 [8] 00 00 00 00 00 00 00 00
1531393483.580341,can0 0CF00203 [8] 00 00 00 00 00 00 00 00
1531393483.5808,can0 08FF0303 [8] 00 00 00 00 00 00 00 00
1531393483.581224,can0 08FF0001 [8] 00 00 00 00 00 00 00 00
1531393483.581627,can0 0CF00203 [8] 00 00 00 00 00 00 00 00
1531393483.582113,can0 08FF0303 [8] 00 00 00 00 00 00 00 00
1531393483.582585,can0 08FF0001 [8] 00 00 00 00 00 00 00 00
1531393483.587107,can0 0CF00203 [8] 00 00 00 00 00 00 00 00
1531393483.587552,can0 08FF0303 [8] 00 00 00 00 00 00 00 00
1531393483.587957,can0 08FF0001 [8] 00 00 00 00 00 00 00 00
1531393483.588353,can0 0CF00203 [8] 00 00 00 00 00 00 00 00
1531393483.588831,can0 08FF0303 [8] 00 00 00 00 00 00 00 00
1531393483.589244,can0 08FF0001 [8] 00 00 00 00 00 00 00 00
1531393483.589643,can0 0CF00203 [8] 00 00 00 00 00 00 00 00
1531393483.590028,can0 08FF0303 [8] 00 00 00 00 00 00 00 00
1531393483.594398,can0 08FF0001 [8] 00 00 00 00 00 00 00 00
1531393483.595014,can0 0CF00203 [8] 00 00 00 00 00 00 00 00
1531393483.595545,can0 08FF0303 [8] 00 00 00 00 00 00 00 00
1531393483.596059,can0 08FF0001 [8] 00 00 00 00 00 00 00 00
1531393483.596567,can0 0CF00203 [8] 00 00 00 00 00 00 00 00
1531393483.597002,can0 08FF0303 [8] 00 00 00 00 00 00 00 00
1531393483.597412,can0 08FF0001 [8] 00 00 00 00 00 00 00 00
1531393483.597807,can0 0CF00203 [8] 00 00 00 00 00 00 00 00
1531393483.598196,can0 08FF0303 [8] 00 00 00 00 00 00 00 00
1531393483.602788,can0 08FF0001 [8] 00 00 00 00 00 00 00 00
1531393483.603344,can0 0CF00203 [8] 00 00 00 00 00 00 00 00
1531393483.606336,can0 08FF0303 [8] 00 00 00 00 00 00 00 00
1531393483.606961,can0 08FF0001 [8] 00 00 00 00 00 00 00 00
1531393483.607431,can0 0CF00203 [8] 00 00 00 00 00 00 00 00
1531393483.607853,can0 08FF0303 [8] 00 00 00 00 00 00 00 00
1531393483.612357,can0 08FF0001 [8] 00 00 00 00 00 00 00 00
1531393483.612934,can0 0CF00203 [8] 00 00 00 00 00 00 00 00
1531393483.613512,can0 08FF0303 [8] 00 00 00 00 00 00 00 00
1531393483.61407,can0 08FF0001 [8] 00 00 00 00 00 00 00 00
1531393483.614582,can0 0CF00203 [8] 00 00 00 00 00 00 00 00
1531393483.615071,can0 08FF0303 [8] 00 00 00 00 00 00 00 00
1531393483.615547,can0 08FF0001 [8] 00 00 00 00 00 00 00 00
1531393483.619989,can0 0CF00203 [8] 00 00 00 00 00 00 00 00
1531393483.620495,can0 08FF0303 [8] 00 00 00 00 00 00 00 00
1531393483.620924,can0 08FF0001 [8] 00 00 00 00 00 00 00 00
1531393483.62133,can0 0CF00203 [8] 00 00 00 00 00 00 00 00
1531393483.621854,can0 08FF0303 [8] 00 00 00 00 00 00 00 00
1531393483.622317,can0 08FF0001 [8] 00 00 00 00 00 00 00 00
1531393483.622819,can0 0CF00203 [8] 00 00 00 00 00 00 00 00
1531393483.623368,can0 08FF0303 [8] 00 00 00 00 00 00 00 00
1531393483.627826,can0 08FF0001 [8] 00 00 00 00 00 00 00 00
1531393483.628346,can0 0CF00203 [8] 00 00 00 00 00 00 00 00
1531393483.628778,can0 08FF0303 [8] 00 00 00 00 00 00 00 00
1531393483.629181,can0 18F00503 [8] 00 00 00 00 00 00 00 00
1531393483.629641,can0 08FF0001 [8] 00 00 00 00 00 00 00 00
1531393483.630066,can0 0CF00203 [8] 00 00 00 00 00 00 00 00
1531393483.630467,can0 08FF0303 [8] 00 00 00 00 00 00 00 00
1531393483.630853,can0 08FF0001 [8] 00 00 00 00 00 00 00 00
1531393483.63124,can0 0CF00203 [8] 00 00 00 00 00 00 00 00
1531393483.63634,can0 08FF0303 [8] 00 00 00 00 00 00 00 00
1531393483.637173,can0 08FF0001 [8] 00 00 00 00 00 00 00 00
1531393483.637766,can0 0CF00203 [8] 00 00 00 00 00 00 00 00
1531393483.638203,can0 08FF0303 [8] 00 00 00 00 00 00 00 00
1531393483.638611,can0 18F00503 [8] 00 00 00 00 00 00 00 00
1531393483.639012,can0 08FF0001 [8] 00 00 00 00 00 00 00 00
1531393483.639481,can0 0CF00203 [8] 00 00 00 00 00 00 00 00
1531393483.639904,can0 08FF0303 [8] 00 00 00 00 00 00 00 00
1531393483.640302,can0 08FF0001 [8] 00 00 00 00 00 00 00 00
1531393483.6407,can0 0CF00203 [8] 00 00 00 00 00 00 00 00
1531393483.641079,can0 08FF0303 [8] 00 00 00 00 00 00 00 00
1531393483.647549,can0 08FF0001 [8] 00 00 00 00 00 00 00 00
1531393483.648047,can0 0CF00203 [8] 00 00 00 00 00 00 00 00
1531393483.648479,can0 08FF0303 [8] 00 00 00 00 00 00 00 00
1531393483.648887,can0 08FF0001 [8] 00 00 00 00 00 00 00 00
1531393483.649382,can0 0CF00203 [8] 00 00 00 00 00 00 00 00
1531393483.6498,can0 08FF0303 [8] 00 00 00 00 00 00 00 00
1531393483.650205,can0 08FF0001 [8] 00 00 00 00 00 00 00 00
1531393483.650592,can0 0CF00203 [8] 00 00 00 00 00 00 00 00
1531393483.654985,can0 08FF0303 [8] 00 00 00 00 00 00 00 00
1531393483.65562,can0 08FF0001 [8] 00 00 00 00 00 00 00 00
1531393483.656187,can0 0CF00203 [8] 00 00 00 00 00 00 00 00
1531393483.656677,can0 08FF0303 [8] 00 00 00 00 00 00 00 00
1531393483.657234,can0 08FF0001 [8] 00 00 00 00 00 00 00 00
1531393483.657733,can0 0CF00203 [8] 00 00 00 00 00 00 00 00
1531393483.658155,can0 08FF0303 [8] 00 00 00 00 00 00 00 00
1531393483.658631,can0 08FF0001 [8] 00 00 00 00 00 00 00 00
1531393483.663201,can0 0CF00203 [8] 00 00 00 00 00 00 00 00
1531393483.66376,can0 08FF0303 [8] 00 00 00 00 00 00 00 00
1531393483.664273,can0 08FF0001 [8] 00 00 00 00 00 00 00 00
1531393483.664867,can0 0CF00203 [8] 00 00 00 00 00 00 00 00
1531393483.66543,can0 08FF0303 [8] 00 00 00 00 00 00 00 00
1531393483.665966,can0 08FF0001 [8] 00 00 00 00 00 00 00 00
1531393483.666502,can0 0CF00203 [8] 00 00 00 00 00 00 00 00
1531393483.671067,can0 08FF0303 [8] 00 00 00 00 00 00 00 00
1531393483.671619,can0 08FF0001 [8] 00 00 00 00 00 00 00 00
1531393483.672192,can0 0CF00203 [8] 00 00 00 00 00 00 00 00
1531393483.672808,can0 08FF0303 [8] 00 00 00 00 00 00 00 00
1531393483.673369,can0 08FF0001 [8] 00 00 00 00 00 00 00 00
1531393483.673864,can0 0CF00203 [8] 00 00 00 00 00 00 00 00
1531393483.67428,can0 08FF0303 [8] 00 00 00 00 00 00 00 00
1531393483.67883,can0 08FF0001 [8] 00 00 00 00 00 00 00 00
1531393483.679291,can0 0CF00203 [8] 00 00 00 00 00 00 00 00
1531393483.679709,can0 08FF0303 [8] 00 00 00 00 00 00 00 00
1531393483.68011,can0 08FF0001 [8] 00 00 00 00 00 00 00 00
1531393483.680591,can0 0CF00203 [8] 00 00 00 00 00 00 00 00
1531393483.681001,can0 08FF0303 [8] 00 00 00 00 00 00 00 00
1531393483.681409,can0 08FF0001 [8] 00 00 00 00 00 00 00 00
1531393483.68187,can0 0CF00203 [8] 00 00 00 00 00 00 00 00
1531393483.686301,can0 08FF0303 [8] 00 00 00 00 00 00 00 00
1531393483.686819,can0 08FF0001 [8] 00 00 00 00 00 00 00 00
1531393483.68761,can0 0CF00203 [8] 00 00 00 00 00 00 00 00
1531393483.688501,can0 08FF0303 [8] 00 00 00 00 00 00 00 00
1531393483.688991,can0 08FF0001 [8] 00 00 00 00 00 00 00 00
1531393483.689407,can0 0CF00203 [8] 00 00 00 00 00 00 00 00
1531393483.689811,can0 08FF0303 [8] 00 00 00 00 00 00 00 00
1531393483.690291,can0 18F00503 [8] 00 00 00 00 00 00 00 00
1531393483.690716,can0 08FF0001 [8] 00 00 00 00 00 00 00 00
1531393483.691115,can0 0CF00203 [8] 00 00 00 00 00 00 00 00
1531393483.691513,can0 08FF0303 [8] 00 00 00 00 00 00 00 00
1531393483.696096,can0 08FF0001 [8] 00 00 00 00 00 00 00 00
1531393483.696643,can0 0CF00203 [8] 00 00 00 00 00 00 00 00
1531393483.697095,can0 08FF0303 [8] 00 00 00 00 00 00 00 00
1531393483.697505,can0 08FF0001 [8] 00 00 00 00 00 00 00 00
1531393483.697975,can0 0CF00203 [8] 00 00 00 00 00 00 00 00
1531393483.698407,can0 08FF0303 [8] 00 00 00 00 00 00 00 00
1531393483.698811,can0 18F00503 [8] 00 00 00 00 00 00 00 00
1531393483.699206,can0 08FF0001 [8] 00 00 00 00 00 00 00 00
1531393483.699616,can0 0CF00203 [8] 00 00 00 00 00 00 00 00
1531393483.70539,can0 08FF0303 [8] 00 00 00 00 00 00 00 00
1531393483.706381,can0 08FF0001 [8] 00 00 00 00 00 00 00 00
1531393483.70691,can0 0CF00203 [8] 00 00 00 00 00 00 00 00
1531393483.707334,can0 08FF0303 [8] 00 00 00 00 00 00 00 00
1531393483.711899,can0 08FF0001 [8] 00 00 00 00 00 00 00 00
1531393483.71252,can0 0CF00203 [8] 00 00 00 00 00 00 00 00
1531393483.713051,can0 08FF0303 [8] 00 00 00 00 00 00 00 00
1531393483.713613,can0 08FF0001 [8] 00 00 00 00 00 00 00 00
1531393483.714151,can0 0CF00203 [8] 00 00 00 00 00 00 00 00
1531393483.714654,can0 08FF0303 [8] 00 00 00 00 00 00 00 00
1531393483.715149,can0 08FF0001 [8] 00 00 00 00 00 00 00 00
1531393483.71967,can0 0CF00203 [8] 00 00 00 00 00 00 00 00
1531393483.720176,can0 08FF0303 [8] 00 00 00 00 00 00 00 00
1531393483.7206,can0 08FF0001 [8] 00 00 00 00 00 00 00 00
1531393483.721005,can0 0CF00203 [8] 00 00 00 00 00 00 00 00
1531393483.72146,can0 08FF0303 [8] 00 00 00 00 00 00 00 00
1531393483.721969,can0 08FF0001 [8] 00 00 00 00 00 00 00 00
1531393483.722453,can0 0CF00203 [8] 00 00 00 00 00 00 00 00
1531393483.722873,can0 08FF0303 [8] 00 00 00 00 00 00 00 00
1531393483.727361,can0 08FF0001 [8] 00 00 00 00 00 00 00 00
1531393483.727888,can0 0CF00203 [8] 00 00 00 00 00 00 00 00
1531393483.728326,can0 08FF0303 [8] 00 00 00 00 00 00 00 00
1531393483.728734,can0 08FF0001 [8] 00 00 00 00 00 00 00 00
1531393483.729193,can0 0CF00203 [8] 00 00 00 00 00 00 00 00
1531393483.729629,can0 08FF0303 [8] 00 00 00 00 00 00 00 00
1531393483.730034,can0 08FF0001 [8] 00 00 00 00 00 00 00 00
1531393483.730431,can0 0CF00203 [8] 00 00 00 00 00 00 00 00
1531393483.730815,can0 08FF0303 [8] 00 00 00 00 00 00 00 00
1531393483.741148,can0 08FF0001 [8] 00 00 00 00 00 00 00 00
1531393483.74171,can0 0CF00203 [8] 00 00 00 00 00 00 00 00
1531393483.742279,can0 08FF0303 [8] 00 00 00 00 00 00 00 00
1531393483.742863,can0 08FF0001 [8] 00 00 00 00 00 00 00 00
1531393483.743435,can0 0CF00203 [8] 00 00 00 00 00 00 00 00
1531393483.743959,can0 08FF0303 [8] 00 00 00 00 00 00 00 00
1531393483.744458,can0 08FF0001 [8] 00 00 00 00 00 00 00 00
1531393483.752931,can0 0CF00203 [8] 00 00 00 00 00 00 00 00
1531393483.753764,can0 08FF0303 [8] 00 00 00 00 00 00 00 00
1531393483.754304,can0 08FF0001 [8] 00 00 00 00 00 00 00 00
1531393483.75493,can0 0CF00203 [8] 00 00 00 00 00 00 00 00
1531393483.755491,can0 08FF0303 [8] 00 00 00 00 00 00 00 00
1531393483.756017,can0 08FF0001 [8] 00 00 00 00 00 00 00 00
1531393483.764386,can0 0CF00203 [8] 00 00 00 00 00 00 00 00
1531393483.765154,can0 08FF0303 [8] 00 00 00 00 00 00 00 00
1531393483.765762,can0 08FF0001 [8] 00 00 00 00 00 00 00 00
1531393483.766396,can0 0CF00203 [8] 00 00 00 00 00 00 00 00
1531393483.766975,can0 08FF0303 [8] 00 00 00 00 00 00 00 00
1531393483.767466,can0 08FF0001 [8] 00 00 00 00 00 00 00 00
1531393483.767886,can0 0CF00203 [8] 00 00 00 00 00 00 00 00
1531393483.776432,can0 08FF0303 [8] 00 00 00 00 00 00 00 00
1531393483.77705,can0 18F00503 [8] 00 00 00 00 00 00 00 00
1531393483.777562,can0 08FF0001 [8] 00 00 00 00 00 00 00 00
1531393483.778052,can0 0CF00203 [8] 00 00 00 00 00 00 00 00
1531393483.778491,can0 08FF0303 [8] 00 00 00 00 00 00 00 00
1531393483.778906,can0 08FF0001 [8] 00 00 00 00 00 00 00 00
1531393483.779309,can0 0CF00203 [8] 00 00 00 00 00 00 00 00
1531393483.779698,can0 08FF0303 [8] 00 00 00 00 00 00 00 00
1531393483.788111,can0 08FF0001 [8] 00 00 00 00 00 00 00 00
1531393483.788625,can0 0CF00203 [8] 00 00 00 00 00 00 00 00
1531393483.789055,can0 08FF0303 [8] 00 00 00 00 00 00 00 00
1531393483.789458,can0 18F00503 [8] 00 00 00 00 00 00 00 00
1531393483.789949,can0 08FF0001 [8] 00 00 00 00 00 00 00 00
1531393483.790369,can0 0CF00203 [8] 00 00 00 00 00 00 00 00
1531393483.790767,can0 08FF0303 [8] 00 00 00 00 00 00 00 00
1531393483.791153,can0 08FF0001 [8] 00 00 00 00 00 00 00 00
1531393483.791534,can0 0CF00203 [8] 00 00 00 00 00 00 00 00
1531393483.802091,can0 08FF0303 [8] 00 00 00 00 00 00 00 00
1531393483.63432,can1 18FEF117 [8] 00 00 00 00 00 00 00 00
1531393483.634976,can1 18FEF128 [8] 00 00 00 00 00 00 00 00
1531393483.641502,can1 18FEF121 [8] 00 00 00 00 00 00 00 00
1531393483.642149,can1 18FEF131 [8] 00 00 00 00 00 00 00 00
1531393483.642684,can1 18E00017 [8] 00 00 00 00 00 00 00 00
1531393483.643283,can1 18E00019 [8] 00 00 00 00 00 00 00 00
1531393483.643916,can1 18E00021 [8] 00 00 00 00 00 00 00 00
1531393483.64445,can1 18E00028 [8] 00 00 00 00 00 00 00 00
1531393483.645,can1 0CFE6E0B [8] 00 00 00 00 00 00 00 00
1531393483.645638,can1 18E00031 [8] 00 00 00 00 00 00 00 00
1531393483.646183,can1 0CF00400 [8] 38 FE FE FE FE 00 FF FE
1531393483.646667,can1 18FEF017 [8] 00 00 00 00 00 00 00 00
1531393483.651101,can1 18FEF021 [8] 00 00 00 00 00 00 00 00
1531393483.651635,can1 18FEF028 [8] 00 00 00 00 00 00 00 00
1531393483.652211,can1 18FEF031 [8] 00 00 00 00 00 00 00 00
1531393483.652747,can1 1CEBFF0F [8] 03 60 3B 5D 04 19 FF FF
1531393483.653336,can1 0CF00203 [8] FF 00 00 FF FF AD 47 03
1531393483.653876,can1 0CF00300 [8] D1 00 FE FF FF FF 00 FF
1531393483.654366,can1 14FFA000 [8] FC FF FF FF FF FF FF FF
1531393483.658906,can1 18FEF200 [8] 00 00 00 00 00 00 FF FF
1531393483.659531,can1 0CF00400 [8] 38 FE FE FE FE 00 FF FE
1531393483.660057,can1 0CF00203 [8] FF 00 00 FF FF AD 47 03
1531393483.660488,can1 18FEDF00 [8] FE FE FE FF FE FF BF FF
1531393483.661042,can1 0CFE6E0B [8] 00 00 00 00 00 00 00 00
1531393483.661536,can1 18FE5600 [8] FF FF FF FF FF FF FF FF
1531393483.662054,can1 0CFE6E0B [8] 00 00 00 00 00 00 00 00
1531393483.662576,can1 0CF00400 [8] 38 FE FE FE FE 00 FF FE
1531393483.66715,can1 1CEBFF00 [8] 03 D5 19 43 FF FF 83 09
1531393483.667696,can1 0CF00203 [8] FF 00 00 FF FF AD 47 03
1531393483.668189,can1 18FEC100 [8] CC 28 00 00 CC 28 00 00
1531393483.668723,can1 0CF00400 [8] 38 FE FE FE FE 00 FF FE
1531393483.669226,can1 0CF00203 [8] FF 00 00 FF FF AD 47 03
1531393483.669642,can1 18FEF000 [8] FF FF FF 00 00 FC 00 FF
1531393483.670115,can1 0CFE6E0B [8] 00 00 00 00 00 00 00 00
1531393483.674604,can1 18FEF700 [8] FF FF FF FF F1 00 F1 00
1531393483.675311,can1 0CFE6E0B [8] 00 00 00 00 00 00 00 00
1531393483.675889,can1 0CF00400 [8] 38 FE FE FE FE 00 FF FE
1531393483.67645,can1 0CF00203 [8] FF 00 00 FF FF AD 47 03
1531393483.676951,can1 18FEE000 [8] A2 01 00 00 A2 01 00 00
1531393483.677427,can1 18FEF803 [8] FF FF FF FF FF FF FF FF
1531393483.677843,can1 18FEFF00 [8] FF FF FF FF FF FF FF FF
1531393483.678238,can1 0CF00400 [8] 38 FE FE FE FE 00 FF FE
1531393483.682803,can1 0CF00203 [8] FF 00 00 FF FF AD 47 03
1531393483.683377,can1 0CF00300 [8] D1 00 FE FF FF FF 00 FF
1531393483.683877,can1 0CFE6E0B [8] 00 00 00 00 00 00 00 00
1531393483.684403,can1 18FEF100 [8] C3 00 00 D0 00 00 00 30
1531393483.684934,can1 0CFE6E0B [8] 00 00 00 00 00 00 00 00
1531393483.68542,can1 0CF00400 [8] 38 FE FE FE FE 00 FF FE
1531393483.685903,can1 0CF00203 [8] FF 00 00 FF FF AD 47 03
1531393483.692437,can1 18F0010B [8] CF FF F0 FF FF DC FF FF
1531393483.693084,can1 18FEDF00 [8] FE FE FE FF FE FF BF FF
1531393483.693557,can1 18FE4A03 [8] FF FF F3 FF F0 F7 FF FF
1531393483.694141,can1 18F00503 [8] FF 57 9E FF 20 2D 2D 2D
1531393483.694657,can1 0CF00400 [8] 38 FE FE FE FE 00 FF FE
1531393483.695142,can1 1CEBFF00 [8] 04 80 4D 32 FF FF FF FF
1531393483.695607,can1 18FEBF0B [8] 00 00 7D 7D 7D 7D FF FF
1531393483.700101,can1 0CF00203 [8] FF 00 00 FF FF AD 47 03
1531393483.700604,can1 0CFE6E0B [8] 00 00 00 00 00 00 00 00
1531393483.701027,can1 18F00100 [8] FF FF FF FF FA FF FF FF
1531393483.701441,can1 0CFE6E0B [8] 00 00 00 00 00 00 00 00
1531393483.701977,can1 18F00131 [8] 00 00 00 00 00 00 00 00
1531393483.702486,can1 18F0010B [8] 00 00 00 00 00 00 00 00
1531393483.70292,can1 0CF00400 [8] 38 FE FE FE FE 00 FF FE
1531393483.703442,can1 18FEF117 [8] 00 00 00 00 00 00 00 00
1531393483.708083,can1 0CF00203 [8] FF 00 00 FF FF AD 47 03
1531393483.708629,can1 18FEF121 [8] 00 00 00 00 00 00 00 00
1531393483.709071,can1 18F0000F [8] 00 7D FF FF 0F 7D FF FF
1531393483.709474,can1 18FEF128 [8] 00 00 00 00 00 00 00 00
1531393483.709992,can1 18FEF131 [8] 00 00 00 00 00 00 00 00
1531393483.710407,can1 18E00017 [8] 00 00 00 00 00 00 00 00
1531393483.710809,can1 18E00019 [8] 00 00 00 00 00 00 00 00
1531393483.711197,can1 18E00021 [8] 00 00 00 00 00 00 00 00
1531393483.715616,can1 18E00028 [8] 00 00 00 00 00 00 00 00
1531393483.716211,can1 18E00031 [8] 00 00 00 00 00 00 00 00
1531393483.716669,can1 18FEF017 [8] 00 00 00 00 00 00 00 00
1531393483.717082,can1 18FEF021 [8] 00 00 00 00 00 00 00 00
1531393483.717549,can1 18FEF028 [8] 00 00 00 00 00 00 00 00
1531393483.717969,can1 18FEF031 [8] 00 00 00 00 00 00 00 00
1531393483.718373,can1 0CF00400 [8] 38 FE FE FE FE 00 FF FE
1531393483.718765,can1 0CF00203 [8] FF 00 00 FF FF AD 47 03
1531393483.719152,can1 18FF3000 [8] 00 00 FF FF FF FF FF FF
1531393483.723673,can1 0CFE6E0B [8] 00 00 00 00 00 00 00 00
1531393483.72423,can1 18F00131 [8] 00 00 00 00 00 00 00 00
1531393483.724761,can1 18F0010B [8] 00 00 00 00 00 00 00 00
1531393483.725335,can1 18FEF117 [8] 00 00 00 00 00 00 00 00
1531393483.725837,can1 18FEF128 [8] 00 00 00 00 00 00 00 00
1531393483.726311,can1 18FEF121 [8] 00 00 00 00 00 00 00 00
1531393483.726707,can1 18FEF131 [8] 00 00 00 00 00 00 00 00
1531393483.727091,can1 18E00017 [8] 00 00 00 00 00 00 00 00
1531393483.731618,can1 18E00019 [8] 00 00 00 00 00 00 00 00
1531393483.732207,can1 18E00021 [8] 00 00 00 00 00 00 00 00
1531393483.737611,can1 18E00028 [8] 00 00 00 00 00 00 00 00
1531393483.738205,can1 18E00031 [8] 00 00 00 00 00 00 00 00
1531393483.73865,can1 0CFE6E0B [8] 00 00 00 00 00 00 00 00
1531393483.739169,can1 18FEF017 [8] 00 00 00 00 00 00 00 00
1531393483.739599,can1 18FEF021 [8] 00 00 00 00 00 00 00 00
1531393483.740003,can1 0CF00400 [8] 38 FE FE FE FE 00 FF FE
1531393483.74039,can1 18FEF028 [8] 00 00 00 00 00 00 00 00
1531393483.740776,can1 0CF00203 [8] FF 00 00 FF FF AD 47 03
1531393483.749398,can1 18FEF031 [8] 00 00 00 00 00 00 00 00
1531393483.749887,can1 0CF00300 [8] D1 00 FE FF FF FF 00 FF
1531393483.750318,can1 14FFA000 [8] FC FF FF FF FF FF FF FF
1531393483.750821,can1 18FEF200 [8] 00 00 00 00 00 00 FF FF
1531393483.751253,can1 0CF00400 [8] 38 FE FE FE FE 00 FF FE
1531393483.751656,can1 0CF00203 [8] FF 00 00 FF FF AD 47 03
1531393483.752192,can1 18FEDF00 [8] FE FE FE FF FE FF BF FF
1531393483.760792,can1 0CFE6E0B [8] 00 00 00 00 00 00 00 00
1531393483.761503,can1 0CFE6E0B [8] 00 00 00 00 00 00 00 00
1531393483.762104,can1 0CF00400 [8] 38 FE FE FE FE 00 FF FE
1531393483.762733,can1 1CEBFF00 [8] 05 FF FF 04 01 FF FF FF
1531393483.763291,can1 0CF00203 [8] FF 00 00 FF FF AD 47 03
1531393483.763717,can1 18FEF521 [8] 00 00 00 00 00 00 00 00
1531393483.764188,can1 0CF00400 [8] 38 FE FE FE FE 00 FF FE
1531393483.772915,can1 0CF00203 [8] FF 00 00 FF FF AD 47 03
1531393483.773558,can1 18FEF000 [8] FF FF FF 00 00 FC 00 FF
1531393483.774144,can1 0CFE6E0B [8] 00 00 00 00 00 00 00 00
1531393483.774661,can1 0CFE6E0B [8] 00 00 00 00 00 00 00 00
1531393483.775212,can1 0CF00400 [8] 38 FE FE FE FE 00 FF FE
1531393483.775737,can1 0CF00203 [8] FF 00 00 FF FF AD 47 03
1531393483.784383,can1 18FEE000 [8] A2 01 00 00 A2 01 00 00
1531393483.78508,can1 0CF00400 [8] 38 FE FE FE FE 00 FF FE
1531393483.785615,can1 0CF00203 [8] FF 00 00 FF FF AD 47 03
1531393483.786212,can1 0CF00300 [8] D1 00 FE FF FF FF 00 FF
1531393483.786658,can1 0CFE6E0B [8] 00 00 00 00 00 00 00 00
1531393483.787079,can1 18FEF100 [8] C3 00 00 D0 00 00 00 30
1531393483.787482,can1 0CFE6E0B [8] 00 00 00 00 00 00 00 00
1531393483.797956,can1 0CF00400 [8] 38 FE FE FE FE 00 FF FE
1531393483.798578,can1 0CF00203 [8] FF 00 00 FF FF AD 47 03
1531393483.799038,can1 18F0010B [8] CF FF F0 FF FF DC FF FF
1531393483.799546,can1 18FEDF00 [8] FE FE FE FF FE FF BF FF
1531393483.799992,can1 18FE4A03 [8] FF FF F3 FF F0 F7 FF FF
1531393483.800402,can1 18F00503 [8] FF 57 9E FF 20 2D 2D 2D
1531393483.800796,can1 0CF00400 [8] 38 FE FE FE FE 00 FF FE
1531393483.801179,can1 1CEBFF00 [8] 06 FF FF FF FF FF FF FF
1531393483.809734,can1 18FEBF0B [8] 00 00 7D 7D 7D 7D FF FF
1531393483.810752,can1 0CFE6E0B [8] 00 00 00 00 00 00 00 00
1531393483.81141,can1 1CECFF00 [8] 20 12 00 03 FF CA FE 00
1531393483.812025,can1 0CF00203 [8] FF 00 00 FF FF AD 47 03
1531393483.812549,can1 18F00100 [8] FF FF FF FF FA FF FF FF
1531393483.813037,can1 0CFE6E0B [8] 00 00 00 00 00 00 00 00
1531393483.819619,can1 18F00131 [8] 00 00 00 00 00 00 00 00
1531393483.820075,can1 18F0010B [8] 00 00 00 00 00 00 00 00
1531393483.820495,can1 0CF00400 [8] 38 FE FE FE FE 00 FF FE
1531393483.82097,can1 18FEF117 [8] 00 00 00 00 00 00 00 00
1531393483.821414,can1 0CF00203 [8] FF 00 00 FF FF AD 47 03
1531393483.821912,can1 18FEF121 [8] 00 00 00 00 00 00 00 00
1531393483.822335,can1 18F0000F [8] 00 7D FF FF 0F 7D FF FF
1531393483.822814,can1 18FEF128 [8] 00 00 00 00 00 00 00 00
1531393483.827352,can1 18FEF131 [8] 00 00 00 00 00 00 00 00
1531393483.827801,can1 18E00017 [8] 00 00 00 00 00 00 00 00
1531393483.828214,can1 18E00019 [8] 00 00 00 00 00 00 00 00
1531393483.828605,can1 18E00021 [8] 00 00 00 00 00 00 00 00
1531393483.829087,can1 18E00028 [8] 00 00 00 00 00 00 00 00
1531393483.8295,can1 18E00031 [8] 00 00 00 00 00 00 00 00
1531393483.829896,can1 18FEF017 [8] 00 00 00 00 00 00 00 00
1531393483.830284,can1 18FEF021 [8] 00 00 00 00 00 00 00 00
1531393483.834736,can1 18FEF028 [8] 00 00 00 00 00 00 00 00
1531393483.835427,can1 18FEF031 [8] 00 00 00 00 00 00 00 00
1531393483.835989,can1 0CF00400 [8] 38 FE FE FE FE 00 FF FE
1531393483.836423,can1 0CF00203 [8] FF 00 00 FF FF AD 47 03
1531393483.836977,can1 18FF3000 [8] 00 00 FF FF FF FF FF FF
1531393483.840859,can1 0CFE6E0B [8] 00 00 00 00 00 00 00 00
1531393483.841346,can1 18F00131 [8] 00 00 00 00 00 00 00 00
1531393483.841769,can1 18F0010B [8] 00 00 00 00 00 00 00 00
1531393483.842293,can1 18FEF117 [8] 00 00 00 00 00 00 00 00
1531393483.842857,can1 18FEF128 [8] 00 00 00 00 00 00 00 00
1531393483.843387,can1 18FEF121 [8] 00 00 00 00 00 00 00 00
1531393483.843859,can1 18FEF131 [8] 00 00 00 00 00 00 00 00
1531393483.848302,can1 18E00017 [8] 00 00 00 00 00 00 00 00
1531393483.848845,can1 18E00019 [8] 00 00 00 00 00 00 00 00
1531393483.849278,can1 18E00021 [8] 00 00 00 00 00 00 00 00
1531393483.849696,can1 18E00028 [8] 00 00 00 00 00 00 00 00
1531393483.8501,can1 18E00031 [8] 00 00 00 00 00 00 00 00
1531393483.850577,can1 0CFE6E0B [8] 00 00 00 00 00 00 00 00
1531393483.850978,can1 18FEF017 [8] 00 00 00 00 00 00 00 00
1531393483.851368,can1 18FEF021 [8] 00 00 00 00 00 00 00 00
1531393483.851757,can1 0CF00400 [8] 38 FE FE FE FE 00 FF FE
1531393483.856327,can1 18FEF028 [8] 00 00 00 00 00 00 00 00
1531393483.856917,can1 0CF00203 [8] FF 00 00 FF FF AD 47 03
1531393483.857431,can1 18FEF031 [8] 00 00 00 00 00 00 00 00
1531393483.857918,can1 0CF00300 [8] D1 00 FE FF FF FF 00 FF
1531393483.858471,can1 14FFA000 [8] FC FF FF FF FF FF FF FF
1531393483.858959,can1 18FEF200 [8] 00 00 00 00 00 00 FF FF
1531393483.859422,can1 0CF00400 [8] 38 FE FE FE FE 00 FF FE
1531393483.859838,can1 0CF00203 [8] FF 00 00 FF FF AD 47 03
1531393483.86134,can1 18FEDF00 [8] FE FE FE FF FE FF BF FF
1531393483.863763,can1 0CFE6E0B [8] 00 00 00 00 00 00 00 00
1531393483.864412,can1 0CFE6E0B [8] 00 00 00 00 00 00 00 00
1531393483.867601,can1 0CF00400 [8] 38 FE FE FE FE 00 FF FE
1531393483.868222,can1 1CEBFF00 [8] 01 47 FF 71 02 0D 01 5B
1531393483.868731,can1 0CF00203 [8] FF 00 00 FF FF AD 47 03
1531393483.869216,can1 0CF00400 [8] 38 FE FE FE FE 00 FF FE
1531393483.869639,can1 0CF00203 [8] FF 00 00 FF FF AD 47 03
1531393483.870179,can1 18FEF000 [8] FF FF FF 00 00 FC 00 FF
1531393483.87066,can1 0CFE6E0B [8] 00 00 00 00 00 00 00 00
1531393483.871139,can1 0CFE6E0B [8] 00 00 00 00 00 00 00 00
1531393483.871601,can1 0CF00400 [8] 38 FE FE FE FE 00 FF FE
1531393483.8742,can1 0CF00203 [8] FF 00 00 FF FF AD 47 03
1531393483.876809,can1 18FEE000 [8] A2 01 00 00 A2 01 00 00
1531393483.877396,can1 0CF00400 [8] 38 FE FE FE FE 00 FF FE
1531393483.877933,can1 0CF00203 [8] FF 00 00 FF FF AD 47 03
1531393483.878366,can1 0CF00300 [8] D1 00 FE FF FF FF 00 FF
1531393483.878771,can1 0CFE6E0B [8] 00 00 00 00 00 00 00 00
1531393483.879165,can1 18FEF100 [8] C3 00 00 D0 00 00 00 30
1531393483.879626,can1 0CFE6E0B [8] 00 00 00 00 00 00 00 00
1531393483.880043,can1 0CF00400 [8] 38 FE FE FE FE 00 FF FE
1531393483.880448,can1 0CF00203 [8] FF 00 00 FF FF AD 47 03
1531393483.880838,can1 18F0010B [8] CF FF F0 FF FF DC FF FF
1531393483.881231,can1 18FEDF00 [8] FE FE FE FF FE FF BF FF
1531393483.881687,can1 18FE4A03 [8] FF FF F3 FF F0 F7 FF FF
1531393483.884073,can1 18F00503 [8] FF 57 9E FF 20 2D 2D 2D
1531393483.884625,can1 0CF00400 [8] 38 FE FE FE FE 00 FF FE
1531393483.887039,can1 1CEBFF00 [8] 02 00 08 01 71 02 0E 08
1531393483.88756,can1 18FEBF0B [8] 00 00 7D 7D 7D 7D FF FF
1531393483.887995,can1 0CF00203 [8] FF 00 00 FF FF AD 47 03
1531393483.888404,can1 0CFE6E0B [8] 00 00 00 00 00 00 00 00
1531393483.888795,can1 18F00100 [8] FF FF FF FF FA FF FF FF
1531393483.889184,can1 0CFE6E0B [8] 00 00 00 00 00 00 00 00
1531393483.889655,can1 18F00131 [8] 00 00 00 00 00 00 00 00
1531393483.89006,can1 18F0010B [8] 00 00 00 00 00 00 00 00
1531393483.890453,can1 0CF00400 [8] 38 FE FE FE FE 00 FF FE
1531393483.890841,can1 18FEF117 [8] 00 00 00 00 00 00 00 00
1531393483.891278,can1 0CF00203 [8] FF 00 00 FF FF AD 47 03
1531393483.891685,can1 18FEF121 [8] 00 00 00 00 00 00 00 00
1531393483.894137,can1 18F0000F [8] 00 7D FF FF 0F 7D FF FF
1531393483.894614,can1 18FEF128 [8] 00 00 00 00 00 00 00 00
1531393483.896927,can1 18FEF131 [8] 00 00 00 00 00 00 00 00
1531393483.897457,can1 18E00017 [8] 00 00 00 00 00 00 00 00
1531393483.897884,can1 18E00019 [8] 00 00 00 00 00 00 00 00
1531393483.898284,can1 18E00021 [8] 00 00 00 00 00 00 00 00
1531393483.898669,can1 18E00028 [8] 00 00 00 00 00 00 00 00
1531393483.899111,can1 18E00031 [8] 00 00 00 00 00 00 00 00
1531393483.899524,can1 18FEF017 [8] 00 00 00 00 00 00 00 00
1531393483.899919,can1 18FEF021 [8] 00 00 00 00 00 00 00 00
1531393483.900302,can1 18FEF028 [8] 00 00 00 00 00 00 00 00
1531393483.900685,can1 18FEF031 [8] 00 00 00 00 00 00 00 00
1531393483.901117,can1 0CF00400 [8] 38 FE FE FE FE 00 FF FE
1531393483.901525,can1 0CF00203 [8] FF 00 00 FF FF AD 47 03
1531393483.903869,can1 18FF3000 [8] 00 00 FF FF FF FF FF FF
1531393483.904465,can1 0CFE6E0B [8] 00 00 00 00 00 00 00 00
1531393483.906876,can1 18F00131 [8] 00 00 00 00 00 00 00 00
1531393483.907385,can1 18F0010B [8] 00 00 00 00 00 00 00 00
1531393483.907821,can1 18FEF117 [8] 00 00 00 00 00 00 00 00
1531393483.908219,can1 18FEF128 [8] 00 00 00 00 00 00 00 00
1531393483.908612,can1 18FEF121 [8] 00 00 00 00 00 00 00 00
1531393483.909072,can1 18FEF131 [8] 00 00 00 00 00 00 00 00
1531393483.909485,can1 18E00017 [8] 00 00 00 00 00 00 00 00
1531393483.911077,can1 18E00019 [8] 00 00 00 00 00 00 00 00
1531393483.911726,can1 18E00021 [8] 00 00 00 00 00 00 00 00
1531393483.916535,can1 18E00028 [8] 00 00 00 00 00 00 00 00
1531393483.917141,can1 18E00031 [8] 00 00 00 00 00 00 00 00
1531393483.917592,can1 0CFE6E0B [8] 00 00 00 00 00 00 00 00
1531393483.918001,can1 18FEF017 [8] 00 00 00 00 00 00 00 00
1531393483.918399,can1 18FEF021 [8] 00 00 00 00 00 00 00 00
1531393483.918871,can1 0CF00400 [8] 38 FE FE FE FE 00 FF FE
1531393483.919281,can1 18FEF028 [8] 00 00 00 00 00 00 00 00
1531393483.919676,can1 0CF00203 [8] FF 00 00 FF FF AD 47 03
1531393483.920057,can1 18FEF031 [8] 00 00 00 00 00 00 00 00
1531393483.920441,can1 0CF00300 [8] D1 00 FE FF FF FF 00 FF
1531393483.920902,can1 14FFA000 [8] FC FF FF FF FF FF FF FF
1531393483.921301,can1 18FEF200 [8] 00 00 00 00 00 00 FF FF
1531393483.921693,can1 0CF00400 [8] 38 FE FE FE FE 00 FF FE
1531393483.924172,can1 0CF00203 [8] FF 00 00 FF FF AD 47 03
1531393483.926725,can1 18FEDF00 [8] FE FE FE FF FE FF BF FF
1531393483.927247,can1 0CFE6E0B [8] 00 00 00 00 00 00 00 00
1531393483.927686,can1 0CFE6E0B [8] 00 00 00 00 00 00 00 00
1531393483.928095,can1 0CF00400 [8] 38 FE FE FE FE 00 FF FE
1531393483.928575,can1 1CEBFF00 [8] 03 73 0C 09 01 FF FF FF
1531393483.929016,can1 0CF00203 [8] FF 00 00 FF FF AD 47 03
1531393483.929421,can1 0CF00400 [8] 38 FE FE FE FE 00 FF FE
1531393483.80329,can0 08FF0001 [8] 00 00 00 00 00 00 00 00
1531393483.804036,can0 0CF00203 [8] 00 00 00 00 00 00 00 00
1531393483.807904,can0 08FF0303 [8] 00 00 00 00 00 00 00 00
1531393483.808491,can0 08FF0001 [8] 00 00 00 00 00 00 00 00
1531393483.808943,can0 0CF00203 [8] 00 00 00 00 00 00 00 00
1531393483.815994,can0 08FF0303 [8] 00 00 00 00 00 00 00 00
1531393483.816628,can0 08FF0001 [8] 00 00 00 00 00 00 00 00
1531393483.817187,can0 0CF00203 [8] 00 00 00 00 00 00 00 00
1531393483.817643,can0 08FF0303 [8] 00 00 00 00 00 00 00 00
1531393483.818074,can0 08FF0001 [8] 00 00 00 00 00 00 00 00
1531393483.818483,can0 0CF00203 [8] 00 00 00 00 00 00 00 00
1531393483.818874,can0 08FF0303 [8] 00 00 00 00 00 00 00 00
1531393483.823534,can0 08FF0001 [8] 00 00 00 00 00 00 00 00
1531393483.824091,can0 0CF00203 [8] 00 00 00 00 00 00 00 00
1531393483.824587,can0 08FF0303 [8] 00 00 00 00 00 00 00 00
1531393483.825202,can0 08FF0001 [8] 00 00 00 00 00 00 00 00
