1542598868.863471,can1 11111111 [8] 00 34 51 D9 00 1F 6F 32
1542598868.877973,can1 11111111 [8] 00 34 51 DA 00 1F 6F 32
1542598868.884823,can1 11111111 [8] 00 34 51 DB 00 1F 6F 33
1542598868.887347,can1 11111111 [8] 00 34 51 DC 00 1F 6F 33
1542598868.89465,can1 11111111 [8] 00 34 51 DD 00 1F 6F 34
1542598868.896934,can1 11111111 [8] 00 34 51 DE 00 1F 6F 35
1542598868.903376,can1 11111111 [8] 00 34 51 DF 00 1F 6F 35
1542598868.905494,can1 11111111 [8] 00 34 51 E0 00 1F 6F 36
1542598868.911852,can1 11111111 [8] 00 34 51 E1 00 1F 6F 36
1542598868.918172,can1 11111111 [8] 00 34 51 E2 00 1F 6F 37
1542598868.920444,can1 11111111 [8] 00 34 51 E3 00 1F 6F 38
1542598868.926617,can1 11111111 [8] 00 34 51 E4 00 1F 6F 38
1542598868.928695,can1 11111111 [8] 00 34 51 E5 00 1F 6F 39
1542598868.934816,can1 11111111 [8] 00 34 51 E6 00 1F 6F 39
1542598868.940898,can1 11111111 [8] 00 34 51 E7 00 1F 6F 3A
1542598868.943172,can1 11111111 [8] 00 34 51 E8 00 1F 6F 3B
1542598868.949199,can1 11111111 [8] 00 34 51 E9 00 1F 6F 3B
1542598868.951479,can1 11111111 [8] 00 34 51 EA 00 1F 6F 3C
1542598868.9575,can1 11111111 [8] 00 34 51 EB 00 1F 6F 3C
1542598868.962153,can1 11111111 [8] 00 34 51 EC 00 1F 6F 3D
1542598868.968566,can1 11111111 [8] 00 34 51 ED 00 1F 6F 3E
1542598868.974544,can1 14FD3E00 [8] FF FF FF FF FF FF FF FF
1542598868.976517,can1 11111111 [8] 00 34 51 EE 00 1F 6F 3E
1542598868.982538,can1 0CF00400 [8] 38 FE FE FE FE 00 FF FE
1542598868.984643,can1 11111111 [8] 00 34 51 F0 00 1F 6F 3F
1542598868.990598,can1 0CF00203 [8] FF 00 00 FF FF AD 47 03
1542598868.992665,can1 11111111 [8] 00 34 51 F1 00 1F 6F 40
1542598868.998581,can1 0CF00300 [8] D1 00 FE FF FF FF 00 FF
1542598869.000645,can1 11111111 [8] 00 34 51 F2 00 1F 6F 41
1542598869.00667,can1 11111111 [8] 00 34 51 EF 00 1F 6F 3F
1542598869.008577,can1 11111111 [8] 00 34 51 F3 00 1F 6F 41
1542598869.014566,can1 11111111 [8] 00 34 51 F4 00 1F 6F 42
1542598869.016571,can1 11111111 [8] 00 34 51 F5 00 1F 6F 42
1542598869.022561,can1 11111111 [8] 00 34 51 F6 00 1F 6F 43
1542598869.024441,can1 11111111 [8] 00 34 51 F7 00 1F 6F 44
1542598869.03052,can1 11111111 [8] 00 34 51 F8 00 1F 6F 44
1542598869.032481,can1 11111111 [8] 00 34 51 F9 00 1F 6F 45
1542598869.038659,can1 11111111 [8] 00 34 51 FA 00 1F 6F 45
1542598869.044469,can1 11111111 [8] 00 34 51 FB 00 1F 6F 46
1542598869.046593,can1 11111111 [8] 00 34 51 FC 00 1F 6F 47
1542598869.052482,can1 11111111 [8] 00 34 51 FD 00 1F 6F 47
1542598869.057092,can1 11111111 [8] 00 34 51 FE 00 1F 6F 48
1542598869.066124,can1 11111111 [8] 00 34 51 FF 00 1F 6F 48
1542598869.066812,can1 11111111 [8] 00 34 52 00 00 1F 6F 49
1542598869.067342,can1 11111111 [8] 00 34 52 01 00 1F 6F 4A
1542598869.067908,can1 11111111 [8] 00 34 52 02 00 1F 6F 4A
1542598869.068433,can1 11111111 [8] 00 34 52 03 00 1F 6F 4B
1542598869.068936,can1 11111111 [8] 00 34 52 04 00 1F 6F 4B
1542598869.069372,can1 11111111 [8] 00 34 52 05 00 1F 6F 4C
1542598869.074071,can1 11111111 [8] 00 34 52 06 00 1F 6F 4D
1542598869.074797,can1 11111111 [8] 00 34 52 07 00 1F 6F 4D
1542598869.075349,can1 11111111 [8] 00 34 52 08 00 1F 6F 4E
1542598869.075957,can1 11111111 [8] 00 34 52 09 00 1F 6F 4E
1542598869.076466,can1 11111111 [8] 00 34 52 0A 00 1F 6F 4F
1542598869.076956,can1 11111111 [8] 00 34 52 0B 00 1F 6F 50
1542598869.07743,can1 11111111 [8] 00 34 52 0C 00 1F 6F 50
1542598869.082293,can1 11111111 [8] 00 34 52 0D 00 1F 6F 51
1542598869.082895,can1 11111111 [8] 00 34 52 0E 00 1F 6F 51
1542598869.083486,can1 11111111 [8] 00 34 52 0F 00 1F 6F 52
1542598869.084016,can1 11111111 [8] 00 34 52 10 00 1F 6F 53
1542598869.084513,can1 11111111 [8] 00 34 52 11 00 1F 6F 53
1542598869.08499,can1 11111111 [8] 00 34 52 12 00 1F 6F 54
1542598869.089565,can1 11111111 [8] 00 34 52 13 00 1F 6F 54
1542598869.090322,can1 11111111 [8] 00 34 52 14 00 1F 6F 55
1542598869.090897,can1 11111111 [8] 00 34 52 15 00 1F 6F 56
1542598869.091497,can1 11111111 [8] 00 34 52 16 00 1F 6F 56
1542598869.092074,can1 11111111 [8] 00 34 52 17 00 1F 6F 57
1542598869.092593,can1 11111111 [8] 00 34 52 18 00 1F 6F 57
1542598869.093084,can1 11111111 [8] 00 34 52 19 00 1F 6F 58
1542598869.100055,can1 11111111 [8] 00 34 52 1A 00 1F 6F 59
1542598869.100664,can1 18F0010B [8] CF FF F0 FF FF DC FF FF
1542598869.101274,can1 11111111 [8] 00 34 52 1B 00 1F 6F 59
1542598869.101801,can1 11111111 [8] 00 34 52 1C 00 1F 6F 5A
1542598869.102308,can1 11111111 [8] 00 34 52 1D 00 1F 6F 5A
1542598869.102791,can1 11111111 [8] 00 34 52 1E 00 1F 6F 5B
1542598869.106152,can1 11111111 [8] 00 34 52 1F 00 1F 6F 5C
1542598869.106852,can1 11111111 [8] 00 34 52 20 00 1F 6F 5C
1542598869.107435,can1 11111111 [8] 00 34 52 21 00 1F 6F 5D
1542598869.107953,can1 11111111 [8] 00 34 52 22 00 1F 6F 5D
1542598869.108445,can1 11111111 [8] 00 34 52 23 00 1F 6F 5E
1542598869.108984,can1 11111111 [8] 00 34 52 24 00 1F 6F 5F
1542598869.109503,can1 11111111 [8] 00 34 52 25 00 1F 6F 5F
1542598869.109987,can1 18F0010B [8] CF FF F0 FF FF DC FF FF
1542598869.110465,can1 11111111 [8] 00 34 52 26 00 1F 6F 60
1542598869.111001,can1 11111111 [8] 00 34 52 27 00 1F 6F 60
1542598869.111486,can1 11111111 [8] 00 34 52 28 00 1F 6F 61
1542598869.111908,can1 11111111 [8] 00 34 52 29 00 1F 6F 62
1542598869.112381,can1 11111111 [8] 00 34 52 2A 00 1F 6F 62
1542598869.112911,can1 11111111 [8] 00 34 52 2B 00 1F 6F 63
1542598869.11341,can1 11111111 [8] 00 34 52 2C 00 1F 6F 63
1542598869.113885,can1 11111111 [8] 00 34 52 2D 00 1F 6F 64
1542598869.114357,can1 11111111 [8] 00 34 52 2E 00 1F 6F 65
1542598869.115453,can1 11111111 [8] 00 34 52 2F 00 1F 6F 65
1542598869.116062,can1 18F0010B [8] CF FF F0 FF FF DC FF FF
1542598869.116661,can1 11111111 [8] 00 34 52 30 00 1F 6F 66
1542598869.117197,can1 11111111 [8] 00 34 52 31 00 1F 6F 66
1542598869.1177,can1 11111111 [8] 00 34 52 32 00 1F 6F 67
1542598869.118191,can1 11111111 [8] 00 34 52 33 00 1F 6F 68
1542598869.118726,can1 11111111 [8] 00 34 52 34 00 1F 6F 68
1542598869.119225,can1 11111111 [8] 00 34 52 35 00 1F 6F 69
1542598869.119693,can1 11111111 [8] 00 34 52 36 00 1F 6F 69
1542598869.120114,can1 11111111 [8] 00 34 52 37 00 1F 6F 6A
1542598869.120648,can1 11111111 [8] 00 34 52 38 00 1F 6F 6B
1542598869.121139,can1 11111111 [8] 00 34 52 39 00 1F 6F 6B
1542598869.121619,can1 18FEBF0B [8] 00 00 7D 7D 7D 7D FF FF
1542598869.122081,can1 11111111 [8] 00 34 52 3A 00 1F 6F 6C
1542598869.12261,can1 11111111 [8] 00 34 52 3B 00 1F 6F 6C
1542598869.123112,can1 11111111 [8] 00 34 52 3C 00 1F 6F 6D
1542598869.123535,can1 11111111 [8] 00 34 52 3D 00 1F 6F 6E
1542598869.124012,can1 11111111 [8] 00 34 52 3E 00 1F 6F 6E
1542598869.124541,can1 11111111 [8] 00 34 52 3F 00 1F 6F 6F
1542598869.12505,can1 11111111 [8] 00 34 52 40 00 1F 6F 6F
1542598869.125532,can1 11111111 [8] 00 34 52 41 00 1F 6F 70
1542598869.126003,can1 11111111 [8] 00 34 52 42 00 1F 6F 71
1542598869.126522,can1 11111111 [8] 00 34 52 43 00 1F 6F 71
1542598869.127013,can1 11111111 [8] 00 34 52 44 00 1F 6F 72
1542598869.127529,can1 18FEDF00 [8] FE FE FE FF FE FF BF FF
1542598869.128015,can1 11111111 [8] 00 34 52 45 00 1F 6F 72
1542598869.128556,can1 0CF00400 [8] 38 FE FE FE FE 00 FF FE
1542598869.128996,can1 11111111 [8] 00 34 52 47 00 1F 6F 74
1542598869.129475,can1 0CF00203 [8] FF 00 00 FF FF AD 47 03
1542598869.129952,can1 11111111 [8] 00 34 52 48 00 1F 6F 74
1542598869.1305,can1 0CF00300 [8] D1 00 FE FF FF FF 00 FF
1542598869.130998,can1 11111111 [8] 00 34 52 49 00 1F 6F 75
1542598869.131477,can1 11111111 [8] 00 34 52 46 00 1F 6F 73
1542598869.131952,can1 11111111 [8] 00 34 52 4A 00 1F 6F 75
1542598869.132482,can1 11111111 [8] 00 34 52 4B 00 1F 6F 76
1542598869.13293,can1 11111111 [8] 00 34 52 4C 00 1F 6F 77
1542598869.13342,can1 11111111 [8] 00 34 52 4D 00 1F 6F 77
1542598869.133889,can1 11111111 [8] 00 34 52 4E 00 1F 6F 78
1542598869.134415,can1 11111111 [8] 00 34 52 4F 00 1F 6F 78
1542598869.134905,can1 11111111 [8] 00 34 52 50 00 1F 6F 79
1542598869.135387,can1 11111111 [8] 00 34 52 51 00 1F 6F 7A
1542598869.13586,can1 11111111 [8] 00 34 52 52 00 1F 6F 7A
1542598869.136387,can1 11111111 [8] 00 34 52 53 00 1F 6F 7B
1542598869.137612,can1 11111111 [8] 00 34 52 54 00 1F 6F 7B
1542598869.138325,can1 11111111 [8] 00 34 52 55 00 1F 6F 7C
1542598869.138885,can1 11111111 [8] 00 34 52 56 00 1F 6F 7D
1542598869.139403,can1 11111111 [8] 00 34 52 57 00 1F 6F 7D
1542598869.139889,can1 11111111 [8] 00 34 52 58 00 1F 6F 7E
1542598869.140463,can1 11111111 [8] 00 34 52 59 00 1F 6F 7E
1542598869.140948,can1 11111111 [8] 00 34 52 5A 00 1F 6F 7F
1542598869.141422,can1 11111111 [8] 00 34 52 5B 00 1F 6F 80
1542598869.141894,can1 11111111 [8] 00 34 52 5C 00 1F 6F 80
1542598869.14244,can1 11111111 [8] 00 34 52 5D 00 1F 6F 81
1542598869.142872,can1 11111111 [8] 00 34 52 5E 00 1F 6F 81
1542598869.143345,can1 11111111 [8] 00 34 52 5F 00 1F 6F 82
1542598869.143822,can1 11111111 [8] 00 34 52 60 00 1F 6F 83
1542598869.14436,can1 11111111 [8] 00 34 52 61 00 1F 6F 83
1542598869.144833,can1 11111111 [8] 00 34 52 62 00 1F 6F 84
1542598869.145307,can1 11111111 [8] 00 34 52 63 00 1F 6F 84
1542598869.14578,can1 11111111 [8] 00 34 52 64 00 1F 6F 85
1542598869.14632,can1 11111111 [8] 00 34 52 65 00 1F 6F 86
1542598869.146752,can1 11111111 [8] 00 34 52 66 00 1F 6F 86
1542598869.147226,can1 11111111 [8] 00 34 52 67 00 1F 6F 87
1542598869.147693,can1 11111111 [8] 00 34 52 68 00 1F 6F 87
1542598869.14823,can1 11111111 [8] 00 34 52 69 00 1F 6F 88
1542598869.148708,can1 11111111 [8] 00 34 52 6A 00 1F 6F 89
1542598869.149176,can1 11111111 [8] 00 34 52 6B 00 1F 6F 89
1542598869.149639,can1 11111111 [8] 00 34 52 6C 00 1F 6F 8A
1542598869.150195,can1 11111111 [8] 00 34 52 6D 00 1F 6F 8A
1542598869.150636,can1 11111111 [8] 00 34 52 6E 00 1F 6F 8B
1542598869.151117,can1 11111111 [8] 00 34 52 6F 00 1F 6F 8C
1542598869.151586,can1 11111111 [8] 00 34 52 70 00 1F 6F 8C
1542598869.152118,can1 11111111 [8] 00 34 52 71 00 1F 6F 8D
1542598869.152608,can1 11111111 [8] 00 34 52 72 00 1F 6F 8D
1542598869.153079,can1 14FFA000 [8] FC FF FF FF FF FF FF FF
1542598869.154757,can1 11111111 [8] 00 34 52 73 00 1F 6F 8E
1542598869.155489,can1 0CF00400 [8] 38 FE FE FE FE 00 FF FE
1542598869.156332,can1 11111111 [8] 00 34 52 75 00 1F 6F 8F
1542598869.156884,can1 0CF00203 [8] FF 00 00 FF FF AD 47 03
1542598869.157328,can1 11111111 [8] 00 34 52 76 00 1F 6F 90
1542598869.158005,can1 11111111 [8] 00 34 52 74 00 1F 6F 8F
1542598869.158521,can1 11111111 [8] 00 34 52 77 00 1F 6F 90
1542598869.158963,can1 11111111 [8] 00 34 52 78 00 1F 6F 91
1542598869.159438,can1 11111111 [8] 00 34 52 79 00 1F 6F 92
1542598869.160441,can1 11111111 [8] 00 34 52 7A 00 1F 6F 92
1542598869.161014,can1 11111111 [8] 00 34 52 7B 00 1F 6F 93
1542598869.161584,can1 11111111 [8] 00 34 52 7C 00 1F 6F 93
1542598869.162101,can1 11111111 [8] 00 34 52 7D 00 1F 6F 94
1542598869.162595,can1 11111111 [8] 00 34 52 7E 00 1F 6F 95
1542598869.163073,can1 11111111 [8] 00 34 52 7F 00 1F 6F 95
1542598869.163611,can1 11111111 [8] 00 34 52 80 00 1F 6F 96
1542598869.164051,can1 11111111 [8] 00 34 52 81 00 1F 6F 96
1542598869.164531,can1 11111111 [8] 00 34 52 82 00 1F 6F 97
1542598869.165001,can1 11111111 [8] 00 34 52 83 00 1F 6F 98
1542598869.165527,can1 11111111 [8] 00 34 52 84 00 1F 6F 98
1542598869.166012,can1 11111111 [8] 00 34 52 85 00 1F 6F 99
1542598869.16649,can1 11111111 [8] 00 34 52 86 00 1F 6F 99
1542598869.166957,can1 11111111 [8] 00 34 52 87 00 1F 6F 9A
1542598869.167464,can1 11111111 [8] 00 34 52 88 00 1F 6F 9B
1542598869.167907,can1 11111111 [8] 00 34 52 89 00 1F 6F 9B
1542598869.168391,can1 11111111 [8] 00 34 52 8A 00 1F 6F 9C
1542598869.168868,can1 11111111 [8] 00 34 52 8B 00 1F 6F 9C
1542598869.169385,can1 11111111 [8] 00 34 52 8C 00 1F 6F 9D
1542598869.169875,can1 11111111 [8] 00 34 52 8D 00 1F 6F 9E
1542598869.170358,can1 11111111 [8] 00 34 52 8E 00 1F 6F 9E
1542598869.170838,can1 11111111 [8] 00 34 52 8F 00 1F 6F 9F
1542598869.171362,can1 11111111 [8] 00 34 52 90 00 1F 6F 9F
1542598869.171848,can1 11111111 [8] 00 34 52 91 00 1F 6F A0
1542598869.172269,can1 11111111 [8] 00 34 52 92 00 1F 6F A1
1542598869.172738,can1 11111111 [8] 00 34 52 93 00 1F 6F A1
1542598869.173255,can1 11111111 [8] 00 34 52 94 00 1F 6F A2
1542598869.173747,can1 11111111 [8] 00 34 52 95 00 1F 6F A2
1542598869.174218,can1 18FE4A03 [8] FF FF F3 FF F0 F7 FF FF
1542598869.174691,can1 11111111 [8] 00 34 52 96 00 1F 6F A3
1542598869.17511,can1 0CF00400 [8] 38 FE FE FE FE 00 FF FE
1542598869.175644,can1 11111111 [8] 00 34 52 98 00 1F 6F A4
1542598869.17613,can1 0CF00203 [8] FF 00 00 FF FF AD 47 03
1542598869.176608,can1 11111111 [8] 00 34 52 99 00 1F 6F A5
1542598869.177134,can1 0CF00300 [8] D1 00 FE FF FF FF 00 FF
1542598869.177628,can1 11111111 [8] 00 34 52 9A 00 1F 6F A5
1542598869.178104,can1 11111111 [8] 00 34 52 97 00 1F 6F A4
1542598869.178572,can1 11111111 [8] 00 34 52 9B 00 1F 6F A6
1542598869.179095,can1 11111111 [8] 00 34 52 9C 00 1F 6F A7
1542598869.179612,can1 11111111 [8] 00 34 52 9D 00 1F 6F A7
1542598869.180036,can1 11111111 [8] 00 34 52 9E 00 1F 6F A8
1542598869.180507,can1 11111111 [8] 00 34 52 9F 00 1F 6F A8
1542598869.180982,can1 11111111 [8] 00 34 52 A0 00 1F 6F A9
1542598869.18154,can1 11111111 [8] 00 34 52 A1 00 1F 6F AA
1542598869.18203,can1 11111111 [8] 00 34 52 A2 00 1F 6F AA
1542598869.182504,can1 11111111 [8] 00 34 52 A3 00 1F 6F AB
1542598869.183016,can1 11111111 [8] 00 34 52 A4 00 1F 6F AB
1542598869.183525,can1 11111111 [8] 00 34 52 A5 00 1F 6F AC
1542598869.183968,can1 11111111 [8] 00 34 52 A6 00 1F 6F AD
1542598869.184442,can1 11111111 [8] 00 34 52 A7 00 1F 6F AD
1542598869.184953,can1 11111111 [8] 00 34 52 A8 00 1F 6F AE
1542598869.18545,can1 11111111 [8] 00 34 52 A9 00 1F 6F AF
1542598869.185929,can1 11111111 [8] 00 34 52 AA 00 1F 6F AF
1542598869.18641,can1 11111111 [8] 00 34 52 AB 00 1F 6F B0
1542598869.186927,can1 11111111 [8] 00 34 52 AC 00 1F 6F B0
1542598869.187424,can1 11111111 [8] 00 34 52 AD 00 1F 6F B1
1542598869.187913,can1 11111111 [8] 00 34 52 AE 00 1F 6F B2
1542598869.188338,can1 11111111 [8] 00 34 52 AF 00 1F 6F B2
1542598869.188853,can1 11111111 [8] 00 34 52 B0 00 1F 6F B3
1542598869.189353,can1 11111111 [8] 00 34 52 B1 00 1F 6F B3
1542598869.189836,can1 11111111 [8] 00 34 52 B2 00 1F 6F B4
1542598869.190302,can1 11111111 [8] 00 34 52 B3 00 1F 6F B5
1542598869.190806,can1 11111111 [8] 00 34 52 B4 00 1F 6F B5
1542598869.191297,can1 11111111 [8] 00 34 52 B5 00 1F 6F B6
1542598869.191777,can1 11111111 [8] 00 34 52 B6 00 1F 6F B6
1542598869.192194,can1 11111111 [8] 00 34 52 B7 00 1F 6F B7
1542598869.192671,can1 11111111 [8] 00 34 52 B8 00 1F 6F B8
1542598869.193212,can1 11111111 [8] 00 34 52 B9 00 1F 6F B8
1542598869.193691,can1 11111111 [8] 00 34 52 BA 00 1F 6F B9
1542598869.194157,can1 11111111 [8] 00 34 52 BB 00 1F 6F B9
1542598869.195012,can1 11111111 [8] 00 34 52 BC 00 1F 6F BA
1542598869.195483,can1 11111111 [8] 00 34 52 BD 00 1F 6F BB
1542598869.195969,can1 11111111 [8] 00 34 52 BE 00 1F 6F BB
1542598869.196449,can1 11111111 [8] 00 34 52 BF 00 1F 6F BC
1542598869.196988,can1 11111111 [8] 00 34 52 C0 00 1F 6F BC
1542598869.197471,can1 11111111 [8] 00 34 52 C1 00 1F 6F BD
1542598869.19795,can1 11111111 [8] 00 34 52 C2 00 1F 6F BE
1542598869.198414,can1 11111111 [8] 00 34 52 C3 00 1F 6F BE
1542598869.198952,can1 18FEDF00 [8] FE FE FE FF FE FF BF FF
1542598869.199436,can1 11111111 [8] 00 34 52 C4 00 1F 6F BF
1542598869.199855,can1 0CF00400 [8] 38 FE FE FE FE 00 FF FE
1542598869.200324,can1 11111111 [8] 00 34 52 C6 00 1F 6F C0
1542598869.200856,can1 0CF00203 [8] FF 00 00 FF FF AD 47 03
1542598869.201354,can1 11111111 [8] 00 34 52 C7 00 1F 6F C1
1542598869.201848,can1 11111111 [8] 00 34 52 C5 00 1F 6F BF
1542598869.202318,can1 11111111 [8] 00 34 52 C8 00 1F 6F C1
1542598869.202857,can1 11111111 [8] 00 34 52 C9 00 1F 6F C2
1542598869.203349,can1 11111111 [8] 00 34 52 CA 00 1F 6F C2
1542598869.203822,can1 11111111 [8] 00 34 52 CB 00 1F 6F C3
1542598869.204232,can1 11111111 [8] 00 34 52 CC 00 1F 6F C4
1542598869.204764,can1 11111111 [8] 00 34 52 CD 00 1F 6F C4
1542598869.205248,can1 11111111 [8] 00 34 52 CE 00 1F 6F C5
1542598869.205726,can1 11111111 [8] 00 34 52 CF 00 1F 6F C5
1542598869.206196,can1 11111111 [8] 00 34 52 D0 00 1F 6F C6
1542598869.207227,can1 11111111 [8] 00 34 52 D1 00 1F 6F C7
1542598869.207842,can1 11111111 [8] 00 34 52 D2 00 1F 6F C7
1542598869.208429,can1 11111111 [8] 00 34 52 D3 00 1F 6F C8
1542598869.208963,can1 11111111 [8] 00 34 52 D4 00 1F 6F C8
1542598869.209463,can1 11111111 [8] 00 34 52 D5 00 1F 6F C9
1542598869.209955,can1 11111111 [8] 00 34 52 D6 00 1F 6F CA
1542598869.210479,can1 11111111 [8] 00 34 52 D7 00 1F 6F CA
1542598869.21098,can1 11111111 [8] 00 34 52 D8 00 1F 6F CB
1542598869.211459,can1 11111111 [8] 00 34 52 D9 00 1F 6F CB
1542598869.211894,can1 11111111 [8] 00 34 52 DA 00 1F 6F CC
1542598869.212427,can1 18F0010B [8] CF FF F0 FF FF DC FF FF
1542598869.212931,can1 11111111 [8] 00 34 52 DB 00 1F 6F CD
1542598869.213439,can1 11111111 [8] 00 34 52 DC 00 1F 6F CD
1542598869.213922,can1 11111111 [8] 00 34 52 DD 00 1F 6F CE
1542598869.214454,can1 11111111 [8] 00 34 52 DE 00 1F 6F CE
1542598869.214949,can1 11111111 [8] 00 34 52 DF 00 1F 6F CF
1542598869.215425,can1 11111111 [8] 00 34 52 E0 00 1F 6F D0
1542598869.215903,can1 11111111 [8] 00 34 52 E1 00 1F 6F D0
1542598869.216439,can1 11111111 [8] 00 34 52 E2 00 1F 6F D1
1542598869.216875,can1 11111111 [8] 00 34 52 E3 00 1F 6F D1
1542598869.217373,can1 11111111 [8] 00 34 52 E4 00 1F 6F D2
1542598869.217857,can1 11111111 [8] 00 34 52 E5 00 1F 6F D3
1542598869.218386,can1 11111111 [8] 00 34 52 E6 00 1F 6F D3
1542598869.218877,can1 11111111 [8] 00 34 52 E7 00 1F 6F D4
1542598869.219347,can1 11111111 [8] 00 34 52 E8 00 1F 6F D4
1542598869.219808,can1 11111111 [8] 00 34 52 E9 00 1F 6F D5
1542598869.220354,can1 11111111 [8] 00 34 52 EA 00 1F 6F D6
1542598869.220851,can1 11111111 [8] 00 34 52 EB 00 1F 6F D6
1542598869.221332,can1 11111111 [8] 00 34 52 EC 00 1F 6F D7
1542598869.221755,can1 11111111 [8] 00 34 52 ED 00 1F 6F D7
1542598869.22228,can1 11111111 [8] 00 34 52 EE 00 1F 6F D8
1542598869.222772,can1 11111111 [8] 00 34 52 EF 00 1F 6F D9
1542598869.22325,can1 11111111 [8] 00 34 52 F0 00 1F 6F D9
1542598869.22371,can1 11111111 [8] 00 34 52 F1 00 1F 6F DA
1542598869.224223,can1 18F0010B [8] CF FF F0 FF FF DC FF FF
1542598869.224706,can1 11111111 [8] 00 34 52 F2 00 1F 6F DA
1542598869.225184,can1 11111111 [8] 00 34 52 F3 00 1F 6F DB
1542598869.225609,can1 11111111 [8] 00 34 52 F4 00 1F 6F DC
1542598869.226133,can1 11111111 [8] 00 34 52 F5 00 1F 6F DC
1542598869.226621,can1 11111111 [8] 00 34 52 F6 00 1F 6F DD
1542598869.227091,can1 11111111 [8] 00 34 52 F7 00 1F 6F DD
1542598869.227562,can1 11111111 [8] 00 34 52 F8 00 1F 6F DE
1542598869.228088,can1 11111111 [8] 00 34 52 F9 00 1F 6F DF
1542598869.228569,can1 11111111 [8] 00 34 52 FA 00 1F 6F DF
1542598869.229043,can1 11111111 [8] 00 34 52 FB 00 1F 6F E0
1542598869.229462,can1 11111111 [8] 00 34 52 FC 00 1F 6F E0
1542598869.229988,can1 11111111 [8] 00 34 52 FD 00 1F 6F E1
1542598869.230481,can1 18F0010B [8] CF FF F0 FF FF DC FF FF
1542598869.230965,can1 11111111 [8] 00 34 52 FE 00 1F 6F E2
1542598869.231437,can1 11111111 [8] 00 34 52 FF 00 1F 6F E2
1542598869.231956,can1 11111111 [8] 00 34 53 00 00 1F 6F E3
1542598869.232447,can1 11111111 [8] 00 34 53 01 00 1F 6F E3
1542598869.232927,can1 11111111 [8] 00 34 53 02 00 1F 6F E4
1542598869.233343,can1 11111111 [8] 00 34 53 03 00 1F 6F E5
1542598869.233874,can1 11111111 [8] 00 34 53 04 00 1F 6F E5
1542598869.234379,can1 11111111 [8] 00 34 53 05 00 1F 6F E6
1542598869.234863,can1 11111111 [8] 00 34 53 06 00 1F 6F E6
1542598869.235348,can1 11111111 [8] 00 34 53 07 00 1F 6F E7
1542598869.235865,can1 11111111 [8] 00 34 53 08 00 1F 6F E8
1542598869.23637,can1 11111111 [8] 00 34 53 09 00 1F 6F E8
1542598869.236855,can1 18F0010B [8] CF FF F0 FF FF DC FF FF
1542598869.237325,can1 11111111 [8] 00 34 53 0A 00 1F 6F E9
1542598869.237793,can1 11111111 [8] 00 34 53 0B 00 1F 6F E9
1542598869.238276,can1 11111111 [8] 00 34 53 0C 00 1F 6F EA
1542598869.238751,can1 11111111 [8] 00 34 53 0D 00 1F 6F EB
1542598869.23922,can1 11111111 [8] 00 34 53 0E 00 1F 6F EB
1542598869.239735,can1 11111111 [8] 00 34 53 0F 00 1F 6F EC
1542598869.240224,can1 11111111 [8] 00 34 53 10 00 1F 6F EC
1542598869.240704,can1 11111111 [8] 00 34 53 11 00 1F 6F ED
1542598869.241174,can1 11111111 [8] 00 34 53 12 00 1F 6F EE
1542598869.241647,can1 11111111 [8] 00 34 53 13 00 1F 6F EE
1542598869.242133,can1 11111111 [8] 00 34 53 14 00 1F 6F EF
1542598869.242611,can1 18F00503 [8] FF 57 9E FF 20 2D 2D 2D
1542598869.243085,can1 11111111 [8] 00 34 53 15 00 1F 6F EF
1542598869.2436,can1 0CF00400 [8] 38 FE FE FE FE 00 FF FE
1542598869.244091,can1 11111111 [8] 00 34 53 17 00 1F 6F F1
1542598869.244578,can1 0CF00203 [8] FF 00 00 FF FF AD 47 03
1542598869.245059,can1 11111111 [8] 00 34 53 18 00 1F 6F F1
1542598869.245572,can1 0CF00400 [8] 38 FE FE FE FE 00 FF FE
1542598869.24601,can1 11111111 [8] 00 34 53 19 00 1F 6F F2
1542598869.246499,can1 0CF00300 [8] D1 00 FE FF FF FF 00 FF
1542598869.246971,can1 11111111 [8] 00 34 53 1A 00 1F 6F F2
1542598869.247485,can1 11111111 [8] 00 34 53 16 00 1F 6F F0
1542598869.247978,can1 11111111 [8] 00 34 53 1B 00 1F 6F F3
1542598869.248463,can1 11111111 [8] 00 34 53 1C 00 1F 6F F4
1542598869.24893,can1 11111111 [8] 00 34 53 24 00 1F 6F F8
1542598869.249449,can1 11111111 [8] 00 34 53 28 00 1F 6F FB
1542598869.249937,can1 11111111 [8] 00 34 53 32 00 1F 70 01
1542598869.25036,can1 11111111 [8] 00 34 53 36 00 1F 70 03
1542598869.250831,can1 11111111 [8] 00 34 53 41 00 1F 70 0A
1542598869.251346,can1 11111111 [8] 00 34 53 44 00 1F 70 0C
1542598869.251843,can1 11111111 [8] 00 34 53 53 00 1F 70 15
1542598869.252325,can1 11111111 [8] 00 34 53 63 00 1F 70 1E
1542598869.252799,can1 11111111 [8] 00 34 53 64 00 1F 70 1F
1542598869.253318,can1 11111111 [8] 00 34 53 65 00 1F 70 1F
1542598869.253817,can1 18FEBF0B [8] 00 00 7D 7D 7D 7D FF FF
1542598869.255726,can1 11111111 [8] 00 34 53 66 00 1F 70 20
1542598869.256392,can1 11111111 [8] 00 34 53 67 00 1F 70 21
1542598869.256926,can1 11111111 [8] 00 34 53 68 00 1F 70 21
1542598869.25764,can1 11111111 [8] 00 34 53 71 00 1F 70 27
1542598869.258172,can1 18FEBF0B [8] 00 00 7D 7D 7D 7D FF FF
1542598869.258668,can1 11111111 [8] 00 34 53 72 00 1F 70 27
1542598869.259102,can1 11111111 [8] 00 34 53 73 00 1F 70 28
1542598869.259662,can1 11111111 [8] 00 34 53 74 00 1F 70 28
1542598869.260157,can1 11111111 [8] 00 34 53 75 00 1F 70 29
1542598869.260627,can1 11111111 [8] 00 34 53 76 00 1F 70 2A
1542598869.261146,can1 11111111 [8] 00 34 53 7D 00 1F 70 2E
1542598869.261658,can1 11111111 [8] 00 34 53 7F 00 1F 70 2F
1542598869.262141,can1 11111111 [8] 00 34 53 80 00 1F 70 30
1542598869.262614,can1 11111111 [8] 00 34 53 81 00 1F 70 30
1542598869.263135,can1 11111111 [8] 00 34 53 82 00 1F 70 31
1542598869.263635,can1 11111111 [8] 00 34 53 83 00 1F 70 31
1542598869.264066,can1 11111111 [8] 00 34 53 84 00 1F 70 32
1542598869.264538,can1 11111111 [8] 00 34 53 8A 00 1F 70 36
1542598869.265063,can1 0CF00203 [8] FF 00 00 FF FF AD 47 03
1542598869.265549,can1 11111111 [8] 00 34 53 8C 00 1F 70 37
1542598869.266034,can1 0CF00400 [8] 38 FE FE FE FE 00 FF FE
1542598869.266508,can1 11111111 [8] 00 34 53 8D 00 1F 70 37
1542598869.267027,can1 0CF00300 [8] D1 00 FE FF FF FF 00 FF
1542598869.267516,can1 11111111 [8] 00 34 53 98 00 1F 70 3E
1542598869.267988,can1 11111111 [8] 00 34 53 9A 00 1F 70 3F
1542598869.268402,can1 11111111 [8] 00 34 53 9B 00 1F 70 40
1542598869.26887,can1 11111111 [8] 00 34 53 9C 00 1F 70 40
1542598869.269406,can1 11111111 [8] 00 34 53 9D 00 1F 70 41
1542598869.269885,can1 11111111 [8] 00 34 53 9E 00 1F 70 42
1542598869.270352,can1 11111111 [8] 00 34 53 A3 00 1F 70 45
1542598869.270871,can1 11111111 [8] 00 34 53 A5 00 1F 70 46
1542598869.271388,can1 11111111 [8] 00 34 53 A6 00 1F 70 46
1542598869.271869,can1 11111111 [8] 00 34 53 A7 00 1F 70 47
1542598869.272292,can1 11111111 [8] 00 34 53 A8 00 1F 70 48
1542598869.272764,can1 11111111 [8] 00 34 53 A9 00 1F 70 48
1542598869.273303,can1 11111111 [8] 00 34 53 AA 00 1F 70 49
1542598869.273778,can1 11111111 [8] 00 34 53 AB 00 1F 70 49
1542598869.274248,can1 11111111 [8] 00 34 53 AC 00 1F 70 4A
1542598869.274711,can1 11111111 [8] 00 34 53 AD 00 1F 70 4B
1542598869.275767,can1 11111111 [8] 00 34 53 AE 00 1F 70 4B
1542598869.276373,can1 11111111 [8] 00 34 53 AF 00 1F 70 4C
1542598869.276965,can1 11111111 [8] 00 34 53 B0 00 1F 70 4C
1542598869.277498,can1 11111111 [8] 00 34 53 B1 00 1F 70 4D
1542598869.277993,can1 11111111 [8] 00 34 53 B2 00 1F 70 4E
1542598869.278487,can1 11111111 [8] 00 34 53 B3 00 1F 70 4E
1542598869.279049,can1 11111111 [8] 00 34 53 B4 00 1F 70 4F
1542598869.279543,can1 11111111 [8] 00 34 53 B5 00 1F 70 4F
1542598869.279982,can1 11111111 [8] 00 34 53 B6 00 1F 70 50
1542598869.280473,can1 11111111 [8] 00 34 53 B7 00 1F 70 51
1542598869.281003,can1 11111111 [8] 00 34 53 B8 00 1F 70 51
1542598869.281495,can1 11111111 [8] 00 34 53 B9 00 1F 70 52
1542598869.28198,can1 11111111 [8] 00 34 53 BA 00 1F 70 52
1542598869.282451,can1 11111111 [8] 00 34 53 BB 00 1F 70 53
1542598869.282985,can1 11111111 [8] 00 34 53 BC 00 1F 70 54
1542598869.28347,can1 11111111 [8] 00 34 53 BD 00 1F 70 54
1542598869.283942,can1 11111111 [8] 00 34 53 BE 00 1F 70 55
1542598869.284365,can1 11111111 [8] 00 34 53 BF 00 1F 70 55
1542598869.284909,can1 11111111 [8] 00 34 53 C0 00 1F 70 56
1542598869.285391,can1 11111111 [8] 00 34 53 C1 00 1F 70 57
1542598869.285866,can1 11111111 [8] 00 34 53 C2 00 1F 70 57
1542598869.286334,can1 14FFA000 [8] FC FF FF FF FF FF FF FF
1542598869.286861,can1 11111111 [8] 00 34 53 C3 00 1F 70 58
1542598869.28734,can1 11111111 [8] 00 34 53 C4 00 1F 70 58
1542598869.287813,can1 11111111 [8] 00 34 53 C5 00 1F 70 59
1542598869.288223,can1 11111111 [8] 00 34 53 C6 00 1F 70 5A
1542598869.28876,can1 11111111 [8] 00 34 53 C7 00 1F 70 5A
1542598869.289252,can1 11111111 [8] 00 34 53 C8 00 1F 70 5B
1542598869.289726,can1 11111111 [8] 00 34 53 C9 00 1F 70 5B
1542598869.29019,can1 11111111 [8] 00 34 53 CA 00 1F 70 5C
1542598869.290719,can1 11111111 [8] 00 34 53 CB 00 1F 70 5D
1542598869.291208,can1 11111111 [8] 00 34 53 CC 00 1F 70 5D
1542598869.291693,can1 11111111 [8] 00 34 53 CD 00 1F 70 5E
1542598869.292109,can1 1CEBFF00 [8] 01 47 FF 71 02 0D 01 3F
1542598869.292646,can1 11111111 [8] 00 34 53 CE 00 1F 70 5E
1542598869.293139,can1 0CF00400 [8] 38 FE FE FE FE 00 FF FE
1542598869.293626,can1 11111111 [8] 00 34 53 D0 00 1F 70 60
1542598869.29411,can1 0CF00203 [8] FF 00 00 FF FF AD 47 03
1542598869.294859,can1 11111111 [8] 00 34 53 D1 00 1F 70 60
1542598869.295415,can1 0CF00300 [8] D1 00 FE FF FF FF 00 FF
1542598869.295912,can1 11111111 [8] 00 34 53 D2 00 1F 70 61
1542598869.296462,can1 11111111 [8] 00 34 53 CF 00 1F 70 5F
1542598869.29697,can1 11111111 [8] 00 34 53 D3 00 1F 70 61
1542598869.297447,can1 11111111 [8] 00 34 53 D4 00 1F 70 62
1542598869.297978,can1 11111111 [8] 00 34 53 D5 00 1F 70 63
1542598869.299197,can1 11111111 [8] 00 34 53 D6 00 1F 70 63
1542598869.299822,can1 11111111 [8] 00 34 53 D7 00 1F 70 64
1542598869.300494,can1 11111111 [8] 00 34 53 D8 00 1F 70 64
1542598869.301013,can1 11111111 [8] 00 34 53 D9 00 1F 70 65
1542598869.301454,can1 11111111 [8] 00 34 53 DA 00 1F 70 66
1542598869.301942,can1 11111111 [8] 00 34 53 DB 00 1F 70 66
1542598869.302496,can1 11111111 [8] 00 34 53 DC 00 1F 70 67
1542598869.302991,can1 11111111 [8] 00 34 53 DD 00 1F 70 67
1542598869.303473,can1 11111111 [8] 00 34 53 DE 00 1F 70 68
1542598869.303983,can1 11111111 [8] 00 34 53 DF 00 1F 70 69
1542598869.305791,can1 11111111 [8] 00 34 53 E0 00 1F 70 69
1542598869.306584,can1 11111111 [8] 00 34 53 E1 00 1F 70 6A
1542598869.307115,can1 11111111 [8] 00 34 53 E2 00 1F 70 6A
1542598869.30762,can1 11111111 [8] 00 34 53 E3 00 1F 70 6B
1542598869.308184,can1 11111111 [8] 00 34 53 E4 00 1F 70 6C
1542598869.309143,can1 11111111 [8] 00 34 53 E5 00 1F 70 6C
1542598869.310504,can1 11111111 [8] 00 34 53 E6 00 1F 70 6D
1542598869.311269,can1 11111111 [8] 00 34 53 E7 00 1F 70 6D
1542598869.312306,can1 11111111 [8] 00 34 53 E8 00 1F 70 6E
1542598869.312885,can1 11111111 [8] 00 34 53 E9 00 1F 70 6F
1542598869.313398,can1 11111111 [8] 00 34 53 EA 00 1F 70 6F
1542598869.313952,can1 11111111 [8] 00 34 53 EB 00 1F 70 70
1542598869.314465,can1 11111111 [8] 00 34 53 EC 00 1F 70 70
1542598869.314951,can1 11111111 [8] 00 34 53 ED 00 1F 70 71
1542598869.315425,can1 11111111 [8] 00 34 53 EE 00 1F 70 72
1542598869.31594,can1 11111111 [8] 00 34 53 EF 00 1F 70 72
1542598869.316476,can1 11111111 [8] 00 34 53 F0 00 1F 70 73
1542598869.316976,can1 11111111 [8] 00 34 53 F1 00 1F 70 73
1542598869.317467,can1 11111111 [8] 00 34 53 F2 00 1F 70 74
1542598869.318617,can1 11111111 [8] 00 34 53 F3 00 1F 70 75
1542598869.319252,can1 11111111 [8] 00 34 53 F4 00 1F 70 75
1542598869.319856,can1 11111111 [8] 00 34 53 F5 00 1F 70 76
1542598869.320392,can1 11111111 [8] 00 34 53 F6 00 1F 70 76
1542598869.320893,can1 11111111 [8] 00 34 53 F7 00 1F 70 77
1542598869.321384,can1 11111111 [8] 00 34 53 F8 00 1F 70 78
1542598869.32193,can1 11111111 [8] 00 34 53 F9 00 1F 70 78
1542598869.322428,can1 11111111 [8] 00 34 53 FA 00 1F 70 79
1542598869.322859,can1 11111111 [8] 00 34 53 FB 00 1F 70 79
1542598869.323391,can1 11111111 [8] 00 34 53 FC 00 1F 70 7A
1542598869.324536,can1 11111111 [8] 00 34 53 FD 00 1F 70 7B
1542598869.325187,can1 11111111 [8] 00 34 53 FE 00 1F 70 7B
1542598869.325763,can1 18FEDF00 [8] FE FE FE FF FE FF BF FF
1542598869.326289,can1 11111111 [8] 00 34 53 FF 00 1F 70 7C
1542598869.326725,can1 11111111 [8] 00 34 54 00 00 1F 70 7C
1542598869.32722,can1 11111111 [8] 00 34 54 01 00 1F 70 7D
1542598869.327767,can1 11111111 [8] 00 34 54 02 00 1F 70 7E
1542598869.328259,can1 11111111 [8] 00 34 54 03 00 1F 70 7E
1542598869.328737,can1 11111111 [8] 00 34 54 04 00 1F 70 7F
1542598869.329207,can1 11111111 [8] 00 34 54 05 00 1F 70 7F
1542598869.335811,can1 11111111 [8] 00 34 54 06 00 1F 70 80
1542598869.336476,can1 11111111 [8] 00 34 54 07 00 1F 70 81
1542598869.337021,can1 11111111 [8] 00 34 54 08 00 1F 70 81
1542598869.337606,can1 11111111 [8] 00 34 54 09 00 1F 70 82
1542598869.338118,can1 11111111 [8] 00 34 54 0A 00 1F 70 82
1542598869.338607,can1 11111111 [8] 00 34 54 0B 00 1F 70 83
1542598869.339084,can1 18F0010B [8] CF FF F0 FF FF DC FF FF
1542598869.339631,can1 11111111 [8] 00 34 54 0C 00 1F 70 84
1542598869.340119,can1 11111111 [8] 00 34 54 0D 00 1F 70 84
1542598869.340594,can1 11111111 [8] 00 34 54 0E 00 1F 70 85
1542598869.341061,can1 11111111 [8] 00 34 54 0F 00 1F 70 85
1542598869.341618,can1 11111111 [8] 00 34 54 10 00 1F 70 86
1542598869.342051,can1 11111111 [8] 00 34 54 11 00 1F 70 87
1542598869.342535,can1 11111111 [8] 00 34 54 12 00 1F 70 87
1542598869.343008,can1 11111111 [8] 00 34 54 13 00 1F 70 88
1542598869.343555,can1 11111111 [8] 00 34 54 14 00 1F 70 88
1542598869.344043,can1 11111111 [8] 00 34 54 15 00 1F 70 89
1542598869.344516,can1 11111111 [8] 00 34 54 16 00 1F 70 8A
1542598869.34499,can1 18FEBF0B [8] 00 00 7D 7D 7D 7D FF FF
1542598869.345534,can1 11111111 [8] 00 34 54 17 00 1F 70 8A
1542598869.346014,can1 11111111 [8] 00 34 54 18 00 1F 70 8B
1542598869.346444,can1 11111111 [8] 00 34 54 19 00 1F 70 8B
1542598869.346914,can1 11111111 [8] 00 34 54 1A 00 1F 70 8C
1542598869.34746,can1 11111111 [8] 00 34 54 1B 00 1F 70 8D
1542598869.34795,can1 11111111 [8] 00 34 54 1C 00 1F 70 8D
1542598869.348425,can1 11111111 [8] 00 34 54 1D 00 1F 70 8E
1542598869.353647,can1 11111111 [8] 00 34 54 1E 00 1F 70 8E
1542598869.355814,can1 11111111 [8] 00 34 54 1F 00 1F 70 8F
1542598869.356583,can1 11111111 [8] 00 34 54 20 00 1F 70 90
1542598869.361278,can1 11111111 [8] 00 34 54 21 00 1F 70 90
1542598869.361934,can1 11111111 [8] 00 34 54 22 00 1F 70 91
1542598869.362475,can1 1CEBFF00 [8] 02 0A 08 09 5B 00 08 01
1542598869.363127,can1 11111111 [8] 00 34 54 23 00 1F 70 91
1542598869.36359,can1 0CF00400 [8] 38 FE FE FE FE 00 FF FE
1542598869.364085,can1 11111111 [8] 00 34 54 25 00 1F 70 93
1542598869.364563,can1 0CF00203 [8] FF 00 00 FF FF AD 47 03
1542598869.369342,can1 11111111 [8] 00 34 54 26 00 1F 70 93
1542598869.369933,can1 0CF00300 [8] D1 00 FE FF FF FF 00 FF
1542598869.370435,can1 11111111 [8] 00 34 54 27 00 1F 70 94
1542598869.371032,can1 11111111 [8] 00 34 54 24 00 1F 70 92
1542598869.371531,can1 11111111 [8] 00 34 54 28 00 1F 70 94
1542598869.376592,can1 11111111 [8] 00 34 54 29 00 1F 70 95
1542598869.377403,can1 11111111 [8] 00 34 54 2A 00 1F 70 96
1542598869.377974,can1 11111111 [8] 00 34 54 2B 00 1F 70 96
1542598869.378576,can1 11111111 [8] 00 34 54 2C 00 1F 70 97
1542598869.379098,can1 11111111 [8] 00 34 54 2D 00 1F 70 97
1542598869.379598,can1 11111111 [8] 00 34 54 2E 00 1F 70 98
1542598869.380085,can1 11111111 [8] 00 34 54 2F 00 1F 70 99
1542598869.384738,can1 11111111 [8] 00 34 54 30 00 1F 70 99
1542598869.385362,can1 11111111 [8] 00 34 54 31 00 1F 70 9A
1542598869.385902,can1 11111111 [8] 00 34 54 32 00 1F 70 9A
1542598869.386494,can1 11111111 [8] 00 34 54 33 00 1F 70 9B
1542598869.387003,can1 11111111 [8] 00 34 54 34 00 1F 70 9C
1542598869.387506,can1 11111111 [8] 00 34 54 35 00 1F 70 9C
1542598869.387984,can1 11111111 [8] 00 34 54 36 00 1F 70 9D
1542598869.392696,can1 11111111 [8] 00 34 54 37 00 1F 70 9D
1542598869.393344,can1 11111111 [8] 00 34 54 38 00 1F 70 9E
1542598869.393856,can1 11111111 [8] 00 34 54 39 00 1F 70 9F
1542598869.394458,can1 11111111 [8] 00 34 54 3A 00 1F 70 9F
1542598869.398403,can1 11111111 [8] 00 34 54 3B 00 1F 70 A0
1542598869.399033,can1 11111111 [8] 00 34 54 3C 00 1F 70 A0
1542598869.399555,can1 11111111 [8] 00 34 54 3D 00 1F 70 A1
1542598869.400126,can1 11111111 [8] 00 34 54 3E 00 1F 70 A2
1542598869.400635,can1 11111111 [8] 00 34 54 3F 00 1F 70 A2
1542598869.401116,can1 11111111 [8] 00 34 54 40 00 1F 70 A3
1542598869.401589,can1 11111111 [8] 00 34 54 41 00 1F 70 A3
1542598869.405712,can1 11111111 [8] 00 34 54 42 00 1F 70 A4
1542598869.40638,can1 11111111 [8] 00 34 54 43 00 1F 70 A5
1542598869.406919,can1 11111111 [8] 00 34 54 44 00 1F 70 A5
1542598869.407436,can1 11111111 [8] 00 34 54 45 00 1F 70 A6
1542598869.408003,can1 11111111 [8] 00 34 54 46 00 1F 70 A6
1542598869.40851,can1 11111111 [8] 00 34 54 47 00 1F 70 A7
1542598869.408991,can1 11111111 [8] 00 34 54 48 00 1F 70 A8
1542598869.409466,can1 11111111 [8] 00 34 54 49 00 1F 70 A8
1542598869.410029,can1 11111111 [8] 00 34 54 4A 00 1F 70 A9
1542598869.410512,can1 11111111 [8] 00 34 54 4B 00 1F 70 A9
1542598869.41098,can1 11111111 [8] 00 34 54 4C 00 1F 70 AA
1542598869.411446,can1 14FFA000 [8] FC FF FF FF FF FF FF FF
1542598869.41216,can1 11111111 [8] 00 34 54 4D 00 1F 70 AB
1542598869.412659,can1 11111111 [8] 00 34 54 4E 00 1F 70 AB
1542598869.413138,can1 11111111 [8] 00 34 54 4F 00 1F 70 AC
1542598869.413684,can1 11111111 [8] 00 34 54 50 00 1F 70 AC
1542598869.414178,can1 11111111 [8] 00 34 54 51 00 1F 70 AD
1542598869.414608,can1 11111111 [8] 00 34 54 52 00 1F 70 AE
1542598869.415084,can1 11111111 [8] 00 34 54 53 00 1F 70 AE
1542598869.415612,can1 11111111 [8] 00 34 54 54 00 1F 70 AF
1542598869.416108,can1 11111111 [8] 00 34 54 55 00 1F 70 AF
1542598869.416578,can1 11111111 [8] 00 34 54 56 00 1F 70 B0
1542598869.417053,can1 11111111 [8] 00 34 54 57 00 1F 70 B1
1542598869.417585,can1 1CEBFF00 [8] 03 71 02 0E 03 0F 02 09
1542598869.418086,can1 11111111 [8] 00 34 54 58 00 1F 70 B1
1542598869.418575,can1 0CF00400 [8] 38 FE FE FE FE 00 FF FE
1542598869.418998,can1 11111111 [8] 00 34 54 5A 00 1F 70 B2
1542598869.419524,can1 0CF00203 [8] FF 00 00 FF FF AD 47 03
1542598869.420017,can1 11111111 [8] 00 34 54 5B 00 1F 70 B3
1542598869.42049,can1 11111111 [8] 00 34 54 59 00 1F 70 B2
1542598869.420954,can1 11111111 [8] 00 34 54 5C 00 1F 70 B4
1542598869.421463,can1 11111111 [8] 00 34 54 5D 00 1F 70 B4
1542598869.421956,can1 11111111 [8] 00 34 54 5E 00 1F 70 B5
1542598869.422434,can1 11111111 [8] 00 34 54 5F 00 1F 70 B5
1542598869.422856,can1 11111111 [8] 00 34 54 60 00 1F 70 B6
1542598869.423378,can1 11111111 [8] 00 34 54 61 00 1F 70 B7
1542598869.423869,can1 11111111 [8] 00 34 54 62 00 1F 70 B7
1542598869.424343,can1 11111111 [8] 00 34 54 63 00 1F 70 B8
1542598869.424805,can1 11111111 [8] 00 34 54 64 00 1F 70 B8
1542598869.425319,can1 11111111 [8] 00 34 54 65 00 1F 70 B9
1542598869.425804,can1 11111111 [8] 00 34 54 66 00 1F 70 BA
1542598869.426279,can1 11111111 [8] 00 34 54 67 00 1F 70 BA
1542598869.426698,can1 11111111 [8] 00 34 54 68 00 1F 70 BB
1542598869.427222,can1 11111111 [8] 00 34 54 69 00 1F 70 BB
1542598869.427714,can1 11111111 [8] 00 34 54 6A 00 1F 70 BC
1542598869.428197,can1 11111111 [8] 00 34 54 6B 00 1F 70 BD
1542598869.428669,can1 11111111 [8] 00 34 54 6C 00 1F 70 BD
1542598869.429185,can1 11111111 [8] 00 34 54 6D 00 1F 70 BE
1542598869.429683,can1 11111111 [8] 00 34 54 6E 00 1F 70 BE
1542598869.430168,can1 11111111 [8] 00 34 54 6F 00 1F 70 BF
1542598869.430641,can1 11111111 [8] 00 34 54 70 00 1F 70 C0
1542598869.431116,can1 11111111 [8] 00 34 54 71 00 1F 70 C0
1542598869.431611,can1 11111111 [8] 00 34 54 72 00 1F 70 C1
1542598869.432081,can1 11111111 [8] 00 34 54 73 00 1F 70 C1
1542598869.432554,can1 11111111 [8] 00 34 54 74 00 1F 70 C2
1542598869.433079,can1 11111111 [8] 00 34 54 75 00 1F 70 C3
1542598869.433571,can1 11111111 [8] 00 34 54 76 00 1F 70 C3
1542598869.434045,can1 11111111 [8] 00 34 54 77 00 1F 70 C4
1542598869.434511,can1 18FEDF00 [8] FE FE FE FF FE FF BF FF
1542598869.434981,can1 11111111 [8] 00 34 54 78 00 1F 70 C4
1542598869.435469,can1 0CF00400 [8] 38 FE FE FE FE 00 FF FE
1542598869.435954,can1 11111111 [8] 00 34 54 7A 00 1F 70 C6
1542598869.436436,can1 0CF00203 [8] FF 00 00 FF FF AD 47 03
1542598869.436963,can1 11111111 [8] 00 34 54 7B 00 1F 70 C6
1542598869.437472,can1 0CF00300 [8] D1 00 FE FF FF FF 00 FF
1542598869.437954,can1 11111111 [8] 00 34 54 7C 00 1F 70 C7
1542598869.438437,can1 11111111 [8] 00 34 54 79 00 1F 70 C5
1542598869.43896,can1 11111111 [8] 00 34 54 7D 00 1F 70 C7
1542598869.439402,can1 11111111 [8] 00 34 54 7E 00 1F 70 C8
1542598869.439887,can1 11111111 [8] 00 34 54 7F 00 1F 70 C9
1542598869.440365,can1 11111111 [8] 00 34 54 80 00 1F 70 C9
1542598869.441205,can1 11111111 [8] 00 34 54 81 00 1F 70 CA
1542598869.441765,can1 11111111 [8] 00 34 54 82 00 1F 70 CA
1542598869.442275,can1 11111111 [8] 00 34 54 83 00 1F 70 CB
1542598869.4427,can1 11111111 [8] 00 34 54 84 00 1F 70 CC
1542598869.443314,can1 11111111 [8] 00 34 54 85 00 1F 70 CC
1542598869.443752,can1 11111111 [8] 00 34 54 86 00 1F 70 CD
1542598869.444237,can1 11111111 [8] 00 34 54 87 00 1F 70 CE
1542598869.44477,can1 11111111 [8] 00 34 54 88 00 1F 70 CE
1542598869.445267,can1 11111111 [8] 00 34 54 89 00 1F 70 CF
1542598869.445745,can1 11111111 [8] 00 34 54 8A 00 1F 70 CF
1542598869.446214,can1 11111111 [8] 00 34 54 8B 00 1F 70 D0
1542598869.446732,can1 11111111 [8] 00 34 54 8C 00 1F 70 D1
1542598869.44723,can1 11111111 [8] 00 34 54 8D 00 1F 70 D1
1542598869.44771,can1 11111111 [8] 00 34 54 8E 00 1F 70 D2
1542598869.448132,can1 11111111 [8] 00 34 54 8F 00 1F 70 D2
1542598869.448657,can1 11111111 [8] 00 34 54 90 00 1F 70 D3
1542598869.449164,can1 11111111 [8] 00 34 54 91 00 1F 70 D4
1542598869.449651,can1 11111111 [8] 00 34 54 92 00 1F 70 D4
1542598869.450128,can1 11111111 [8] 00 34 54 93 00 1F 70 D5
1542598869.450649,can1 11111111 [8] 00 34 54 94 00 1F 70 D5
1542598869.451139,can1 11111111 [8] 00 34 54 95 00 1F 70 D6
1542598869.451609,can1 11111111 [8] 00 34 54 96 00 1F 70 D7
1542598869.452082,can1 11111111 [8] 00 34 54 97 00 1F 70 D7
1542598869.452603,can1 11111111 [8] 00 34 54 98 00 1F 70 D8
1542598869.453048,can1 11111111 [8] 00 34 54 99 00 1F 70 D8
1542598869.453529,can1 11111111 [8] 00 34 54 9A 00 1F 70 D9
1542598869.453995,can1 11111111 [8] 00 34 54 9B 00 1F 70 DA
1542598869.454509,can1 11111111 [8] 00 34 54 9C 00 1F 70 DA
1542598869.454994,can1 11111111 [8] 00 34 54 9D 00 1F 70 DB
1542598869.455471,can1 11111111 [8] 00 34 54 9E 00 1F 70 DB
1542598869.455944,can1 11111111 [8] 00 34 54 9F 00 1F 70 DC
1542598869.456366,can1 11111111 [8] 00 34 54 A0 00 1F 70 DD
1542598869.456907,can1 11111111 [8] 00 34 54 A1 00 1F 70 DD
1542598869.458967,can1 11111111 [8] 00 34 54 A2 00 1F 70 DE
1542598869.459613,can1 18FE4A03 [8] FF FF F3 FF F0 F7 FF FF
1542598869.460149,can1 11111111 [8] 00 34 54 A3 00 1F 70 DE
1542598869.460801,can1 11111111 [8] 00 34 54 A4 00 1F 70 DF
1542598869.461327,can1 11111111 [8] 00 34 54 A5 00 1F 70 E0
1542598869.461819,can1 11111111 [8] 00 34 54 A6 00 1F 70 E0
1542598869.46394,can1 11111111 [8] 00 34 54 A7 00 1F 70 E1
1542598869.46489,can1 11111111 [8] 00 34 54 A8 00 1F 70 E1
1542598869.465473,can1 11111111 [8] 00 34 54 A9 00 1F 70 E2
1542598869.465992,can1 11111111 [8] 00 34 54 AA 00 1F 70 E3
1542598869.466633,can1 11111111 [8] 00 34 54 AB 00 1F 70 E3
1542598869.467157,can1 11111111 [8] 00 34 54 AC 00 1F 70 E4
1542598869.467646,can1 11111111 [8] 00 34 54 AD 00 1F 70 E4
1542598869.468177,can1 18F0010B [8] CF FF F0 FF FF DC FF FF
1542598869.468682,can1 11111111 [8] 00 34 54 AE 00 1F 70 E5
1542598869.469179,can1 11111111 [8] 00 34 54 AF 00 1F 70 E6
1542598869.469602,can1 11111111 [8] 00 34 54 B0 00 1F 70 E6
1542598869.470117,can1 11111111 [8] 00 34 54 B1 00 1F 70 E7
1542598869.470613,can1 11111111 [8] 00 34 54 B2 00 1F 70 E7
1542598869.471086,can1 11111111 [8] 00 34 54 B3 00 1F 70 E8
1542598869.471557,can1 11111111 [8] 00 34 54 B4 00 1F 70 E9
1542598869.472073,can1 11111111 [8] 00 34 54 B5 00 1F 70 E9
1542598869.472566,can1 11111111 [8] 00 34 54 B6 00 1F 70 EA
1542598869.473049,can1 11111111 [8] 00 34 54 B7 00 1F 70 EA
1542598869.473468,can1 1CEBFF00 [8] 04 03 E7 07 09 03 01 08
1542598869.473944,can1 11111111 [8] 00 34 54 B8 00 1F 70 EB
1542598869.474487,can1 0CF00400 [8] 38 FE FE FE FE 00 FF FE
1542598869.474968,can1 11111111 [8] 00 34 54 BA 00 1F 70 EC
1542598869.475438,can1 0CF00203 [8] FF 00 00 FF FF AD 47 03
1542598869.4759,can1 11111111 [8] 00 34 54 BB 00 1F 70 ED
1542598869.476432,can1 11111111 [8] 00 34 54 B9 00 1F 70 EC
1542598869.476914,can1 11111111 [8] 00 34 54 BC 00 1F 70 ED
1542598869.477331,can1 11111111 [8] 00 34 54 BD 00 1F 70 EE
1542598869.477797,can1 11111111 [8] 00 34 54 BE 00 1F 70 EF
1542598869.478326,can1 11111111 [8] 00 34 54 BF 00 1F 70 EF
1542598869.478817,can1 11111111 [8] 00 34 54 C0 00 1F 70 F0
1542598869.479295,can1 11111111 [8] 00 34 54 C1 00 1F 70 F0
1542598869.479762,can1 11111111 [8] 00 34 54 C2 00 1F 70 F1
1542598869.48029,can1 11111111 [8] 00 34 54 C3 00 1F 70 F2
1542598869.480766,can1 11111111 [8] 00 34 54 C4 00 1F 70 F2
1542598869.481233,can1 11111111 [8] 00 34 54 C5 00 1F 70 F3
1542598869.481654,can1 11111111 [8] 00 34 54 C6 00 1F 70 F3
1542598869.482191,can1 11111111 [8] 00 34 54 C7 00 1F 70 F4
1542598869.482685,can1 11111111 [8] 00 34 54 C8 00 1F 70 F5
1542598869.483164,can1 11111111 [8] 00 34 54 C9 00 1F 70 F5
1542598869.483628,can1 11111111 [8] 00 34 54 CA 00 1F 70 F6
1542598869.484168,can1 11111111 [8] 00 34 54 CB 00 1F 70 F6
1542598869.484646,can1 11111111 [8] 00 34 54 CC 00 1F 70 F7
1542598869.485111,can1 11111111 [8] 00 34 54 CD 00 1F 70 F8
1542598869.485531,can1 11111111 [8] 00 34 54 CE 00 1F 70 F8
1542598869.48606,can1 11111111 [8] 00 34 54 CF 00 1F 70 F9
1542598869.486543,can1 11111111 [8] 00 34 54 D0 00 1F 70 F9
1542598869.487011,can1 11111111 [8] 00 34 54 D1 00 1F 70 FA
1542598869.488617,can1 11111111 [8] 00 34 54 D2 00 1F 70 FB
1542598869.489341,can1 11111111 [8] 00 34 54 D3 00 1F 70 FB
1542598869.490143,can1 11111111 [8] 00 34 54 D4 00 1F 70 FC
1542598869.490687,can1 11111111 [8] 00 34 54 D5 00 1F 70 FC
1542598869.491191,can1 11111111 [8] 00 34 54 D6 00 1F 70 FD
1542598869.491776,can1 11111111 [8] 00 34 54 D7 00 1F 70 FE
1542598869.492303,can1 11111111 [8] 00 34 54 D8 00 1F 70 FE
1542598869.492748,can1 18FEBF0B [8] 00 00 7D 7D 7D 7D FF FF
1542598869.493233,can1 11111111 [8] 00 34 54 D9 00 1F 70 FF
1542598869.493782,can1 11111111 [8] 00 34 54 DA 00 1F 70 FF
1542598869.494295,can1 11111111 [8] 00 34 54 DB 00 1F 71 00
1542598869.494773,can1 11111111 [8] 00 34 54 DC 00 1F 71 01
1542598869.495624,can1 11111111 [8] 00 34 54 DD 00 1F 71 01
1542598869.496163,can1 11111111 [8] 00 34 54 DE 00 1F 71 02
1542598869.496662,can1 11111111 [8] 00 34 54 DF 00 1F 71 02
1542598869.497087,can1 11111111 [8] 00 34 54 E0 00 1F 71 03
1542598869.497625,can1 11111111 [8] 00 34 54 E1 00 1F 71 04
1542598869.498119,can1 11111111 [8] 00 34 54 E2 00 1F 71 04
1542598869.498605,can1 11111111 [8] 00 34 54 E3 00 1F 71 05
1542598869.499079,can1 11111111 [8] 00 34 54 E4 00 1F 71 05
1542598869.499597,can1 18EBFFFA [8] 01 20 53 59 4E 45 52 2A
1542598869.500093,can1 11111111 [8] 00 34 54 E5 00 1F 71 06
1542598869.500568,can1 11111111 [8] 00 34 54 E6 00 1F 71 07
1542598869.500984,can1 11111111 [8] 00 34 54 E7 00 1F 71 07
1542598869.501504,can1 11111111 [8] 00 34 54 E8 00 1F 71 08
1542598869.501999,can1 11111111 [8] 00 34 54 E9 00 1F 71 08
1542598869.502477,can1 11111111 [8] 00 34 54 EA 00 1F 71 09
1542598869.502947,can1 11111111 [8] 00 34 54 EB 00 1F 71 0A
1542598869.503452,can1 11111111 [8] 00 34 54 EC 00 1F 71 0A
1542598869.503945,can1 11111111 [8] 00 34 54 ED 00 1F 71 0B
1542598869.504416,can1 11111111 [8] 00 34 54 EE 00 1F 71 0B
1542598869.504837,can1 18EBFFFA [8] 02 53 53 53 32 2D 30 35
1542598869.505353,can1 11111111 [8] 00 34 54 EF 00 1F 71 0C
1542598869.505844,can1 11111111 [8] 00 34 54 F0 00 1F 71 0D
1542598869.506323,can1 11111111 [8] 00 34 54 F1 00 1F 71 0D
1542598869.506786,can1 11111111 [8] 00 34 54 F2 00 1F 71 0E
1542598869.507303,can1 11111111 [8] 00 34 54 F3 00 1F 71 0E
1542598869.507796,can1 11111111 [8] 00 34 54 F4 00 1F 71 0F
1542598869.508279,can1 11111111 [8] 00 34 54 F5 00 1F 71 10
1542598869.5087,can1 11111111 [8] 00 34 54 F6 00 1F 71 10
1542598869.50923,can1 11111111 [8] 00 34 54 F7 00 1F 71 11
1542598869.509725,can1 11111111 [8] 00 34 54 F8 00 1F 71 11
1542598869.510213,can1 18EBFFFA [8] 03 2A 30 30 38 31 2A 55
1542598869.510692,can1 11111111 [8] 00 34 54 F9 00 1F 71 12
1542598869.511212,can1 11111111 [8] 00 34 54 FA 00 1F 71 13
1542598869.511701,can1 11111111 [8] 00 34 54 FB 00 1F 71 13
1542598869.512179,can1 11111111 [8] 00 34 54 FC 00 1F 71 14
1542598869.514034,can1 11111111 [8] 00 34 54 FD 00 1F 71 14
1542598869.514675,can1 11111111 [8] 00 34 54 FE 00 1F 71 15
1542598869.5155,can1 11111111 [8] 00 34 54 FF 00 1F 71 16
1542598869.516063,can1 11111111 [8] 00 34 55 00 00 1F 71 16
1542598869.516567,can1 11111111 [8] 00 34 55 01 00 1F 71 17
1542598869.517397,can1 11111111 [8] 00 34 55 02 00 1F 71 17
1542598869.518105,can1 11111111 [8] 00 34 55 03 00 1F 71 18
1542598869.518646,can1 18EBFFFA [8] 04 4E 49 56 45 52 53 41
1542598869.519238,can1 11111111 [8] 00 34 55 04 00 1F 71 19
1542598869.519748,can1 11111111 [8] 00 34 55 05 00 1F 71 19
1542598869.520177,can1 11111111 [8] 00 34 55 06 00 1F 71 1A
1542598869.520651,can1 11111111 [8] 00 34 55 07 00 1F 71 1A
1542598869.521201,can1 11111111 [8] 00 34 55 08 00 1F 71 1B
1542598869.521699,can1 11111111 [8] 00 34 55 09 00 1F 71 1C
1542598869.522182,can1 11111111 [8] 00 34 55 0A 00 1F 71 1C
1542598869.522654,can1 11111111 [8] 00 34 55 0B 00 1F 71 1D
1542598869.523186,can1 11111111 [8] 00 34 55 0C 00 1F 71 1D
1542598869.523674,can1 11111111 [8] 00 34 55 0D 00 1F 71 1E
1542598869.524161,can1 11111111 [8] 00 34 55 0E 00 1F 71 1F
1542598869.524631,can1 18EBFFFA [8] 05 4C FF FF FF FF FF FF
1542598869.525171,can1 11111111 [8] 00 34 55 0F 00 1F 71 1F
1542598869.525604,can1 11111111 [8] 00 34 55 10 00 1F 71 20
1542598869.526079,can1 11111111 [8] 00 34 55 11 00 1F 71 20
1542598869.526552,can1 11111111 [8] 00 34 55 12 00 1F 71 21
1542598869.52707,can1 11111111 [8] 00 34 55 13 00 1F 71 22
1542598869.527559,can1 11111111 [8] 00 34 55 14 00 1F 71 22
1542598869.528023,can1 11111111 [8] 00 34 55 15 00 1F 71 23
1542598869.52849,can1 11111111 [8] 00 34 55 16 00 1F 71 23
1542598869.529984,can1 11111111 [8] 00 34 55 17 00 1F 71 24
1542598869.530956,can1 11111111 [8] 00 34 55 18 00 1F 71 25
1542598869.531577,can1 11111111 [8] 00 34 55 19 00 1F 71 25
1542598869.532117,can1 18ECFFFA [8] 20 1D 00 05 FF EB FE 00
1542598869.532733,can1 11111111 [8] 00 34 55 1A 00 1F 71 26
1542598869.533286,can1 11111111 [8] 00 34 55 1B 00 1F 71 26
1542598869.533788,can1 11111111 [8] 00 34 55 1C 00 1F 71 27
1542598869.534269,can1 11111111 [8] 00 34 55 1D 00 1F 71 28
1542598869.534809,can1 11111111 [8] 00 34 55 1E 00 1F 71 28
1542598869.535319,can1 11111111 [8] 00 34 55 1F 00 1F 71 29
1542598869.535796,can1 11111111 [8] 00 34 55 20 00 1F 71 29
1542598869.536272,can1 11111111 [8] 00 34 55 21 00 1F 71 2A
1542598869.536808,can1 11111111 [8] 00 34 55 22 00 1F 71 2B
1542598869.537786,can1 11111111 [8] 00 34 55 23 00 1F 71 2B
1542598869.538511,can1 18FEBF0B [8] 00 00 7D 7D 7D 7D FF FF
1542598869.539072,can1 11111111 [8] 00 34 55 24 00 1F 71 2C
1542598869.5396,can1 11111111 [8] 00 34 55 25 00 1F 71 2C
1542598869.540099,can1 11111111 [8] 00 34 55 26 00 1F 71 2D
1542598869.540659,can1 11111111 [8] 00 34 55 27 00 1F 71 2E
1542598869.541109,can1 11111111 [8] 00 34 55 28 00 1F 71 2E
1542598869.541601,can1 11111111 [8] 00 34 55 29 00 1F 71 2F
1542598869.542077,can1 11111111 [8] 00 34 55 2A 00 1F 71 2F
1542598869.542621,can1 11111111 [8] 00 34 55 2B 00 1F 71 30
1542598869.543121,can1 11111111 [8] 00 34 55 2C 00 1F 71 31
1542598869.543597,can1 11111111 [8] 00 34 55 2D 00 1F 71 31
1542598869.544075,can1 11111111 [8] 00 34 55 2E 00 1F 71 32
1542598869.544612,can1 18FEBF0B [8] 00 00 7D 7D 7D 7D FF FF
1542598869.545101,can1 11111111 [8] 00 34 55 2F 00 1F 71 32
1542598869.545524,can1 11111111 [8] 00 34 55 30 00 1F 71 33
1542598869.545998,can1 11111111 [8] 00 34 55 31 00 1F 71 34
1542598869.546527,can1 11111111 [8] 00 34 55 32 00 1F 71 34
1542598869.547019,can1 11111111 [8] 00 34 55 33 00 1F 71 35
1542598869.547489,can1 11111111 [8] 00 34 55 34 00 1F 71 35
1542598869.547955,can1 11111111 [8] 00 34 55 35 00 1F 71 36
1542598869.548567,can1 11111111 [8] 00 34 55 36 00 1F 71 37
1542598869.549095,can1 11111111 [8] 00 34 55 37 00 1F 71 37
1542598869.549585,can1 11111111 [8] 00 34 55 38 00 1F 71 38
1542598869.550066,can1 18FEDF00 [8] FE FE FE FF FE FF BF FF
1542598869.550622,can1 11111111 [8] 00 34 55 39 00 1F 71 38
1542598869.551058,can1 11111111 [8] 00 34 55 3A 00 1F 71 39
1542598869.551542,can1 11111111 [8] 00 34 55 3B 00 1F 71 3A
1542598869.552014,can1 11111111 [8] 00 34 55 3C 00 1F 71 3A
1542598869.552558,can1 11111111 [8] 00 34 55 3D 00 1F 71 3B
1542598869.553038,can1 11111111 [8] 00 34 55 3E 00 1F 71 3B
1542598869.553502,can1 11111111 [8] 00 34 55 3F 00 1F 71 3C
1542598869.553969,can1 11111111 [8] 00 34 55 40 00 1F 71 3D
1542598869.555585,can1 11111111 [8] 00 34 55 41 00 1F 71 3D
1542598869.556472,can1 11111111 [8] 00 34 55 42 00 1F 71 3E
1542598869.557089,can1 11111111 [8] 00 34 55 43 00 1F 71 3E
1542598869.557622,can1 11111111 [8] 00 34 55 45 00 1F 71 40
1542598869.55832,can1 0CF00400 [8] 38 FE FE FE FE 00 FF FE
1542598869.558858,can1 11111111 [8] 00 34 55 4C 00 1F 71 44
1542598869.559311,can1 11111111 [8] 00 34 55 4D 00 1F 71 44
1542598869.559803,can1 11111111 [8] 00 34 55 4E 00 1F 71 45
1542598869.560374,can1 11111111 [8] 00 34 55 4F 00 1F 71 46
1542598869.56087,can1 11111111 [8] 00 34 55 50 00 1F 71 46
1542598869.561349,can1 11111111 [8] 00 34 55 51 00 1F 71 47
1542598869.56182,can1 11111111 [8] 00 34 55 52 00 1F 71 47
1542598869.56237,can1 11111111 [8] 00 34 55 5B 00 1F 71 4D
1542598869.562851,can1 11111111 [8] 00 34 55 5C 00 1F 71 4D
1542598869.563333,can1 11111111 [8] 00 34 55 5D 00 1F 71 4E
1542598869.563751,can1 11111111 [8] 00 34 55 5E 00 1F 71 4F
1542598869.564294,can1 11111111 [8] 00 34 55 5F 00 1F 71 4F
1542598869.564784,can1 11111111 [8] 00 34 55 60 00 1F 71 50
1542598869.565253,can1 11111111 [8] 00 34 55 69 00 1F 71 55
1542598869.565723,can1 11111111 [8] 00 34 55 6A 00 1F 71 56
1542598869.566265,can1 11111111 [8] 00 34 55 6C 00 1F 71 57
1542598869.566745,can1 11111111 [8] 00 34 55 6D 00 1F 71 58
1542598869.567212,can1 11111111 [8] 00 34 55 6E 00 1F 71 58
1542598869.567683,can1 14FFA000 [8] FC FF FF FF FF FF FF FF
1542598869.568217,can1 11111111 [8] 00 34 55 70 00 1F 71 59
1542598869.56864,can1 11111111 [8] 00 34 55 74 00 1F 71 5C
1542598869.569124,can1 11111111 [8] 00 34 55 75 00 1F 71 5C
1542598869.569596,can1 11111111 [8] 00 34 55 76 00 1F 71 5D
1542598869.570147,can1 11111111 [8] 00 34 55 77 00 1F 71 5E
1542598869.570634,can1 11111111 [8] 00 34 55 78 00 1F 71 5E
1542598869.571115,can1 11111111 [8] 00 34 55 79 00 1F 71 5F
1542598869.571591,can1 11111111 [8] 00 34 55 81 00 1F 71 64
1542598869.572149,can1 11111111 [8] 00 34 55 82 00 1F 71 64
1542598869.572632,can1 11111111 [8] 00 34 55 83 00 1F 71 65
1542598869.573104,can1 11111111 [8] 00 34 55 84 00 1F 71 65
1542598869.573522,can1 11111111 [8] 00 34 55 8B 00 1F 71 6A
1542598869.574061,can1 11111111 [8] 00 34 55 8D 00 1F 71 6B
1542598869.574551,can1 11111111 [8] 00 34 55 8E 00 1F 71 6B
1542598869.575024,can1 11111111 [8] 00 34 55 8F 00 1F 71 6C
1542598869.575493,can1 11111111 [8] 00 34 55 90 00 1F 71 6D
1542598869.576039,can1 11111111 [8] 00 34 55 91 00 1F 71 6D
1542598869.576533,can1 11111111 [8] 00 34 55 92 00 1F 71 6E
1542598869.577014,can1 11111111 [8] 00 34 55 99 00 1F 71 72
1542598869.577426,can1 11111111 [8] 00 34 55 9A 00 1F 71 73
1542598869.577965,can1 14FD3E00 [8] FF FF FF FF FF FF FF FF
1542598869.578444,can1 11111111 [8] 00 34 55 9B 00 1F 71 73
1542598869.578922,can1 0CF00400 [8] 38 FE FE FE FE 00 FF FE
1542598869.579388,can1 11111111 [8] 00 34 55 9D 00 1F 71 74
1542598869.579926,can1 0CF00203 [8] FF 00 00 FF FF AD 47 03
1542598869.580409,can1 11111111 [8] 00 34 55 9E 00 1F 71 75
1542598869.580877,can1 11111111 [8] 00 34 55 9C 00 1F 71 74
1542598869.581338,can1 11111111 [8] 00 34 55 9F 00 1F 71 76
1542598869.581874,can1 11111111 [8] 00 34 55 A0 00 1F 71 76
1542598869.582301,can1 11111111 [8] 00 34 55 A1 00 1F 71 77
1542598869.582772,can1 11111111 [8] 00 34 55 A2 00 1F 71 77
1542598869.58323,can1 11111111 [8] 00 34 55 A3 00 1F 71 78
1542598869.583775,can1 11111111 [8] 00 34 55 A4 00 1F 71 79
1542598869.584263,can1 11111111 [8] 00 34 55 A5 00 1F 71 79
1542598869.584739,can1 11111111 [8] 00 34 55 A6 00 1F 71 7A
1542598869.585154,can1 11111111 [8] 00 34 55 A7 00 1F 71 7A
1542598869.585702,can1 11111111 [8] 00 34 55 A8 00 1F 71 7B
1542598869.586186,can1 11111111 [8] 00 34 55 A9 00 1F 71 7C
1542598869.586662,can1 11111111 [8] 00 34 55 AA 00 1F 71 7C
1542598869.587133,can1 11111111 [8] 00 34 55 AB 00 1F 71 7D
1542598869.587668,can1 11111111 [8] 00 34 55 AC 00 1F 71 7D
1542598869.58815,can1 11111111 [8] 00 34 55 AD 00 1F 71 7E
1542598869.588626,can1 11111111 [8] 00 34 55 AE 00 1F 71 7F
1542598869.589093,can1 11111111 [8] 00 34 55 AF 00 1F 71 7F
1542598869.589627,can1 11111111 [8] 00 34 55 B0 00 1F 71 80
1542598869.590061,can1 11111111 [8] 00 34 55 B1 00 1F 71 80
1542598869.590531,can1 11111111 [8] 00 34 55 B2 00 1F 71 81
1542598869.591,can1 11111111 [8] 00 34 55 B3 00 1F 71 82
1542598869.591527,can1 11111111 [8] 00 34 55 B4 00 1F 71 82
1542598869.592005,can1 11111111 [8] 00 34 55 B5 00 1F 71 83
1542598869.592485,can1 11111111 [8] 00 34 55 B6 00 1F 71 83
1542598869.592954,can1 11111111 [8] 00 34 55 B7 00 1F 71 84
1542598869.593484,can1 11111111 [8] 00 34 55 B8 00 1F 71 85
1542598869.593913,can1 11111111 [8] 00 34 55 B9 00 1F 71 85
1542598869.594388,can1 11111111 [8] 00 34 55 BA 00 1F 71 86
1542598869.59486,can1 18F0010B [8] CF FF F0 FF FF DC FF FF
1542598869.59566,can1 11111111 [8] 00 34 55 BB 00 1F 71 86
1542598869.5962,can1 11111111 [8] 00 34 55 BC 00 1F 71 87
1542598869.596643,can1 11111111 [8] 00 34 55 BD 00 1F 71 88
1542598869.597192,can1 11111111 [8] 00 34 55 BE 00 1F 71 88
1542598869.597696,can1 11111111 [8] 00 34 55 BF 00 1F 71 89
1542598869.598178,can1 11111111 [8] 00 34 55 C0 00 1F 71 89
1542598869.598645,can1 11111111 [8] 00 34 55 C1 00 1F 71 8A
1542598869.59917,can1 11111111 [8] 00 34 55 C2 00 1F 71 8B
1542598869.599659,can1 11111111 [8] 00 34 55 C3 00 1F 71 8B
1542598869.600133,can1 11111111 [8] 00 34 55 C4 00 1F 71 8C
1542598869.600599,can1 11111111 [8] 00 34 55 C5 00 1F 71 8C
1542598869.60113,can1 18FEDF00 [8] FE FE FE FF FE FF BF FF
1542598869.601571,can1 11111111 [8] 00 34 55 C6 00 1F 71 8D
1542598869.602054,can1 0CF00400 [8] 38 FE FE FE FE 00 FF FE
1542598869.602527,can1 11111111 [8] 00 34 55 C8 00 1F 71 8E
1542598869.603063,can1 0CF00203 [8] FF 00 00 FF FF AD 47 03
1542598869.603565,can1 11111111 [8] 00 34 55 C9 00 1F 71 8F
1542598869.604045,can1 0CF00300 [8] D1 00 FE FF FF FF 00 FF
1542598869.604517,can1 11111111 [8] 00 34 55 CA 00 1F 71 8F
1542598869.605037,can1 11111111 [8] 00 34 55 C7 00 1F 71 8E
1542598869.605527,can1 11111111 [8] 00 34 55 CB 00 1F 71 90
1542598869.605943,can1 11111111 [8] 00 34 55 CC 00 1F 71 91
1542598869.606992,can1 11111111 [8] 00 34 55 CD 00 1F 71 91
1542598869.607683,can1 11111111 [8] 00 34 55 CE 00 1F 71 92
1542598869.608206,can1 11111111 [8] 00 34 55 CF 00 1F 71 92
1542598869.60866,can1 11111111 [8] 00 34 55 D0 00 1F 71 93
1542598869.609238,can1 11111111 [8] 00 34 55 D1 00 1F 71 94
1542598869.60974,can1 11111111 [8] 00 34 55 D2 00 1F 71 94
1542598869.610224,can1 11111111 [8] 00 34 55 D3 00 1F 71 95
1542598869.61074,can1 11111111 [8] 00 34 55 D4 00 1F 71 95
1542598869.611239,can1 11111111 [8] 00 34 55 D5 00 1F 71 96
1542598869.611736,can1 11111111 [8] 00 34 55 D6 00 1F 71 97
1542598869.612217,can1 11111111 [8] 00 34 55 D7 00 1F 71 97
1542598869.612724,can1 11111111 [8] 00 34 55 D8 00 1F 71 98
1542598869.613172,can1 11111111 [8] 00 34 55 D9 00 1F 71 98
1542598869.613657,can1 11111111 [8] 00 34 55 DA 00 1F 71 99
1542598869.614128,can1 11111111 [8] 00 34 55 DB 00 1F 71 9A
1542598869.614639,can1 11111111 [8] 00 34 55 DC 00 1F 71 9A
1542598869.615137,can1 11111111 [8] 00 34 55 DD 00 1F 71 9B
1542598869.616184,can1 11111111 [8] 00 34 55 DE 00 1F 71 9B
1542598869.616886,can1 11111111 [8] 00 34 55 DF 00 1F 71 9C
1542598869.617437,can1 11111111 [8] 00 34 55 E0 00 1F 71 9D
1542598869.617937,can1 11111111 [8] 00 34 55 E1 00 1F 71 9D
1542598869.618423,can1 11111111 [8] 00 34 55 E2 00 1F 71 9E
1542598869.618989,can1 11111111 [8] 00 34 55 E3 00 1F 71 9E
1542598869.619476,can1 11111111 [8] 00 34 55 E4 00 1F 71 9F
1542598869.619943,can1 11111111 [8] 00 34 55 E5 00 1F 71 A0
1542598869.620411,can1 11111111 [8] 00 34 55 E6 00 1F 71 A0
1542598869.620978,can1 11111111 [8] 00 34 55 E7 00 1F 71 A1
1542598869.621413,can1 11111111 [8] 00 34 55 E8 00 1F 71 A1
1542598869.62189,can1 11111111 [8] 00 34 55 E9 00 1F 71 A2
1542598869.622365,can1 11111111 [8] 00 34 55 EA 00 1F 71 A3
1542598869.622917,can1 11111111 [8] 00 34 55 EB 00 1F 71 A3
1542598869.623389,can1 11111111 [8] 00 34 55 EC 00 1F 71 A4
1542598869.623853,can1 11111111 [8] 00 34 55 ED 00 1F 71 A4
1542598869.624315,can1 11111111 [8] 00 34 55 EE 00 1F 71 A5
1542598869.624863,can1 11111111 [8] 00 34 55 EF 00 1F 71 A6
1542598869.625338,can1 11111111 [8] 00 34 55 F0 00 1F 71 A6
1542598869.62577,can1 18FE4A03 [8] FF FF F3 FF F0 F7 FF FF
1542598869.626245,can1 11111111 [8] 00 34 55 F1 00 1F 71 A7
1542598869.626787,can1 0CF00400 [8] 38 FE FE FE FE 00 FF FE
1542598869.627268,can1 11111111 [8] 00 34 55 F3 00 1F 71 A8
1542598869.627759,can1 0CF00203 [8] FF 00 00 FF FF AD 47 03
1542598869.628236,can1 11111111 [8] 00 34 55 F4 00 1F 71 A9
1542598869.628784,can1 0CF00400 [8] 38 FE FE FE FE 00 FF FE
1542598869.629271,can1 11111111 [8] 00 34 55 F5 00 1F 71 A9
1542598869.629745,can1 11111111 [8] 00 34 55 F2 00 1F 71 A7
1542598869.630161,can1 11111111 [8] 00 34 55 F6 00 1F 71 AA
1542598869.630706,can1 11111111 [8] 00 34 55 F7 00 1F 71 AA
1542598869.6312,can1 11111111 [8] 00 34 55 F8 00 1F 71 AB
1542598869.631688,can1 11111111 [8] 00 34 55 F9 00 1F 71 AC
1542598869.63221,can1 11111111 [8] 00 34 55 FA 00 1F 71 AC
1542598869.632712,can1 11111111 [8] 00 34 55 FB 00 1F 71 AD
1542598869.633193,can1 11111111 [8] 00 34 55 FC 00 1F 71 AD
1542598869.633663,can1 11111111 [8] 00 34 55 FD 00 1F 71 AE
1542598869.634173,can1 11111111 [8] 00 34 55 FE 00 1F 71 AF
1542598869.634667,can1 11111111 [8] 00 34 55 FF 00 1F 71 AF
1542598869.635091,can1 11111111 [8] 00 34 56 00 00 1F 71 B0
1542598869.63556,can1 11111111 [8] 00 34 56 01 00 1F 71 B0
1542598869.636023,can1 11111111 [8] 00 34 56 02 00 1F 71 B1
1542598869.636568,can1 11111111 [8] 00 34 56 03 00 1F 71 B2
1542598869.63705,can1 11111111 [8] 00 34 56 04 00 1F 71 B2
1542598869.637517,can1 11111111 [8] 00 34 56 05 00 1F 71 B3
1542598869.637982,can1 11111111 [8] 00 34 56 06 00 1F 71 B3
1542598869.638524,can1 11111111 [8] 00 34 56 07 00 1F 71 B4
1542598869.638953,can1 11111111 [8] 00 34 56 08 00 1F 71 B5
1542598869.639429,can1 11111111 [8] 00 34 56 09 00 1F 71 B5
1542598869.639901,can1 11111111 [8] 00 34 56 0A 00 1F 71 B6
1542598869.640438,can1 11111111 [8] 00 34 56 0B 00 1F 71 B6
1542598869.640921,can1 11111111 [8] 00 34 56 0C 00 1F 71 B7
1542598869.641387,can1 11111111 [8] 00 34 56 0D 00 1F 71 B8
1542598869.641854,can1 11111111 [8] 00 34 56 0E 00 1F 71 B8
1542598869.642389,can1 11111111 [8] 00 34 56 0F 00 1F 71 B9
1542598869.642813,can1 11111111 [8] 00 34 56 10 00 1F 71 B9
1542598869.643297,can1 11111111 [8] 00 34 56 11 00 1F 71 BA
1542598869.643768,can1 11111111 [8] 00 34 56 12 00 1F 71 BB
1542598869.644304,can1 11111111 [8] 00 34 56 13 00 1F 71 BB
1542598869.64479,can1 11111111 [8] 00 34 56 14 00 1F 71 BC
1542598869.645262,can1 11111111 [8] 00 34 56 15 00 1F 71 BC
1542598869.645731,can1 11111111 [8] 00 34 56 16 00 1F 71 BD
1542598869.646266,can1 11111111 [8] 00 34 56 17 00 1F 71 BE
1542598869.646754,can1 11111111 [8] 00 34 56 18 00 1F 71 BE
1542598869.647184,can1 11111111 [8] 00 34 56 19 00 1F 71 BF
1542598869.647657,can1 11111111 [8] 00 34 56 1A 00 1F 71 BF
1542598869.648187,can1 11111111 [8] 00 34 56 1B 00 1F 71 C0
1542598869.648684,can1 11111111 [8] 00 34 56 1C 00 1F 71 C1
1542598869.649144,can1 18FEBF0B [8] 00 00 7D 7D 7D 7D FF FF
1542598869.649614,can1 11111111 [8] 00 34 56 1D 00 1F 71 C1
1542598869.650151,can1 11111111 [8] 00 34 56 1E 00 1F 71 C2
1542598869.650578,can1 11111111 [8] 00 34 56 1F 00 1F 71 C2
1542598869.651056,can1 11111111 [8] 00 34 56 20 00 1F 71 C3
1542598869.651538,can1 11111111 [8] 00 34 56 21 00 1F 71 C4
1542598869.652063,can1 11111111 [8] 00 34 56 22 00 1F 71 C4
1542598869.652542,can1 11111111 [8] 00 34 56 23 00 1F 71 C5
1542598869.653017,can1 11111111 [8] 00 34 56 24 00 1F 71 C5
1542598869.653479,can1 11111111 [8] 00 34 56 25 00 1F 71 C6
1542598869.654016,can1 11111111 [8] 00 34 56 26 00 1F 71 C7
1542598869.655845,can1 11111111 [8] 00 34 56 27 00 1F 71 C7
1542598869.656545,can1 18FEBF0B [8] 00 00 7D 7D 7D 7D FF FF
1542598869.657097,can1 11111111 [8] 00 34 56 28 00 1F 71 C8
1542598869.657724,can1 11111111 [8] 00 34 56 29 00 1F 71 C8
1542598869.658261,can1 11111111 [8] 00 34 56 2A 00 1F 71 C9
1542598869.658761,can1 11111111 [8] 00 34 56 2B 00 1F 71 CA
1542598869.659237,can1 11111111 [8] 00 34 56 2C 00 1F 71 CA
1542598869.659779,can1 11111111 [8] 00 34 56 2D 00 1F 71 CB
1542598869.660281,can1 11111111 [8] 00 34 56 2E 00 1F 71 CB
1542598869.66076,can1 11111111 [8] 00 34 56 2F 00 1F 71 CC
1542598869.661222,can1 11111111 [8] 00 34 56 30 00 1F 71 CD
1542598869.661743,can1 11111111 [8] 00 34 56 31 00 1F 71 CD
1542598869.66225,can1 11111111 [8] 00 34 56 32 00 1F 71 CE
1542598869.662727,can1 18FEDF00 [8] FE FE FE FF FE FF BF FF
1542598869.663158,can1 11111111 [8] 00 34 56 33 00 1F 71 CE
1542598869.663689,can1 0CF00400 [8] 38 FE FE FE FE 00 FF FE
1542598869.664185,can1 11111111 [8] 00 34 56 35 00 1F 71 D0
1542598869.664664,can1 0CF00203 [8] FF 00 00 FF FF AD 47 03
1542598869.66513,can1 11111111 [8] 00 34 56 36 00 1F 71 D0
1542598869.665756,can1 0CF00400 [8] 38 FE FE FE FE 00 FF FE
1542598869.666297,can1 11111111 [8] 00 34 56 37 00 1F 71 D1
1542598869.666795,can1 0CF00300 [8] D1 00 FE FF FF FF 00 FF
1542598869.667276,can1 11111111 [8] 00 34 56 38 00 1F 71 D1
1542598869.667825,can1 11111111 [8] 00 34 56 34 00 1F 71 CF
1542598869.668307,can1 11111111 [8] 00 34 56 39 00 1F 71 D2
1542598869.668782,can1 11111111 [8] 00 34 56 3A 00 1F 71 D3
1542598869.669199,can1 11111111 [8] 00 34 56 3B 00 1F 71 D3
1542598869.669743,can1 11111111 [8] 00 34 56 3C 00 1F 71 D4
1542598869.670232,can1 11111111 [8] 00 34 56 3D 00 1F 71 D4
1542598869.67071,can1 11111111 [8] 00 34 56 3E 00 1F 71 D5
1542598869.671173,can1 11111111 [8] 00 34 56 3F 00 1F 71 D6
1542598869.67171,can1 11111111 [8] 00 34 56 40 00 1F 71 D6
1542598869.672194,can1 11111111 [8] 00 34 56 41 00 1F 71 D7
1542598869.672667,can1 11111111 [8] 00 34 56 42 00 1F 71 D7
1542598869.673138,can1 11111111 [8] 00 34 56 43 00 1F 71 D8
1542598869.673627,can1 11111111 [8] 00 34 56 44 00 1F 71 D9
1542598869.674112,can1 11111111 [8] 00 34 56 45 00 1F 71 D9
1542598869.674581,can1 11111111 [8] 00 34 56 46 00 1F 71 DA
1542598869.675047,can1 11111111 [8] 00 34 56 47 00 1F 71 DA
1542598869.675583,can1 11111111 [8] 00 34 56 48 00 1F 71 DB
1542598869.676586,can1 11111111 [8] 00 34 56 49 00 1F 71 DC
1542598869.677258,can1 11111111 [8] 00 34 56 4A 00 1F 71 DC
1542598869.677825,can1 11111111 [8] 00 34 56 4B 00 1F 71 DD
1542598869.678337,can1 11111111 [8] 00 34 56 4C 00 1F 71 DD
1542598869.67883,can1 11111111 [8] 00 34 56 4D 00 1F 71 DE
1542598869.679385,can1 11111111 [8] 00 34 56 4E 00 1F 71 DF
1542598869.679886,can1 11111111 [8] 00 34 56 4F 00 1F 71 DF
1542598869.680373,can1 11111111 [8] 00 34 56 50 00 1F 71 E0
1542598869.68085,can1 11111111 [8] 00 34 56 51 00 1F 71 E0
1542598869.681397,can1 11111111 [8] 00 34 56 52 00 1F 71 E1
1542598869.681837,can1 11111111 [8] 00 34 56 53 00 1F 71 E2
1542598869.682316,can1 11111111 [8] 00 34 56 54 00 1F 71 E2
1542598869.682788,can1 11111111 [8] 00 34 56 55 00 1F 71 E3
1542598869.683315,can1 11111111 [8] 00 34 56 56 00 1F 71 E4
1542598869.683809,can1 11111111 [8] 00 34 56 57 00 1F 71 E4
1542598869.684288,can1 11111111 [8] 00 34 56 58 00 1F 71 E5
1542598869.684764,can1 11111111 [8] 00 34 56 59 00 1F 71 E5
1542598869.685309,can1 11111111 [8] 00 34 56 5A 00 1F 71 E6
1542598869.685748,can1 11111111 [8] 00 34 56 5B 00 1F 71 E7
1542598869.686222,can1 11111111 [8] 00 34 56 5C 00 1F 71 E7
1542598869.686698,can1 11111111 [8] 00 34 56 5D 00 1F 71 E8
1542598869.687228,can1 11111111 [8] 00 34 56 5E 00 1F 71 E8
1542598869.687712,can1 11111111 [8] 00 34 56 5F 00 1F 71 E9
1542598869.688182,can1 11111111 [8] 00 34 56 60 00 1F 71 EA
1542598869.688655,can1 11111111 [8] 00 34 56 61 00 1F 71 EA
1542598869.689177,can1 11111111 [8] 00 34 56 62 00 1F 71 EB
1542598869.689668,can1 11111111 [8] 00 34 56 63 00 1F 71 EB
1542598869.690097,can1 11111111 [8] 00 34 56 64 00 1F 71 EC
1542598869.69058,can1 11111111 [8] 00 34 56 65 00 1F 71 ED
1542598869.691111,can1 11111111 [8] 00 34 56 66 00 1F 71 ED
1542598869.6916,can1 11111111 [8] 00 34 56 67 00 1F 71 EE
1542598869.692071,can1 14FFA000 [8] FC FF FF FF FF FF FF FF
1542598869.692542,can1 11111111 [8] 00 34 56 68 00 1F 71 EE
1542598869.693084,can1 0CF00400 [8] 38 FE FE FE FE 00 FF FE
1542598869.69357,can1 11111111 [8] 00 34 56 6A 00 1F 71 F0
1542598869.694051,can1 0CF00203 [8] FF 00 00 FF FF AD 47 03
1542598869.694473,can1 11111111 [8] 00 34 56 6B 00 1F 71 F0
1542598869.695019,can1 0CF00300 [8] D1 00 FE FF FF FF 00 FF
1542598869.695796,can1 11111111 [8] 00 34 56 6C 00 1F 71 F1
1542598869.696347,can1 11111111 [8] 00 34 56 69 00 1F 71 EF
1542598869.696907,can1 11111111 [8] 00 34 56 6D 00 1F 71 F1
1542598869.697408,can1 11111111 [8] 00 34 56 6E 00 1F 71 F2
1542598869.697898,can1 11111111 [8] 00 34 56 6F 00 1F 71 F3
1542598869.698324,can1 11111111 [8] 00 34 56 70 00 1F 71 F3
1542598869.698862,can1 11111111 [8] 00 34 56 71 00 1F 71 F4
1542598869.699355,can1 11111111 [8] 00 34 56 72 00 1F 71 F4
1542598869.699838,can1 11111111 [8] 00 34 56 73 00 1F 71 F5
1542598869.700317,can1 11111111 [8] 00 34 56 74 00 1F 71 F6
1542598869.70085,can1 11111111 [8] 00 34 56 75 00 1F 71 F6
1542598869.701339,can1 11111111 [8] 00 34 56 76 00 1F 71 F7
1542598869.701811,can1 11111111 [8] 00 34 56 77 00 1F 71 F7
1542598869.702277,can1 11111111 [8] 00 34 56 78 00 1F 71 F8
1542598869.702814,can1 11111111 [8] 00 34 56 79 00 1F 71 F9
1542598869.703256,can1 11111111 [8] 00 34 56 7A 00 1F 71 F9
1542598869.703734,can1 11111111 [8] 00 34 56 7B 00 1F 71 FA
1542598869.704207,can1 11111111 [8] 00 34 56 7C 00 1F 71 FA
1542598869.704728,can1 11111111 [8] 00 34 56 7D 00 1F 71 FB
1542598869.705218,can1 11111111 [8] 00 34 56 7E 00 1F 71 FC
1542598869.705688,can1 11111111 [8] 00 34 56 7F 00 1F 71 FC
1542598869.706162,can1 11111111 [8] 00 34 56 80 00 1F 71 FD
1542598869.706691,can1 11111111 [8] 00 34 56 81 00 1F 71 FD
1542598869.707126,can1 11111111 [8] 00 34 56 82 00 1F 71 FE
1542598869.707605,can1 11111111 [8] 00 34 56 83 00 1F 71 FF
1542598869.708069,can1 11111111 [8] 00 34 56 84 00 1F 71 FF
1542598869.708608,can1 11111111 [8] 00 34 56 85 00 1F 72 00
1542598869.709108,can1 11111111 [8] 00 34 56 86 00 1F 72 00
1542598869.709581,can1 11111111 [8] 00 34 56 87 00 1F 72 01
1542598869.71005,can1 11111111 [8] 00 34 56 88 00 1F 72 02
1542598869.710575,can1 11111111 [8] 00 34 56 89 00 1F 72 02
1542598869.711008,can1 11111111 [8] 00 34 56 8A 00 1F 72 03
1542598869.71149,can1 11111111 [8] 00 34 56 8B 00 1F 72 03
1542598869.711961,can1 11111111 [8] 00 34 56 8C 00 1F 72 04
1542598869.712483,can1 11111111 [8] 00 34 56 8D 00 1F 72 05
1542598869.712978,can1 11111111 [8] 00 34 56 8E 00 1F 72 05
1542598869.71346,can1 11111111 [8] 00 34 56 8F 00 1F 72 06
1542598869.713929,can1 11111111 [8] 00 34 56 90 00 1F 72 06
1542598869.714454,can1 11111111 [8] 00 34 56 91 00 1F 72 07
1542598869.714949,can1 11111111 [8] 00 34 56 92 00 1F 72 08
1542598869.715371,can1 11111111 [8] 00 34 56 93 00 1F 72 08
1542598869.715841,can1 11111111 [8] 00 34 56 94 00 1F 72 09
1542598869.716362,can1 11111111 [8] 00 34 56 95 00 1F 72 09
1542598869.716859,can1 18F00503 [8] FF 57 9E FF 20 2D 2D 2D
1542598869.717341,can1 11111111 [8] 00 34 56 96 00 1F 72 0A
1542598869.71781,can1 0CF00400 [8] 38 FE FE FE FE 00 FF FE
1542598869.71832,can1 11111111 [8] 00 34 56 98 00 1F 72 0B
1542598869.718807,can1 0CF00203 [8] FF 00 00 FF FF AD 47 03
1542598869.719288,can1 11111111 [8] 00 34 56 99 00 1F 72 0C
1542598869.719704,can1 11111111 [8] 00 34 56 97 00 1F 72 0B
1542598869.720226,can1 11111111 [8] 00 34 56 9A 00 1F 72 0C
1542598869.720719,can1 11111111 [8] 00 34 56 9B 00 1F 72 0D
1542598869.721196,can1 11111111 [8] 00 34 56 9C 00 1F 72 0E
1542598869.721667,can1 11111111 [8] 00 34 56 9D 00 1F 72 0E
1542598869.722189,can1 11111111 [8] 00 34 56 9E 00 1F 72 0F
1542598869.722681,can1 11111111 [8] 00 34 56 9F 00 1F 72 0F
1542598869.72316,can1 11111111 [8] 00 34 56 A0 00 1F 72 10
1542598869.723631,can1 11111111 [8] 00 34 56 A1 00 1F 72 11
1542598869.724111,can1 11111111 [8] 00 34 56 A2 00 1F 72 11
1542598869.7246,can1 11111111 [8] 00 34 56 A3 00 1F 72 12
1542598869.725074,can1 11111111 [8] 00 34 56 A4 00 1F 72 12
1542598869.725545,can1 11111111 [8] 00 34 56 A5 00 1F 72 13
1542598869.726061,can1 11111111 [8] 00 34 56 A6 00 1F 72 14
1542598869.726557,can1 11111111 [8] 00 34 56 A7 00 1F 72 14
1542598869.727032,can1 11111111 [8] 00 34 56 A8 00 1F 72 15
1542598869.727498,can1 11111111 [8] 00 34 56 A9 00 1F 72 15
1542598869.728013,can1 11111111 [8] 00 34 56 AA 00 1F 72 16
1542598869.728465,can1 11111111 [8] 00 34 56 AB 00 1F 72 17
1542598869.728952,can1 11111111 [8] 00 34 56 AC 00 1F 72 17
1542598869.729431,can1 11111111 [8] 00 34 56 AD 00 1F 72 18
1542598869.729957,can1 11111111 [8] 00 34 56 AE 00 1F 72 18
1542598869.73045,can1 11111111 [8] 00 34 56 AF 00 1F 72 19
1542598869.730925,can1 11111111 [8] 00 34 56 B0 00 1F 72 1A
1542598869.731391,can1 11111111 [8] 00 34 56 B1 00 1F 72 1A
1542598869.731905,can1 11111111 [8] 00 34 56 B2 00 1F 72 1B
1542598869.73234,can1 11111111 [8] 00 34 56 B3 00 1F 72 1B
1542598869.732828,can1 11111111 [8] 00 34 56 B4 00 1F 72 1C
1542598869.733307,can1 11111111 [8] 00 34 56 B5 00 1F 72 1D
1542598869.733828,can1 18F0010B [8] CF FF F0 FF FF DC FF FF
1542598869.734321,can1 11111111 [8] 00 34 56 B6 00 1F 72 1D
1542598869.734801,can1 11111111 [8] 00 34 56 B7 00 1F 72 1E
1542598869.735272,can1 11111111 [8] 00 34 56 B8 00 1F 72 1E
1542598869.735782,can1 11111111 [8] 00 34 56 B9 00 1F 72 1F
1542598869.736228,can1 11111111 [8] 00 34 56 BA 00 1F 72 20
1542598869.736709,can1 11111111 [8] 00 34 56 BB 00 1F 72 20
1542598869.737181,can1 11111111 [8] 00 34 56 BC 00 1F 72 21
1542598869.737694,can1 11111111 [8] 00 34 56 BD 00 1F 72 21
1542598869.738187,can1 11111111 [8] 00 34 56 BE 00 1F 72 22
1542598869.738661,can1 11111111 [8] 00 34 56 BF 00 1F 72 23
1542598869.739145,can1 18FEDF00 [8] FE FE FE FF FE FF BF FF
1542598869.73956,can1 11111111 [8] 00 34 56 C0 00 1F 72 23
1542598869.740125,can1 0CF00400 [8] 38 FE FE FE FE 00 FF FE
1542598869.740616,can1 11111111 [8] 00 34 56 C2 00 1F 72 24
1542598869.741092,can1 0CF00203 [8] FF 00 00 FF FF AD 47 03
1542598869.74161,can1 11111111 [8] 00 34 56 C3 00 1F 72 25
1542598869.742113,can1 0CF00300 [8] D1 00 FE FF FF FF 00 FF
1542598869.742594,can1 11111111 [8] 00 34 56 C4 00 1F 72 26
1542598869.743597,can1 11111111 [8] 00 34 56 C1 00 1F 72 24
1542598869.744216,can1 11111111 [8] 00 34 56 C5 00 1F 72 26
1542598869.744743,can1 11111111 [8] 00 34 56 C6 00 1F 72 27
1542598869.745292,can1 11111111 [8] 00 34 56 C7 00 1F 72 27
1542598869.745885,can1 11111111 [8] 00 34 56 C8 00 1F 72 28
1542598869.746396,can1 11111111 [8] 00 34 56 C9 00 1F 72 29
1542598869.746877,can1 11111111 [8] 00 34 56 CA 00 1F 72 29
1542598869.747297,can1 11111111 [8] 00 34 56 CB 00 1F 72 2A
1542598869.747842,can1 11111111 [8] 00 34 56 CC 00 1F 72 2A
1542598869.748349,can1 11111111 [8] 00 34 56 CD 00 1F 72 2B
1542598869.748825,can1 11111111 [8] 00 34 56 CE 00 1F 72 2C
1542598869.749298,can1 11111111 [8] 00 34 56 CF 00 1F 72 2C
1542598869.749834,can1 11111111 [8] 00 34 56 D0 00 1F 72 2D
1542598869.750317,can1 11111111 [8] 00 34 56 D1 00 1F 72 2D
1542598869.750785,can1 11111111 [8] 00 34 56 D2 00 1F 72 2E
1542598869.751259,can1 11111111 [8] 00 34 56 D3 00 1F 72 2F
1542598869.751793,can1 11111111 [8] 00 34 56 D4 00 1F 72 2F
1542598869.752228,can1 11111111 [8] 00 34 56 D5 00 1F 72 30
1542598869.752709,can1 11111111 [8] 00 34 56 D6 00 1F 72 30
1542598869.753182,can1 11111111 [8] 00 34 56 D7 00 1F 72 31
1542598869.753712,can1 11111111 [8] 00 34 56 D8 00 1F 72 32
1542598869.754202,can1 11111111 [8] 00 34 56 D9 00 1F 72 32
1542598869.755985,can1 11111111 [8] 00 34 56 DA 00 1F 72 33
1542598869.756748,can1 11111111 [8] 00 34 56 DB 00 1F 72 33
1542598869.757428,can1 11111111 [8] 00 34 56 DC 00 1F 72 34
1542598869.758001,can1 11111111 [8] 00 34 56 DD 00 1F 72 35
1542598869.758525,can1 11111111 [8] 00 34 56 DE 00 1F 72 35
1542598869.759013,can1 11111111 [8] 00 34 56 DF 00 1F 72 36
1542598869.759584,can1 11111111 [8] 00 34 56 E0 00 1F 72 36
1542598869.760083,can1 11111111 [8] 00 34 56 E1 00 1F 72 37
1542598869.760508,can1 11111111 [8] 00 34 56 E2 00 1F 72 38
1542598869.760984,can1 11111111 [8] 00 34 56 E3 00 1F 72 38
1542598869.761529,can1 11111111 [8] 00 34 56 E4 00 1F 72 39
1542598869.762019,can1 11111111 [8] 00 34 56 E5 00 1F 72 39
1542598869.762484,can1 11111111 [8] 00 34 56 E6 00 1F 72 3A
1542598869.762949,can1 11111111 [8] 00 34 56 E7 00 1F 72 3B
1542598869.76349,can1 11111111 [8] 00 34 56 E8 00 1F 72 3B
1542598869.763967,can1 11111111 [8] 00 34 56 E9 00 1F 72 3C
1542598869.764386,can1 11111111 [8] 00 34 56 EA 00 1F 72 3C
1542598869.764865,can1 14FFA000 [8] FC FF FF FF FF FF FF FF
1542598869.765401,can1 11111111 [8] 00 34 56 EB 00 1F 72 3D
1542598869.76589,can1 0CF00400 [8] 38 FE FE FE FE 00 FF FE
1542598869.766365,can1 11111111 [8] 00 34 56 ED 00 1F 72 3E
1542598869.766835,can1 0CF00203 [8] FF 00 00 FF FF AD 47 03
1542598869.76737,can1 11111111 [8] 00 34 56 EE 00 1F 72 3F
1542598869.767852,can1 0CF00400 [8] 38 FE FE FE FE 00 FF FE
1542598869.768318,can1 11111111 [8] 00 34 56 EF 00 1F 72 3F
1542598869.768746,can1 11111111 [8] 00 34 56 EC 00 1F 72 3E
1542598869.769286,can1 11111111 [8] 00 34 56 F0 00 1F 72 40
1542598869.769787,can1 11111111 [8] 00 34 56 F1 00 1F 72 41
1542598869.770269,can1 11111111 [8] 00 34 56 F2 00 1F 72 41
1542598869.770729,can1 11111111 [8] 00 34 56 F3 00 1F 72 42
1542598869.771258,can1 11111111 [8] 00 34 56 F4 00 1F 72 42
1542598869.771737,can1 11111111 [8] 00 34 56 F5 00 1F 72 43
1542598869.77221,can1 11111111 [8] 00 34 56 F6 00 1F 72 44
1542598869.772625,can1 11111111 [8] 00 34 56 F7 00 1F 72 44
1542598869.773163,can1 11111111 [8] 00 34 56 F8 00 1F 72 45
1542598869.773644,can1 11111111 [8] 00 34 56 F9 00 1F 72 45
1542598869.774114,can1 11111111 [8] 00 34 56 FA 00 1F 72 46
1542598869.774595,can1 11111111 [8] 00 34 56 FB 00 1F 72 47
1542598869.775129,can1 11111111 [8] 00 34 56 FC 00 1F 72 47
1542598869.77561,can1 11111111 [8] 00 34 56 FD 00 1F 72 48
1542598869.776084,can1 11111111 [8] 00 34 56 FE 00 1F 72 48
1542598869.776495,can1 11111111 [8] 00 34 56 FF 00 1F 72 49
1542598869.777028,can1 11111111 [8] 00 34 57 00 00 1F 72 4A
1542598869.777508,can1 11111111 [8] 00 34 57 01 00 1F 72 4A
1542598869.777986,can1 11111111 [8] 00 34 57 02 00 1F 72 4B
1542598869.778448,can1 11111111 [8] 00 34 57 03 00 1F 72 4B
1542598869.778973,can1 11111111 [8] 00 34 57 04 00 1F 72 4C
1542598869.779455,can1 11111111 [8] 00 34 57 05 00 1F 72 4D
1542598869.779924,can1 11111111 [8] 00 34 57 06 00 1F 72 4D
1542598869.780349,can1 11111111 [8] 00 34 57 07 00 1F 72 4E
1542598869.780881,can1 11111111 [8] 00 34 57 08 00 1F 72 4E
1542598869.781386,can1 11111111 [8] 00 34 57 09 00 1F 72 4F
1542598869.781861,can1 11111111 [8] 00 34 57 0A 00 1F 72 50
1542598869.782334,can1 11111111 [8] 00 34 57 0B 00 1F 72 50
1542598869.782856,can1 11111111 [8] 00 34 57 0C 00 1F 72 51
1542598869.783354,can1 11111111 [8] 00 34 57 0D 00 1F 72 51
1542598869.783831,can1 11111111 [8] 00 34 57 0E 00 1F 72 52
1542598869.784244,can1 11111111 [8] 00 34 57 0F 00 1F 72 53
1542598869.784775,can1 11111111 [8] 00 34 57 10 00 1F 72 53
1542598869.785271,can1 11111111 [8] 00 34 57 11 00 1F 72 54
1542598869.785745,can1 11111111 [8] 00 34 57 12 00 1F 72 54
1542598869.786214,can1 11111111 [8] 00 34 57 13 00 1F 72 55
1542598869.786731,can1 11111111 [8] 00 34 57 14 00 1F 72 56
1542598869.787216,can1 11111111 [8] 00 34 57 15 00 1F 72 56
1542598869.787686,can1 11111111 [8] 00 34 57 16 00 1F 72 57
1542598869.788104,can1 18FEBF0B [8] 00 00 7D 7D 7D 7D FF FF
1542598869.788623,can1 11111111 [8] 00 34 57 17 00 1F 72 57
1542598869.789113,can1 11111111 [8] 00 34 57 18 00 1F 72 58
1542598869.789591,can1 11111111 [8] 00 34 57 19 00 1F 72 59
1542598869.790058,can1 11111111 [8] 00 34 57 1A 00 1F 72 59
1542598869.79056,can1 11111111 [8] 00 34 57 1B 00 1F 72 5A
1542598869.791052,can1 11111111 [8] 00 34 57 1C 00 1F 72 5A
1542598869.79153,can1 11111111 [8] 00 34 57 1D 00 1F 72 5B
1542598869.791947,can1 11111111 [8] 00 34 57 1E 00 1F 72 5C
1542598869.792468,can1 11111111 [8] 00 34 57 1F 00 1F 72 5C
1542598869.792976,can1 11111111 [8] 00 34 57 20 00 1F 72 5D
1542598869.793461,can1 11111111 [8] 00 34 57 21 00 1F 72 5D
1542598869.79392,can1 18FEBF0B [8] 00 00 7D 7D 7D 7D FF FF
1542598869.794431,can1 11111111 [8] 00 34 57 22 00 1F 72 5E
1542598869.794924,can1 11111111 [8] 00 34 57 23 00 1F 72 5F
1542598869.795399,can1 11111111 [8] 00 34 57 24 00 1F 72 5F
1542598869.796128,can1 11111111 [8] 00 34 57 25 00 1F 72 60
1542598869.796735,can1 11111111 [8] 00 34 57 26 00 1F 72 60
1542598869.797244,can1 11111111 [8] 00 34 57 27 00 1F 72 61
1542598869.79773,can1 11111111 [8] 00 34 57 28 00 1F 72 62
1542598869.798262,can1 11111111 [8] 00 34 57 29 00 1F 72 62
1542598869.798776,can1 11111111 [8] 00 34 57 2A 00 1F 72 63
1542598869.79921,can1 11111111 [8] 00 34 57 2B 00 1F 72 63
1542598869.799685,can1 11111111 [8] 00 34 57 2C 00 1F 72 64
1542598869.800214,can1 18FEDF00 [8] FE FE FE FF FE FF BF FF
1542598869.800712,can1 11111111 [8] 00 34 57 2D 00 1F 72 65
1542598869.8012,can1 0CF00400 [8] 38 FE FE FE FE 00 FF FE
1542598869.80167,can1 11111111 [8] 00 34 57 2F 00 1F 72 66
1542598869.802183,can1 0CF00203 [8] FF 00 00 FF FF AD 47 03
1542598869.802666,can1 11111111 [8] 00 34 57 30 00 1F 72 66
1542598869.803099,can1 0CF00400 [8] 38 FE FE FE FE 00 FF FE
1542598869.803575,can1 11111111 [8] 00 34 57 31 00 1F 72 67
1542598869.80409,can1 0CF00300 [8] D1 00 FE FF FF FF 00 FF
1542598869.804587,can1 11111111 [8] 00 34 57 32 00 1F 72 68
1542598869.805063,can1 11111111 [8] 00 34 57 2E 00 1F 72 65
1542598869.805531,can1 11111111 [8] 00 34 57 33 00 1F 72 68
1542598869.806043,can1 11111111 [8] 00 34 57 34 00 1F 72 69
1542598869.806488,can1 11111111 [8] 00 34 57 35 00 1F 72 69
1542598869.806973,can1 11111111 [8] 00 34 57 36 00 1F 72 6A
1542598869.807442,can1 11111111 [8] 00 34 57 37 00 1F 72 6B
1542598869.807906,can1 11111111 [8] 00 34 57 38 00 1F 72 6B
1542598869.808445,can1 11111111 [8] 00 34 57 39 00 1F 72 6C
1542598869.808926,can1 11111111 [8] 00 34 57 3A 00 1F 72 6C
1542598869.809396,can1 11111111 [8] 00 34 57 3B 00 1F 72 6D
1542598869.809809,can1 11111111 [8] 00 34 57 3C 00 1F 72 6E
1542598869.810344,can1 11111111 [8] 00 34 57 3D 00 1F 72 6E
1542598869.81082,can1 11111111 [8] 00 34 57 3E 00 1F 72 6F
1542598869.811285,can1 11111111 [8] 00 34 57 3F 00 1F 72 6F
1542598869.814003,can1 11111111 [8] 00 34 57 40 00 1F 72 70
1542598869.814749,can1 11111111 [8] 00 34 57 41 00 1F 72 71
1542598869.815334,can1 11111111 [8] 00 34 57 42 00 1F 72 71
1542598869.815977,can1 11111111 [8] 00 34 57 43 00 1F 72 72
1542598869.816451,can1 11111111 [8] 00 34 57 44 00 1F 72 72
1542598869.816954,can1 11111111 [8] 00 34 57 45 00 1F 72 73
1542598869.817435,can1 11111111 [8] 00 34 57 46 00 1F 72 74
1542598869.817974,can1 11111111 [8] 00 34 57 47 00 1F 72 74
1542598869.818468,can1 11111111 [8] 00 34 57 48 00 1F 72 75
1542598869.818957,can1 11111111 [8] 00 34 57 49 00 1F 72 75
1542598869.819432,can1 11111111 [8] 00 34 57 4A 00 1F 72 76
1542598869.819958,can1 11111111 [8] 00 34 57 4B 00 1F 72 77
1542598869.82045,can1 11111111 [8] 00 34 57 4C 00 1F 72 77
1542598869.820927,can1 11111111 [8] 00 34 57 4D 00 1F 72 78
1542598869.821343,can1 11111111 [8] 00 34 57 4E 00 1F 72 78
1542598869.821872,can1 11111111 [8] 00 34 57 4F 00 1F 72 79
1542598869.822361,can1 11111111 [8] 00 34 57 50 00 1F 72 7A
1542598869.822837,can1 11111111 [8] 00 34 57 51 00 1F 72 7A
1542598869.823314,can1 11111111 [8] 00 34 57 52 00 1F 72 7B
1542598869.823831,can1 11111111 [8] 00 34 57 53 00 1F 72 7B
1542598869.824321,can1 11111111 [8] 00 34 57 54 00 1F 72 7C
1542598869.824796,can1 11111111 [8] 00 34 57 55 00 1F 72 7D
1542598869.82526,can1 11111111 [8] 00 34 57 56 00 1F 72 7D
1542598869.825732,can1 11111111 [8] 00 34 57 57 00 1F 72 7E
1542598869.826228,can1 11111111 [8] 00 34 57 58 00 1F 72 7E
1542598869.826705,can1 11111111 [8] 00 34 57 59 00 1F 72 7F
1542598869.827184,can1 11111111 [8] 00 34 57 5A 00 1F 72 80
1542598869.827708,can1 11111111 [8] 00 34 57 5B 00 1F 72 80
1542598869.828202,can1 11111111 [8] 00 34 57 5C 00 1F 72 81
1542598869.828682,can1 11111111 [8] 00 34 57 5D 00 1F 72 81
1542598869.829378,can1 11111111 [8] 00 34 57 5E 00 1F 72 82
1542598869.830078,can1 11111111 [8] 00 34 57 5F 00 1F 72 83
1542598869.830602,can1 11111111 [8] 00 34 57 60 00 1F 72 83
1542598869.831086,can1 11111111 [8] 00 34 57 61 00 1F 72 84
1542598869.831627,can1 11111111 [8] 00 34 57 62 00 1F 72 84
1542598869.832132,can1 11111111 [8] 00 34 57 63 00 1F 72 85
1542598869.832617,can1 18FE4A03 [8] FF FF F3 FF F0 F7 FF FF
1542598869.833087,can1 11111111 [8] 00 34 57 64 00 1F 72 86
1542598869.833624,can1 0CF00400 [8] 38 FE FE FE FE 00 FF FE
1542598869.834137,can1 11111111 [8] 00 34 57 66 00 1F 72 87
1542598869.834567,can1 0CF00203 [8] FF 00 00 FF FF AD 47 03
1542598869.835043,can1 11111111 [8] 00 34 57 67 00 1F 72 87
1542598869.835582,can1 0CF00300 [8] D1 00 FE FF FF FF 00 FF
1542598869.836081,can1 11111111 [8] 00 34 57 68 00 1F 72 88
1542598869.836567,can1 11111111 [8] 00 34 57 65 00 1F 72 86
1542598869.837032,can1 11111111 [8] 00 34 57 69 00 1F 72 89
1542598869.837551,can1 11111111 [8] 00 34 57 6A 00 1F 72 89
1542598869.838041,can1 11111111 [8] 00 34 57 6B 00 1F 72 8A
1542598869.838514,can1 11111111 [8] 00 34 57 6C 00 1F 72 8A
1542598869.838928,can1 11111111 [8] 00 34 57 6D 00 1F 72 8B
1542598869.839459,can1 11111111 [8] 00 34 57 6E 00 1F 72 8C
1542598869.839956,can1 11111111 [8] 00 34 57 6F 00 1F 72 8C
1542598869.840446,can1 11111111 [8] 00 34 57 70 00 1F 72 8D
1542598869.840914,can1 11111111 [8] 00 34 57 71 00 1F 72 8D
1542598869.841423,can1 11111111 [8] 00 34 57 72 00 1F 72 8E
1542598869.841907,can1 11111111 [8] 00 34 57 73 00 1F 72 8F
1542598869.842383,can1 11111111 [8] 00 34 57 74 00 1F 72 8F
1542598869.842864,can1 11111111 [8] 00 34 57 75 00 1F 72 90
1542598869.843399,can1 11111111 [8] 00 34 57 76 00 1F 72 90
1542598869.843842,can1 11111111 [8] 00 34 57 77 00 1F 72 91
1542598869.844324,can1 11111111 [8] 00 34 57 78 00 1F 72 92
1542598869.844794,can1 11111111 [8] 00 34 57 79 00 1F 72 92
1542598869.845323,can1 11111111 [8] 00 34 57 7A 00 1F 72 93
1542598869.845816,can1 11111111 [8] 00 34 57 7B 00 1F 72 93
1542598869.846292,can1 11111111 [8] 00 34 57 7C 00 1F 72 94
1542598869.846762,can1 11111111 [8] 00 34 57 7D 00 1F 72 95
1542598869.847294,can1 11111111 [8] 00 34 57 7E 00 1F 72 95
1542598869.847787,can1 11111111 [8] 00 34 57 7F 00 1F 72 96
1542598869.848216,can1 11111111 [8] 00 34 57 80 00 1F 72 96
1542598869.853582,can1 11111111 [8] 00 34 57 81 00 1F 72 97
1542598869.85424,can1 11111111 [8] 00 34 57 82 00 1F 72 98
1542598869.854774,can1 11111111 [8] 00 34 57 83 00 1F 72 98
1542598869.857489,can1 11111111 [8] 00 34 57 84 00 1F 72 99
1542598869.858184,can1 11111111 [8] 00 34 57 85 00 1F 72 99
1542598869.862762,can1 11111111 [8] 00 34 57 86 00 1F 72 9A
1542598869.863528,can1 11111111 [8] 00 34 57 87 00 1F 72 9B
1542598869.864105,can1 11111111 [8] 00 34 57 88 00 1F 72 9B
1542598869.864698,can1 11111111 [8] 00 34 57 89 00 1F 72 9C
1542598869.865231,can1 11111111 [8] 00 34 57 8A 00 1F 72 9C
1542598869.865725,can1 11111111 [8] 00 34 57 8B 00 1F 72 9D
1542598869.866206,can1 11111111 [8] 00 34 57 8C 00 1F 72 9E
1542598869.870751,can1 11111111 [8] 00 34 57 8D 00 1F 72 9E
1542598869.871511,can1 14FFA000 [8] FC FF FF FF FF FF FF FF
1542598869.872047,can1 11111111 [8] 00 34 57 8E 00 1F 72 9F
1542598869.872628,can1 0CF00400 [8] 38 FE FE FE FE 00 FF FE
1542598869.873144,can1 11111111 [8] 00 34 57 90 00 1F 72 A0
1542598869.873586,can1 0CF00203 [8] FF 00 00 FF FF AD 47 03
1542598869.874066,can1 11111111 [8] 00 34 57 91 00 1F 72 A1
1542598869.8787,can1 11111111 [8] 00 34 57 8F 00 1F 72 9F
1542598869.879384,can1 11111111 [8] 00 34 57 92 00 1F 72 A1
1542598869.879925,can1 11111111 [8] 00 34 57 93 00 1F 72 A2
1542598869.880516,can1 11111111 [8] 00 34 57 94 00 1F 72 A2
1542598869.881026,can1 11111111 [8] 00 34 57 95 00 1F 72 A3
1542598869.881511,can1 11111111 [8] 00 34 57 96 00 1F 72 A4
1542598869.881984,can1 11111111 [8] 00 34 57 97 00 1F 72 A4
1542598869.88659,can1 11111111 [8] 00 34 57 98 00 1F 72 A5
1542598869.887234,can1 11111111 [8] 00 34 57 99 00 1F 72 A5
1542598869.887775,can1 11111111 [8] 00 34 57 9A 00 1F 72 A6
1542598869.888374,can1 11111111 [8] 00 34 57 9B 00 1F 72 A7
1542598869.888889,can1 11111111 [8] 00 34 57 9C 00 1F 72 A7
1542598869.889384,can1 11111111 [8] 00 34 57 9D 00 1F 72 A8
1542598869.889862,can1 11111111 [8] 00 34 57 9E 00 1F 72 A8
1542598869.894573,can1 11111111 [8] 00 34 57 9F 00 1F 72 A9
1542598869.895189,can1 11111111 [8] 00 34 57 A0 00 1F 72 AA
1542598869.895718,can1 11111111 [8] 00 34 57 A1 00 1F 72 AA
1542598869.896565,can1 11111111 [8] 00 34 57 A2 00 1F 72 AB
1542598869.897101,can1 11111111 [8] 00 34 57 A3 00 1F 72 AB
1542598869.89761,can1 11111111 [8] 00 34 57 A4 00 1F 72 AC
1542598869.898182,can1 11111111 [8] 00 34 57 A5 00 1F 72 AD
1542598869.898684,can1 11111111 [8] 00 34 57 A6 00 1F 72 AD
1542598869.899182,can1 11111111 [8] 00 34 57 A7 00 1F 72 AE
1542598869.89966,can1 11111111 [8] 00 34 57 A8 00 1F 72 AE
1542598869.904418,can1 11111111 [8] 00 34 57 A9 00 1F 72 AF
1542598869.905002,can1 11111111 [8] 00 34 57 AA 00 1F 72 B0
1542598869.905509,can1 11111111 [8] 00 34 57 AB 00 1F 72 B0
1542598869.906128,can1 11111111 [8] 00 34 57 AC 00 1F 72 B1
1542598869.906647,can1 11111111 [8] 00 34 57 AD 00 1F 72 B1
1542598869.907076,can1 18F0010B [8] CF FF F0 FF FF DC FF FF
1542598869.908944,can1 11111111 [8] 00 34 57 AE 00 1F 72 B2
1542598869.909799,can1 11111111 [8] 00 34 57 AF 00 1F 72 B3
1542598869.910406,can1 11111111 [8] 00 34 57 B0 00 1F 72 B3
1542598869.910936,can1 11111111 [8] 00 34 57 B1 00 1F 72 B4
1542598869.911437,can1 11111111 [8] 00 34 57 B2 00 1F 72 B4
1542598869.912004,can1 11111111 [8] 00 34 57 B3 00 1F 72 B5
1542598869.912497,can1 11111111 [8] 00 34 57 B4 00 1F 72 B6
1542598869.912974,can1 11111111 [8] 00 34 57 B5 00 1F 72 B6
1542598869.913505,can1 11111111 [8] 00 34 57 B6 00 1F 72 B7
1542598869.914005,can1 11111111 [8] 00 34 57 B7 00 1F 72 B7
1542598869.914491,can1 18FEDF00 [8] FE FE FE FF FE FF BF FF
1542598869.914965,can1 11111111 [8] 00 34 57 B8 00 1F 72 B8
1542598869.915492,can1 0CF00400 [8] 38 FE FE FE FE 00 FF FE
1542598869.915994,can1 11111111 [8] 00 34 57 BA 00 1F 72 B9
1542598869.916422,can1 0CF00203 [8] FF 00 00 FF FF AD 47 03
1542598869.916891,can1 11111111 [8] 00 34 57 BB 00 1F 72 BA
1542598869.917416,can1 0CF00300 [8] D1 00 FE FF FF FF 00 FF
1542598869.918427,can1 11111111 [8] 00 34 57 BC 00 1F 72 BA
1542598869.919046,can1 11111111 [8] 00 34 57 B9 00 1F 72 B9
1542598869.919835,can1 11111111 [8] 00 34 57 BD 00 1F 72 BB
1542598869.920395,can1 11111111 [8] 00 34 57 BE 00 1F 72 BC
1542598869.920889,can1 11111111 [8] 00 34 57 BF 00 1F 72 BC
1542598869.921453,can1 11111111 [8] 00 34 57 C0 00 1F 72 BD
1542598869.921983,can1 11111111 [8] 00 34 57 C1 00 1F 72 BD
1542598869.922474,can1 11111111 [8] 00 34 57 C2 00 1F 72 BE
1542598869.922904,can1 11111111 [8] 00 34 57 C3 00 1F 72 BF
1542598869.923451,can1 11111111 [8] 00 34 57 C4 00 1F 72 BF
1542598869.923953,can1 11111111 [8] 00 34 57 C5 00 1F 72 C0
1542598869.924442,can1 11111111 [8] 00 34 57 C6 00 1F 72 C0
1542598869.924917,can1 11111111 [8] 00 34 57 C7 00 1F 72 C1
1542598869.92544,can1 11111111 [8] 00 34 57 C8 00 1F 72 C2
1542598869.925927,can1 11111111 [8] 00 34 57 C9 00 1F 72 C2
1542598869.926401,can1 11111111 [8] 00 34 57 CA 00 1F 72 C3
1542598869.926818,can1 11111111 [8] 00 34 57 CB 00 1F 72 C3
1542598869.927352,can1 11111111 [8] 00 34 57 CC 00 1F 72 C4
1542598869.927835,can1 11111111 [8] 00 34 57 CD 00 1F 72 C5
1542598869.928313,can1 11111111 [8] 00 34 57 CE 00 1F 72 C5
1542598869.92878,can1 11111111 [8] 00 34 57 CF 00 1F 72 C6
1542598869.929301,can1 11111111 [8] 00 34 57 D0 00 1F 72 C6
1542598869.929791,can1 11111111 [8] 00 34 57 D1 00 1F 72 C7
1542598869.930268,can1 11111111 [8] 00 34 57 D2 00 1F 72 C8
1542598869.930677,can1 11111111 [8] 00 34 57 D3 00 1F 72 C8
1542598869.931207,can1 11111111 [8] 00 34 57 D4 00 1F 72 C9
1542598869.931703,can1 11111111 [8] 00 34 57 D5 00 1F 72 C9
1542598869.932186,can1 11111111 [8] 00 34 57 D6 00 1F 72 CA
1542598869.932652,can1 11111111 [8] 00 34 57 D7 00 1F 72 CB
1542598869.933165,can1 11111111 [8] 00 34 57 D8 00 1F 72 CB
1542598869.933655,can1 11111111 [8] 00 34 57 D9 00 1F 72 CC
1542598869.934132,can1 11111111 [8] 00 34 57 DA 00 1F 72 CC
1542598869.934552,can1 11111111 [8] 00 34 57 DB 00 1F 72 CD
1542598869.935078,can1 11111111 [8] 00 34 57 DC 00 1F 72 CE
1542598869.935572,can1 11111111 [8] 00 34 57 DD 00 1F 72 CE
1542598869.93605,can1 11111111 [8] 00 34 57 DE 00 1F 72 CF
1542598869.936517,can1 11111111 [8] 00 34 57 DF 00 1F 72 CF
1542598869.937042,can1 11111111 [8] 00 34 57 E0 00 1F 72 D0
1542598869.937545,can1 11111111 [8] 00 34 57 E1 00 1F 72 D1
1542598869.938027,can1 11111111 [8] 00 34 57 E2 00 1F 72 D1
1542598869.9385,can1 11111111 [8] 00 34 57 E3 00 1F 72 D2
1542598869.938977,can1 11111111 [8] 00 34 57 E4 00 1F 72 D2
1542598869.939463,can1 11111111 [8] 00 34 57 E5 00 1F 72 D3
1542598869.93994,can1 18F00503 [8] FF 57 9E FF 20 2D 2D 2D
1542598869.94041,can1 11111111 [8] 00 34 57 E6 00 1F 72 D4
1542598869.940925,can1 0CF00400 [8] 38 FE FE FE FE 00 FF FE
1542598869.941412,can1 11111111 [8] 00 34 57 E8 00 1F 72 D5
1542598869.941895,can1 0CF00203 [8] FF 00 00 FF FF AD 47 03
1542598869.942368,can1 11111111 [8] 00 34 57 E9 00 1F 72 D5
1542598869.942892,can1 11111111 [8] 00 34 57 E7 00 1F 72 D4
1542598869.943328,can1 11111111 [8] 00 34 57 EA 00 1F 72 D6
1542598869.943807,can1 11111111 [8] 00 34 57 EB 00 1F 72 D7
1542598869.944283,can1 11111111 [8] 00 34 57 EC 00 1F 72 D7
1542598869.944804,can1 11111111 [8] 00 34 57 ED 00 1F 72 D8
1542598869.945289,can1 11111111 [8] 00 34 57 EE 00 1F 72 D8
1542598869.945762,can1 11111111 [8] 00 34 57 EF 00 1F 72 D9
1542598869.946229,can1 11111111 [8] 00 34 57 F0 00 1F 72 DA
1542598869.946746,can1 11111111 [8] 00 34 57 F1 00 1F 72 DA
1542598869.947236,can1 11111111 [8] 00 34 57 F2 00 1F 72 DB
1542598869.94767,can1 11111111 [8] 00 34 57 F3 00 1F 72 DB
1542598869.948151,can1 11111111 [8] 00 34 57 F4 00 1F 72 DC
1542598869.948676,can1 11111111 [8] 00 34 57 F5 00 1F 72 DD
1542598869.949171,can1 11111111 [8] 00 34 57 F6 00 1F 72 DD
1542598869.949651,can1 11111111 [8] 00 34 57 F7 00 1F 72 DE
1542598869.950117,can1 11111111 [8] 00 34 57 F8 00 1F 72 DE
1542598869.95063,can1 11111111 [8] 00 34 57 F9 00 1F 72 DF
1542598869.95112,can1 11111111 [8] 00 34 57 FA 00 1F 72 E0
1542598869.951544,can1 11111111 [8] 00 34 57 FB 00 1F 72 E0
1542598869.95202,can1 11111111 [8] 00 34 57 FC 00 1F 72 E1
1542598869.952533,can1 11111111 [8] 00 34 57 FD 00 1F 72 E1
1542598869.953033,can1 11111111 [8] 00 34 57 FE 00 1F 72 E2
1542598869.953514,can1 11111111 [8] 00 34 57 FF 00 1F 72 E3
1542598869.953988,can1 11111111 [8] 00 34 58 00 00 1F 72 E3
1542598869.954501,can1 11111111 [8] 00 34 58 01 00 1F 72 E4
1542598869.955008,can1 11111111 [8] 00 34 58 02 00 1F 72 E4
1542598869.955451,can1 11111111 [8] 00 34 58 03 00 1F 72 E5
1542598869.955937,can1 11111111 [8] 00 34 58 04 00 1F 72 E6
1542598869.956456,can1 11111111 [8] 00 34 58 05 00 1F 72 E6
1542598869.956949,can1 11111111 [8] 00 34 58 06 00 1F 72 E7
1542598869.95743,can1 11111111 [8] 00 34 58 07 00 1F 72 E7
1542598869.957898,can1 18FEBF0B [8] 00 00 7D 7D 7D 7D FF FF
1542598869.958412,can1 11111111 [8] 00 34 58 08 00 1F 72 E8
1542598869.958907,can1 11111111 [8] 00 34 58 09 00 1F 72 E9
1542598869.959394,can1 11111111 [8] 00 34 58 0A 00 1F 72 E9
1542598869.959817,can1 11111111 [8] 00 34 58 0B 00 1F 72 EA
1542598869.961768,can1 11111111 [8] 00 34 58 0C 00 1F 72 EA
1542598869.962507,can1 11111111 [8] 00 34 58 0D 00 1F 72 EB
1542598869.963102,can1 11111111 [8] 00 34 58 0E 00 1F 72 EC
1542598869.963631,can1 11111111 [8] 00 34 58 0F 00 1F 72 EC
1542598869.964138,can1 11111111 [8] 00 34 58 10 00 1F 72 ED
1542598869.964835,can1 11111111 [8] 00 34 58 11 00 1F 72 ED
1542598869.965287,can1 11111111 [8] 00 34 58 12 00 1F 72 EE
1542598869.965776,can1 11111111 [8] 00 34 58 13 00 1F 72 EF
1542598869.966404,can1 18FEBF0B [8] 00 00 7D 7D 7D 7D FF FF
1542598869.966944,can1 11111111 [8] 00 34 58 14 00 1F 72 EF
1542598869.967453,can1 11111111 [8] 00 34 58 15 00 1F 72 F0
1542598869.967956,can1 11111111 [8] 00 34 58 16 00 1F 72 F0
1542598869.968521,can1 11111111 [8] 00 34 58 17 00 1F 72 F1
1542598869.969021,can1 11111111 [8] 00 34 58 18 00 1F 72 F2
1542598869.969505,can1 11111111 [8] 00 34 58 19 00 1F 72 F2
1542598869.969976,can1 11111111 [8] 00 34 58 1A 00 1F 72 F3
1542598869.970521,can1 11111111 [8] 00 34 58 1B 00 1F 72 F3
1542598869.971001,can1 11111111 [8] 00 34 58 1C 00 1F 72 F4
1542598869.971473,can1 11111111 [8] 00 34 58 1D 00 1F 72 F5
1542598869.971937,can1 11111111 [8] 00 34 58 1E 00 1F 72 F5
1542598869.972476,can1 18FEBF0B [8] 00 00 7D 7D 7D 7D FF FF
1542598869.972904,can1 11111111 [8] 00 34 58 1F 00 1F 72 F6
1542598869.973389,can1 11111111 [8] 00 34 58 20 00 1F 72 F6
1542598869.973857,can1 11111111 [8] 00 34 58 21 00 1F 72 F7
1542598869.974393,can1 11111111 [8] 00 34 58 22 00 1F 72 F8
1542598869.974872,can1 11111111 [8] 00 34 58 23 00 1F 72 F8
1542598869.975341,can1 11111111 [8] 00 34 58 24 00 1F 72 F9
1542598869.975811,can1 11111111 [8] 00 34 58 25 00 1F 72 F9
1542598869.976348,can1 11111111 [8] 00 34 58 26 00 1F 72 FA
1542598869.976777,can1 11111111 [8] 00 34 58 27 00 1F 72 FB
1542598869.977261,can1 11111111 [8] 00 34 58 28 00 1F 72 FB
1542598869.977732,can1 11111111 [8] 00 34 58 29 00 1F 72 FC
1542598869.978269,can1 11111111 [8] 00 34 58 2A 00 1F 72 FC
1542598869.978756,can1 11111111 [8] 00 34 58 2B 00 1F 72 FD
1542598869.979223,can1 18FEDF00 [8] FE FE FE FF FE FF BF FF
1542598869.979691,can1 11111111 [8] 00 34 58 2C 00 1F 72 FE
1542598869.980225,can1 0CF00400 [8] 38 FE FE FE FE 00 FF FE
1542598869.980658,can1 11111111 [8] 00 34 58 2E 00 1F 72 FF
1542598869.981139,can1 0CF00203 [8] FF 00 00 FF FF AD 47 03
1542598869.981611,can1 11111111 [8] 00 34 58 2F 00 1F 72 FF
1542598869.982137,can1 0CF00300 [8] D1 00 FE FF FF FF 00 FF
1542598869.98262,can1 11111111 [8] 00 34 58 30 00 1F 73 00
1542598869.983108,can1 11111111 [8] 00 34 58 2D 00 1F 72 FE
1542598869.983579,can1 11111111 [8] 00 34 58 31 00 1F 73 01
1542598869.984108,can1 11111111 [8] 00 34 58 32 00 1F 73 01
1542598869.984591,can1 11111111 [8] 00 34 58 33 00 1F 73 02
1542598869.985018,can1 11111111 [8] 00 34 58 34 00 1F 73 02
1542598869.985491,can1 11111111 [8] 00 34 58 35 00 1F 73 03
1542598869.986029,can1 11111111 [8] 00 34 58 36 00 1F 73 04
1542598869.986515,can1 11111111 [8] 00 34 58 37 00 1F 73 04
1542598869.9875,can1 11111111 [8] 00 34 58 38 00 1F 73 05
1542598869.988189,can1 11111111 [8] 00 34 58 39 00 1F 73 06
1542598869.988731,can1 11111111 [8] 00 34 58 3A 00 1F 73 06
1542598869.989229,can1 11111111 [8] 00 34 58 3B 00 1F 73 07
1542598869.989778,can1 11111111 [8] 00 34 58 3C 00 1F 73 07
1542598869.990291,can1 11111111 [8] 00 34 58 3D 00 1F 73 08
1542598869.990772,can1 11111111 [8] 00 34 58 3E 00 1F 73 09
1542598869.99124,can1 11111111 [8] 00 34 58 3F 00 1F 73 09
1542598869.991764,can1 11111111 [8] 00 34 58 40 00 1F 73 0A
1542598869.992267,can1 11111111 [8] 00 34 58 41 00 1F 73 0A
1542598869.992697,can1 11111111 [8] 00 34 58 42 00 1F 73 0B
1542598869.993166,can1 11111111 [8] 00 34 58 43 00 1F 73 0C
1542598869.993688,can1 11111111 [8] 00 34 58 44 00 1F 73 0C
1542598869.99418,can1 11111111 [8] 00 34 58 45 00 1F 73 0D
1542598869.994657,can1 11111111 [8] 00 34 58 46 00 1F 73 0D
1542598869.995117,can1 11111111 [8] 00 34 58 47 00 1F 73 0E
1542598869.995622,can1 11111111 [8] 00 34 58 48 00 1F 73 0F
1542598869.996301,can1 11111111 [8] 00 34 58 49 00 1F 73 0F
1542598869.996862,can1 11111111 [8] 00 34 58 4A 00 1F 73 10
1542598869.997365,can1 11111111 [8] 00 34 58 4B 00 1F 73 10
1542598869.997944,can1 11111111 [8] 00 34 58 4C 00 1F 73 11
1542598869.998443,can1 11111111 [8] 00 34 58 4D 00 1F 73 12
